! VERSION = 6.00
BEGIN_HEADER
 ICCAP_INPUTS
  vg         V  G GROUND SMU2 0.001 LIN        1    -0.6       1.8        49   0.05      
  vb         V  B GROUND SMU4 0.1 LIN        2    0          -1.2       5    -0.3      
  vd         V  D GROUND SMU1 0.1 LIN        3    0.05       1.8        6    0.35      
  vs         V  S GROUND SMU3 0.1 CON        0
 ICCAP_OUTPUTS
  id         I  D GROUND SMU1 B
  ig         I  G GROUND SMU2 B
  ib         I  B GROUND SMU4 B
 ICCAP_VALUES
  MASTER_SETUP_TYPE "~dc_idvg~"
  LINVT_VALUE ""
  LISTVT_VALUE ""
  TYPE "1"
  TEMP "25.0000"
  IS_TNOM "1.00000"
  MAIN.W "10.00u"
  MAIN.L "10.00u"
  MAIN.AD "10.00p"
  MAIN.AS "10.00p"
  MAIN.PD "22.00u"
  MAIN.PS "22.00u"
  MAIN.NF "1.000"
  MAIN.M "1"
  MAIN.NRD "0.000"
  MAIN.NRS "0.000"
  MAIN.LDRIFT1 "1E-06"
  MAIN.LDRIFT2 "1E-06"
  MAIN.SA "0"
  MAIN.SB "0"
  MAIN.SD "0"
  MAIN.SCA "0"
  MAIN.SCB "0"
  MAIN.SCC "0"
  MAIN.SC "0"
  MODULE "Mod_T1"
  PIN_D "1"
  PIN_G "2"
  PIN_S "31"
  PIN_B "32"
  PIN_E ""
  PIN_6 ""
  XY_ID ""
  FUNC "Large"
  STI "SA ref"
  WPE "WPE ref"
  COMMENT ""
  DIS_MEAS ""
  TypeTCI "10"
END_HEADER

BEGIN_DB
 ICCAP_VAR vb         0              
 ICCAP_VAR vd         0.05           
 ICCAP_VAR vs         0              

 #vg              id              ig              ib             
  -0.6            5.31764e-015    2.41487e-015    -4.8789e-016   
  -0.55           5.96985e-015    3.06703e-015    1.6427e-016    
  -0.5            4.86363e-015    1.96057e-015    -9.4219e-016   
  -0.45           -1.26515e-015   -4.16941e-015   -7.07217e-015  
  -0.4            1.60613e-015    -1.30417e-015   -4.20693e-015  
  -0.35           4.15812e-015    1.21752e-015    -1.68524e-015  
  -0.3            7.69051e-015    4.59787e-015    1.69511e-015   
  -0.25           5.11191e-015    1.25644e-015    -1.64632e-015  
  -0.2            9.12784e-015    1.44544e-015    -1.45732e-015  
  -0.15           2.60356e-014    -8.40947e-016   -3.74371e-015  
  -0.1            1.20877e-013    -2.21584e-015   -5.1186e-015   
  -0.05           6.02818e-013    -1.99818e-015   -4.90094e-015  
  0               3.01039e-012    3.35153e-016    -2.56761e-015  
  0.05            1.49476e-011    6.15719e-016    -2.28704e-015  
  0.1             7.3412e-011     2.54868e-016    -2.64789e-015  
  0.15            3.51883e-010    1.51898e-015    -1.38378e-015  
  0.2             1.60701e-009    2.61673e-015    -2.8603e-016   
  0.25            6.7477e-009     -5.29141e-016   -3.4319e-015   
  0.3             2.51888e-008    2.73118e-015    -1.7158e-016   
  0.35            8.26561e-008    9.79529e-016    -1.92323e-015  
  0.4             2.36312e-007    3.66353e-015    7.6077e-016    
  0.45            5.64548e-007    -3.71724e-016   -3.27448e-015  
  0.5             1.09528e-006    -2.72881e-016   -3.17564e-015  
  0.55            1.77841e-006    -2.39193e-015   -5.29469e-015  
  0.6             2.5468e-006     1.46566e-015    -1.4371e-015   
  0.65            3.35451e-006    -7.17585e-016   -3.62035e-015  
  0.7             4.17655e-006    1.58413e-015    -1.31863e-015  
  0.75            4.99999e-006    -1.77392e-015   -4.67668e-015  
  0.8             5.81775e-006    2.63775e-015    -2.6501e-016   
  0.85            6.62548e-006    -3.1826e-016    -3.22102e-015  
  0.9             7.42005e-006    -2.36252e-015   -5.26528e-015  
  0.95            8.19901e-006    1.82242e-015    -1.08034e-015  
  1               8.96031e-006    -2.26819e-015   -5.17095e-015  
  1.05            9.70218e-006    -2.23853e-015   -5.14129e-015  
  1.1             1.04231e-005    8.05919e-016    -2.09684e-015  
  1.15            1.11217e-005    -1.51495e-015   -4.41771e-015  
  1.2             1.17969e-005    5.50779e-016    -2.35198e-015  
  1.25            1.24477e-005    1.96487e-015    -9.3789e-016   
  1.3             1.30734e-005    1.4691e-016     -2.75585e-015  
  1.35            1.36733e-005    2.7052e-016     -2.63224e-015  
  1.4             1.4247e-005     1.43984e-015    -1.46292e-015  
  1.45            1.47943e-005    2.03807e-015    -8.6469e-016   
  1.5             1.53149e-005    1.97531e-015    -9.2745e-016   
  1.55            1.58089e-005    -2.11908e-015   -5.02184e-015  
  1.6             1.62763e-005    -1.13146e-015   -4.03422e-015  
  1.65            1.67174e-005    -4.50819e-015   -7.41095e-015  
  1.7             1.71324e-005    -1.77666e-015   -4.67942e-015  
  1.75            1.75219e-005    -2.89395e-015   -5.79671e-015  
  1.8             1.78862e-005    -1.96962e-015   -4.87238e-015  
END_DB

BEGIN_DB
 ICCAP_VAR vb         -0.3           
 ICCAP_VAR vd         0.05           
 ICCAP_VAR vs         0              

 #vg              id              ig              ib             
  -0.6            1.33479e-014    -1.82717e-015   -3.01771e-014  
  -0.55           1.74391e-014    2.26409e-015    -2.60858e-014  
  -0.5            1.3379e-014     -1.79609e-015   -3.0146e-014   
  -0.45           1.21413e-014    -3.03389e-015   -3.13838e-014  
  -0.4            1.38958e-014    -1.27979e-015   -2.96297e-014  
  -0.35           1.58194e-014    6.41301e-016    -2.77086e-014  
  -0.3            1.54646e-014    2.73725e-016    -2.80762e-014  
  -0.25           1.67692e-014    1.5118e-015     -2.68381e-014  
  -0.2            1.88944e-014    3.29003e-015    -2.50599e-014  
  -0.15           1.6011e-014     -1.40219e-015   -2.97521e-014  
  -0.1            2.61261e-014    -7.14053e-016   -2.9064e-014   
  -0.05           7.56182e-014    -3.33688e-016   -2.86836e-014  
  0               3.33246e-013    1.68032e-015    -2.66696e-014  
  0.05            1.65866e-012    -4.43538e-016   -2.87935e-014  
  0.1             8.52052e-012    3.55103e-016    -2.79948e-014  
  0.15            4.35926e-011    -2.43603e-015   -3.0786e-014   
  0.2             2.18689e-010    1.06068e-015    -2.72893e-014  
  0.25            1.05088e-009    1.608e-015      -2.67419e-014  
  0.3             4.66433e-009    -1.09658e-015   -2.94465e-014  
  0.35            1.83671e-008    -3.02369e-016   -2.86523e-014  
  0.4             6.29879e-008    2.2881e-015     -2.60618e-014  
  0.45            1.87809e-007    -1.79868e-015   -3.01486e-014  
  0.5             4.71895e-007    -4.50303e-016   -2.88002e-014  
  0.55            9.61846e-007    -1.5045e-015    -2.98544e-014  
  0.6             1.61978e-006    3.13417e-015    -2.52158e-014  
  0.65            2.37502e-006    3.42909e-016    -2.8007e-014   
  0.7             3.17494e-006    -1.271e-015     -2.96209e-014  
  0.75            3.99033e-006    2.34704e-015    -2.60029e-014  
  0.8             4.80632e-006    -2.34402e-015   -3.0694e-014   
  0.85            5.61502e-006    -7.09077e-016   -2.9059e-014   
  0.9             6.4118e-006     9.17247e-016    -2.74327e-014  
  0.95            7.19352e-006    4.16576e-016    -2.79334e-014  
  1               7.9578e-006     -9.56177e-016   -2.93061e-014  
  1.05            8.70272e-006    3.00363e-015    -2.53463e-014  
  1.1             9.42668e-006    -1.97241e-015   -3.03223e-014  
  1.15            1.01283e-005    1.57257e-015    -2.67774e-014  
  1.2             1.08065e-005    -1.93002e-015   -3.028e-014    
  1.25            1.14603e-005    -1.92111e-015   -3.0271e-014   
  1.3             1.2089e-005     -2.82548e-015   -3.11754e-014  
  1.35            1.2692e-005     2.54664e-015    -2.58033e-014  
  1.4             1.32688e-005    1.17943e-015    -2.71705e-014  
  1.45            1.38192e-005    1.72789e-015    -2.6622e-014   
  1.5             1.43432e-005    1.54401e-015    -2.68059e-014  
  1.55            1.48406e-005    1.362e-015      -2.69879e-014  
  1.6             1.53116e-005    -9.44762e-016   -2.92947e-014  
  1.65            1.57565e-005    -2.3399e-015    -3.06898e-014  
  1.7             1.61756e-005    -1.11952e-015   -2.94695e-014  
  1.75            1.65694e-005    -9.46911e-016   -2.92968e-014  
  1.8             1.69382e-005    -1.96131e-016   -2.85461e-014  
END_DB

BEGIN_DB
 ICCAP_VAR vb         -0.6           
 ICCAP_VAR vd         0.05           
 ICCAP_VAR vs         0              

 #vg              id              ig              ib             
  -0.6            2.36033e-014    -3.57219e-015   -5.59231e-014  
  -0.55           2.76811e-014    5.05567e-016    -5.18454e-014  
  -0.5            2.95904e-014    2.41487e-015    -4.99361e-014  
  -0.45           3.02425e-014    3.06703e-015    -4.92839e-014  
  -0.4            2.91361e-014    1.96057e-015    -5.03904e-014  
  -0.35           2.30064e-014    -4.16941e-015   -5.65203e-014  
  -0.3            2.58732e-014    -1.30417e-015   -5.36551e-014  
  -0.25           2.84028e-014    1.21752e-015    -5.11334e-014  
  -0.2            3.1826e-014     4.59787e-015    -4.77531e-014  
  -0.15           2.87137e-014    1.25644e-015    -5.10945e-014  
  -0.1            3.01299e-014    1.44544e-015    -5.09055e-014  
  -0.05           3.44156e-014    -8.40947e-016   -5.31919e-014  
  0               6.82216e-014    -2.21584e-015   -5.45668e-014  
  0.05            2.56607e-013    -1.99818e-015   -5.43491e-014  
  0.1             1.26341e-012    3.35153e-016    -5.20158e-014  
  0.15            6.60166e-012    6.15719e-016    -5.17352e-014  
  0.2             3.46805e-011    2.54868e-016    -5.20961e-014  
  0.25            1.7908e-010     1.51898e-015    -5.0832e-014   
  0.3             8.87082e-010    2.61673e-015    -4.97342e-014  
  0.35            4.05934e-009    -5.29141e-016   -5.28801e-014  
  0.4             1.64252e-008    2.73118e-015    -4.96198e-014  
  0.45            5.74829e-008    9.79529e-016    -5.13714e-014  
  0.5             1.74173e-007    3.66353e-015    -4.86874e-014  
  0.55            4.45338e-007    -3.71724e-016   -5.27227e-014  
  0.6             9.23206e-007    -2.72881e-016   -5.26238e-014  
  0.65            1.57383e-006    -2.39193e-015   -5.47429e-014  
  0.7             2.32484e-006    1.46566e-015    -5.08853e-014  
  0.75            3.12092e-006    -7.17585e-016   -5.30685e-014  
  0.8             3.93133e-006    1.58413e-015    -5.07668e-014  
  0.85            4.74055e-006    -1.77392e-015   -5.41249e-014  
  0.9             5.54055e-006    2.63775e-015    -4.97132e-014  
  0.95            6.3267e-006     -3.1826e-016    -5.26692e-014  
  1               7.09597e-006    -2.36252e-015   -5.47135e-014  
  1.05            7.84612e-006    1.82242e-015    -5.05285e-014  
  1.1             8.5754e-006     -2.26819e-015   -5.46191e-014  
  1.15            9.28238e-006    -2.23853e-015   -5.45895e-014  
  1.2             9.96588e-006    8.05919e-016    -5.1545e-014   
  1.25            1.0625e-005     -1.51495e-015   -5.38659e-014  
  1.3             1.12589e-005    5.50779e-016    -5.18002e-014  
  1.35            1.1867e-005     1.96487e-015    -5.03861e-014  
  1.4             1.2449e-005     1.4691e-016     -5.2204e-014   
  1.45            1.30046e-005    2.7052e-016     -5.20804e-014  
  1.5             1.35337e-005    1.43984e-015    -5.09111e-014  
  1.55            1.40364e-005    2.03807e-015    -5.03129e-014  
  1.6             1.45127e-005    1.97531e-015    -5.03756e-014  
  1.65            1.49629e-005    -2.11908e-015   -5.447e-014    
  1.7             1.53874e-005    -1.13146e-015   -5.34824e-014  
  1.75            1.57867e-005    -4.50819e-015   -5.68591e-014  
  1.8             1.61611e-005    -1.77666e-015   -5.41276e-014  
END_DB

BEGIN_DB
 ICCAP_VAR vb         -0.9           
 ICCAP_VAR vd         0.05           
 ICCAP_VAR vs         0              

 #vg              id              ig              ib             
  -0.6            3.6282e-014     -2.89395e-015   -7.92458e-014  
  -0.55           3.72064e-014    -1.96962e-015   -7.83215e-014  
  -0.5            3.73488e-014    -1.82717e-015   -7.8179e-014   
  -0.45           4.14401e-014    2.26409e-015    -7.40878e-014  
  -0.4            3.73799e-014    -1.79609e-015   -7.8148e-014   
  -0.35           3.61421e-014    -3.03389e-015   -7.93858e-014  
  -0.3            3.78965e-014    -1.27979e-015   -7.76317e-014  
  -0.25           3.98187e-014    6.41301e-016    -7.57106e-014  
  -0.2            3.94578e-014    2.73725e-016    -7.60781e-014  
  -0.15           4.07318e-014    1.5118e-015     -7.48401e-014  
  -0.1            4.27067e-014    3.29003e-015    -7.30618e-014  
  -0.05           3.90898e-014    -1.40219e-015   -7.77541e-014  
  0               4.56559e-014    -7.14053e-016   -7.70659e-014  
  0.05            7.81536e-014    -3.33688e-016   -7.66856e-014  
  0.1             2.55512e-013    1.68032e-015    -7.46716e-014  
  0.15            1.2088e-012     -4.43538e-016   -7.67954e-014  
  0.2             6.39168e-012    3.55103e-016    -7.59968e-014  
  0.25            3.42032e-011    -2.43603e-015   -7.87879e-014  
  0.3             1.80032e-010    1.06068e-015    -7.52912e-014  
  0.35            9.07369e-010    1.608e-015      -7.47439e-014  
  0.4             4.20732e-009    -1.09658e-015   -7.74485e-014  
  0.45            1.71445e-008    -3.02369e-016   -7.66542e-014  
  0.5             6.00838e-008    2.2881e-015     -7.40638e-014  
  0.55            1.8163e-007     -1.79868e-015   -7.81506e-014  
  0.6             4.61787e-007    -4.50303e-016   -7.68022e-014  
  0.65            9.49982e-007    -1.5045e-015    -7.78564e-014  
  0.7             1.608e-006      3.13417e-015    -7.32177e-014  
  0.75            2.36203e-006    3.42909e-016    -7.6009e-014   
  0.8             3.15722e-006    -1.271e-015     -7.76229e-014  
  0.85            3.96359e-006    2.34704e-015    -7.40048e-014  
  0.9             4.76619e-006    -2.34402e-015   -7.86959e-014  
  0.95            5.55736e-006    -7.09077e-016   -7.70609e-014  
  1               6.33273e-006    9.17247e-016    -7.54346e-014  
  1.05            7.08947e-006    4.16576e-016    -7.59353e-014  
  1.1             7.82554e-006    -9.56177e-016   -7.7308e-014   
  1.15            8.53937e-006    3.00363e-015    -7.33482e-014  
  1.2             9.22971e-006    -1.97241e-015   -7.83243e-014  
  1.25            9.89558e-006    1.57257e-015    -7.47793e-014  
  1.3             1.05362e-005    -1.93002e-015   -7.82819e-014  
  1.35            1.1151e-005     -1.92111e-015   -7.8273e-014   
  1.4             1.17396e-005    -2.82548e-015   -7.91774e-014  
  1.45            1.23017e-005    2.54664e-015    -7.38052e-014  
  1.5             1.28372e-005    1.17943e-015    -7.51724e-014  
  1.55            1.33462e-005    1.72789e-015    -7.4624e-014   
  1.6             1.38289e-005    1.54401e-015    -7.48079e-014  
  1.65            1.42854e-005    1.362e-015      -7.49899e-014  
  1.7             1.47162e-005    -9.44762e-016   -7.72966e-014  
  1.75            1.51217e-005    -2.3399e-015    -7.86918e-014  
  1.8             1.55024e-005    -1.11952e-015   -7.74714e-014  
END_DB

BEGIN_DB
 ICCAP_VAR vb         -1.2           
 ICCAP_VAR vd         0.05           
 ICCAP_VAR vs         0              

 #vg              id              ig              ib             
  -0.6            5.02295e-014    -9.46911e-016   -1.013e-013    
  -0.55           5.09803e-014    -1.96131e-016   -1.00549e-013  
  -0.5            4.76043e-014    -3.57219e-015   -1.03925e-013  
  -0.45           5.1682e-014     5.05567e-016    -9.98472e-014  
  -0.4            5.35913e-014    2.41487e-015    -9.79379e-014  
  -0.35           5.42435e-014    3.06703e-015    -9.72858e-014  
  -0.3            5.31371e-014    1.96057e-015    -9.83922e-014  
  -0.25           4.70073e-014    -4.16941e-015   -1.04522e-013  
  -0.2            4.98737e-014    -1.30417e-015   -1.01657e-013  
  -0.15           5.24021e-014    1.21752e-015    -9.91353e-014  
  -0.1            5.58195e-014    4.59787e-015    -9.57549e-014  
  -0.05           5.26838e-014    1.25644e-015    -9.90964e-014  
  0               5.40159e-014    1.44544e-015    -9.89074e-014  
  0.05            5.80805e-014    -8.40947e-016   -1.01194e-013  
  0.1             9.19751e-014    -2.21584e-015   -1.02569e-013  
  0.15            2.87881e-013    -1.99818e-015   -1.02351e-013  
  0.2             1.37363e-012    3.35153e-016    -1.00018e-013  
  0.25            7.34217e-012    6.15719e-016    -9.97371e-014  
  0.3             3.98401e-011    2.54868e-016    -1.00098e-013  
  0.35            2.12243e-010    1.51898e-015    -9.88338e-014  
  0.4             1.07758e-009    2.61673e-015    -9.77361e-014  
  0.45            4.99261e-009    -5.29141e-016   -1.00882e-013  
  0.5             2.0153e-008     2.73118e-015    -9.76216e-014  
  0.55            6.9654e-008     9.79529e-016    -9.93733e-014  
  0.6             2.07004e-007    3.66353e-015    -9.66893e-014  
  0.65            5.13833e-007    -3.71724e-016   -1.00725e-013  
  0.7             1.02932e-006    -2.72881e-016   -1.00626e-013  
  0.75            1.70512e-006    -2.39193e-015   -1.02745e-013  
  0.8             2.46685e-006    1.46566e-015    -9.88871e-014  
  0.85            3.26273e-006    -7.17585e-016   -1.0107e-013   
  0.9             4.06529e-006    1.58413e-015    -9.87687e-014  
  0.95            4.86099e-006    -1.77392e-015   -1.02127e-013  
  1               5.6429e-006     2.63775e-015    -9.77151e-014  
  1.05            6.40707e-006    -3.1826e-016    -1.00671e-013  
  1.1             7.15095e-006    -2.36252e-015   -1.02715e-013  
  1.15            7.87273e-006    1.82242e-015    -9.85304e-014  
  1.2             8.57104e-006    -2.26819e-015   -1.02621e-013  
  1.25            9.24482e-006    -2.23853e-015   -1.02591e-013  
  1.3             9.89327e-006    8.05919e-016    -9.95469e-014  
  1.35            1.05158e-005    -1.51495e-015   -1.01868e-013  
  1.4             1.11119e-005    5.50779e-016    -9.9802e-014   
  1.45            1.16815e-005    1.96487e-015    -9.83879e-014  
  1.5             1.22244e-005    1.4691e-016     -1.00206e-013  
  1.55            1.27406e-005    2.7052e-016     -1.00082e-013  
  1.6             1.32303e-005    1.43984e-015    -9.8913e-014   
  1.65            1.36939e-005    2.03807e-015    -9.83147e-014  
  1.7             1.41316e-005    1.97531e-015    -9.83775e-014  
  1.75            1.45439e-005    -2.11908e-015   -1.02472e-013  
  1.8             1.49313e-005    -1.13146e-015   -1.01484e-013  
END_DB

BEGIN_DB
 ICCAP_VAR vb         0              
 ICCAP_VAR vd         0.4            
 ICCAP_VAR vs         0              

 #vg              id              ig              ib             
  -0.6            1.26669e-014    -4.50819e-015   -2.16833e-014  
  -0.55           1.53985e-014    -1.77666e-015   -1.89518e-014  
  -0.5            1.42815e-014    -2.89395e-015   -2.00691e-014  
  -0.45           1.52071e-014    -1.96962e-015   -1.91447e-014  
  -0.4            1.53562e-014    -1.82717e-015   -1.90023e-014  
  -0.35           1.94806e-014    2.26409e-015    -1.4911e-014   
  -0.3            1.55868e-014    -1.79609e-015   -1.89712e-014  
  -0.25           1.51839e-014    -3.03389e-015   -2.0209e-014   
  -0.2            2.11266e-014    -1.27979e-015   -1.84549e-014  
  -0.15           4.40553e-014    6.41301e-016    -1.65338e-014  
  -0.1            1.48995e-013    2.73725e-016    -1.69014e-014  
  -0.05           6.7747e-013     1.5118e-015     -1.56633e-014  
  0               3.31174e-012    3.29003e-015    -1.38851e-014  
  0.05            1.63719e-011    -1.40219e-015   -1.85773e-014  
  0.1             8.0363e-011     -7.14053e-016   -1.78892e-014  
  0.15            3.85186e-010    -3.33688e-016   -1.75088e-014  
  0.2             1.75979e-009    1.68032e-015    -1.54948e-014  
  0.25            7.40154e-009    -4.43538e-016   -1.76187e-014  
  0.3             2.7792e-008     3.55103e-016    -1.682e-014    
  0.35            9.27986e-008    -2.43603e-015   -1.96111e-014  
  0.4             2.77344e-007    1.06068e-015    -1.61144e-014  
  0.45            7.26661e-007    1.608e-015      -1.55671e-014  
  0.5             1.62431e-006    -1.09658e-015   -1.82717e-014  
