! VERSION = 6.00
!combined file by aosykin on Wed 26 Mar 11:42:07 MSK 2025
BEGIN_HEADER
 ICCAP_INPUTS
  vs         V  S GROUND SMU3 0.1 CON        0
  vd         V  D GROUND SMU1 0.1 LIN        3    0.05       1.8        6    0.35      
  vg         V  G GROUND SMU2 0.001 LIN        1    -0.6       1.8        49   0.05      
  vb         V  B GROUND SMU4 0.1 LIN        2    0          -1.2       5    -0.3      
  TEMP_swp   P  TEMP DEFAULT LIST       4 3 -40 25 125
 ICCAP_OUTPUTS
  id         I  D GROUND SMU1 B
  ig         I  G GROUND SMU2 B
  ib         I  B GROUND SMU4 B
END_HEADER

BEGIN_DB
 ICCAP_VAR vs         0              
 ICCAP_VAR vd         0.05           
 ICCAP_VAR vb         0              
 ICCAP_VAR TEMP_swp   -40            

 #vg                    id                    ig                    ib                   
  -0.6                  4.41497e-15           2.41487e-15           4.14773e-16          
  -0.55                 5.06713e-15           3.06703e-15           1.06693e-15          
  -0.5                  3.96067e-15           1.96057e-15           -3.95271e-17         
  -0.45                 -2.16931e-15          -4.16941e-15          -6.16951e-15         
  -0.4                  6.95929e-16           -1.30417e-15          -3.30427e-15         
  -0.35                 3.21763e-15           1.21752e-15           -7.82577e-16         
  -0.3                  6.59806e-15           4.59787e-15           2.59777e-15          
  -0.25                 3.25725e-15           1.25644e-15           -7.43657e-16         
  -0.2                  3.45116e-15           1.44544e-15           -5.54657e-16         
  -0.15                 1.2034e-15            -8.40947e-16          -2.84104e-15         
  -0.1                  1.32347e-16           -2.21584e-15          -4.21594e-15         
  -0.05                 2.7396e-15            -1.99818e-15          -3.99828e-15         
  0                     2.38565e-14           3.35153e-16           -1.66494e-15         
  0.05                  1.71572e-13           6.15719e-16           -1.38438e-15         
  0.1                   1.32375e-12           2.54868e-16           -1.74523e-15         
  0.15                  1.02339e-11           1.51898e-15           -4.81117e-16         
  0.2                   7.70497e-11           2.61673e-15           6.16633e-16          
  0.25                  5.41621e-10           -5.29141e-16          -2.52924e-15         
  0.3                   3.2939e-09            2.73118e-15           7.31083e-16          
  0.35                  1.6091e-08            9.79529e-16           -1.02057e-15         
  0.4                   6.40159e-08           3.66353e-15           1.66343e-15          
  0.45                  2.21421e-07           -3.71724e-16          -2.37182e-15         
  0.5                   6.43886e-07           -2.72881e-16          -2.27298e-15         
  0.55                  1.44087e-06           -2.39193e-15          -4.39203e-15         
  0.6                   2.52722e-06           1.46566e-15           -5.34437e-16         
  0.65                  3.76558e-06           -7.17585e-16          -2.71768e-15         
  0.7                   5.07241e-06           1.58413e-15           -4.15967e-16         
  0.75                  6.40668e-06           -1.77392e-15          -3.77402e-15         
  0.8                   7.74697e-06           2.63775e-15           6.37653e-16          
  0.85                  9.07998e-06           -3.1826e-16           -2.31836e-15         
  0.9                   1.03959e-05           -2.36252e-15          -4.36262e-15         
  0.95                  1.16865e-05           1.82242e-15           -1.77677e-16         
  1                     1.29448e-05           -2.26819e-15          -4.26829e-15         
  1.05                  1.41646e-05           -2.23853e-15          -4.23863e-15         
  1.1                   1.53403e-05           8.05919e-16           -1.19418e-15         
  1.15                  1.64672e-05           -1.51495e-15          -3.51505e-15         
  1.2                   1.75414e-05           5.50779e-16           -1.44932e-15         
  1.25                  1.85595e-05           1.96487e-15           -3.52271e-17         
  1.3                   1.95192e-05           1.4691e-16            -1.85319e-15         
  1.35                  2.04185e-05           2.7052e-16            -1.72958e-15         
  1.4                   2.12563e-05           1.43984e-15           -5.60257e-16         
  1.45                  2.20322e-05           2.03807e-15           3.79729e-17          
  1.5                   2.27463e-05           1.97531e-15           -2.47871e-17         
  1.55                  2.33991e-05           -2.11908e-15          -4.11918e-15         
  1.6                   2.39918e-05           -1.13146e-15          -3.13156e-15         
  1.65                  2.45258e-05           -4.50819e-15          -6.50829e-15         
  1.7                   2.50029e-05           -1.77666e-15          -3.77676e-15         
  1.75                  2.54254e-05           -2.89395e-15          -4.89405e-15         
  1.8                   2.57954e-05           -1.96962e-15          -3.96972e-15         
END_DB

BEGIN_DB
 ICCAP_VAR vs         0              
 ICCAP_VAR vd         0.05           
 ICCAP_VAR vb         -0.3           
 ICCAP_VAR TEMP_swp   -40            

 #vg                    id                    ig                    ib                   
  -0.6                  1.21729e-14           -1.82717e-15          -2.78274e-14         
  -0.55                 1.62642e-14           2.26409e-15           -2.37361e-14         
  -0.5                  1.2204e-14            -1.79609e-15          -2.77963e-14         
  -0.45                 1.09662e-14           -3.03389e-15          -2.90341e-14         
  -0.4                  1.27203e-14           -1.27979e-15          -2.728e-14           
  -0.35                 1.46414e-14           6.41301e-16           -2.53589e-14         
  -0.3                  1.42738e-14           2.73725e-16           -2.57265e-14         
  -0.25                 1.55119e-14           1.5118e-15            -2.44884e-14         
  -0.2                  1.72904e-14           3.29003e-15           -2.27102e-14         
  -0.15                 1.26003e-14           -1.40219e-15          -2.74024e-14         
  -0.1                  1.33058e-14           -7.14053e-16          -2.67143e-14         
  -0.05                 1.38292e-14           -3.33688e-16          -2.63339e-14         
  0                     1.70253e-14           1.68032e-15           -2.43199e-14         
  0.05                  2.46613e-14           -4.43538e-16          -2.64438e-14         
  0.1                   1.05948e-13           3.55103e-16           -2.56451e-14         
  0.15                  7.64755e-13           -2.43603e-15          -2.84363e-14         
  0.2                   6.1557e-12            1.06068e-15           -2.49395e-14         
  0.25                  4.89005e-11           1.608e-15             -2.43922e-14         
  0.3                   3.65776e-10           -1.09658e-15          -2.70968e-14         
  0.35                  2.38315e-09           -3.02369e-16          -2.63026e-14         
  0.4                   1.23947e-08           2.2881e-15            -2.37121e-14         
  0.45                  5.13748e-08           -1.79868e-15          -2.77989e-14         
  0.5                   1.83398e-07           -4.50303e-16          -2.64505e-14         
  0.55                  5.58646e-07           -1.5045e-15           -2.75047e-14         
  0.6                   1.31424e-06           3.13417e-15           -2.28661e-14         
  0.65                  2.38338e-06           3.42909e-16           -2.56573e-14         
  0.7                   3.61597e-06           -1.271e-15            -2.72712e-14         
  0.75                  4.91607e-06           2.34704e-15           -2.36532e-14         
  0.8                   6.23717e-06           -2.34402e-15          -2.83442e-14         
  0.85                  7.55603e-06           -7.09077e-16          -2.67093e-14         
  0.9                   8.85897e-06           9.17247e-16           -2.5083e-14          
  0.95                  1.01364e-05           4.16576e-16           -2.55837e-14         
  1                     1.13807e-05           -9.56177e-16          -2.69564e-14         
  1.05                  1.25855e-05           3.00363e-15           -2.29966e-14         
  1.1                   1.37455e-05           -1.97241e-15          -2.79726e-14         
  1.15                  1.48563e-05           1.57257e-15           -2.44277e-14         
  1.2                   1.59141e-05           -1.93002e-15          -2.79302e-14         
  1.25                  1.69159e-05           -1.92111e-15          -2.79213e-14         
  1.3                   1.78598e-05           -2.82548e-15          -2.88257e-14         
  1.35                  1.87441e-05           2.54664e-15           -2.34536e-14         
  1.4                   1.9568e-05            1.17943e-15           -2.48208e-14         
  1.45                  2.03314e-05           1.72789e-15           -2.42723e-14         
  1.5                   2.10346e-05           1.54401e-15           -2.44562e-14         
  1.55                  2.16784e-05           1.362e-15             -2.46382e-14         
  1.6                   2.2264e-05            -9.44762e-16          -2.6945e-14          
  1.65                  2.27931e-05           -2.3399e-15           -2.83401e-14         
  1.7                   2.32675e-05           -1.11952e-15          -2.71197e-14         
  1.75                  2.36893e-05           -9.46911e-16          -2.69471e-14         
  1.8                   2.4061e-05            -1.96131e-16          -2.61964e-14         
END_DB

BEGIN_DB
 ICCAP_VAR vs         0              
 ICCAP_VAR vd         0.05           
 ICCAP_VAR vb         -0.6           
 ICCAP_VAR TEMP_swp   -40            

 #vg                    id                    ig                    ib                   
  -0.6                  2.24279e-14           -3.57219e-15          -5.35724e-14         
  -0.55                 2.65057e-14           5.05567e-16           -4.94947e-14         
  -0.5                  2.8415e-14            2.41487e-15           -4.75854e-14         
  -0.45                 2.90671e-14           3.06703e-15           -4.69332e-14         
  -0.4                  2.79607e-14           1.96057e-15           -4.80397e-14         
  -0.35                 2.18307e-14           -4.16941e-15          -5.41696e-14         
  -0.3                  2.46959e-14           -1.30417e-15          -5.13044e-14         
  -0.25                 2.72176e-14           1.21752e-15           -4.87827e-14         
  -0.2                  3.0598e-14            4.59787e-15           -4.54024e-14         
  -0.15                 2.72567e-14           1.25644e-15           -4.87438e-14         
  -0.1                  2.74472e-14           1.44544e-15           -4.85548e-14         
  -0.05                 2.51732e-14           -8.40947e-16          -5.08412e-14         
  0                     2.39045e-14           -2.21584e-15          -5.22161e-14         
  0.05                  2.50301e-14           -1.99818e-15          -5.19984e-14         
  0.1                   3.51239e-14           3.35153e-16           -4.96651e-14         
  0.15                  1.01666e-13           6.15719e-16           -4.93845e-14         
  0.2                   6.65257e-13           2.54868e-16           -4.97454e-14         
  0.25                  5.42215e-12           1.51898e-15           -4.84812e-14         
  0.3                   4.44921e-11           2.61673e-15           -4.73835e-14         
  0.35                  3.43934e-10           -5.29141e-16          -5.05294e-14         
  0.4                   2.30378e-09           2.73118e-15           -4.7269e-14          
  0.45                  1.2193e-08            9.79529e-16           -4.90207e-14         
  0.5                   5.09925e-08           3.66353e-15           -4.63367e-14         
  0.55                  1.83384e-07           -3.71724e-16          -5.0372e-14          
  0.6                   5.6301e-07            -2.72881e-16          -5.02731e-14         
  0.65                  1.32917e-06           -2.39193e-15          -5.23922e-14         
  0.7                   2.40796e-06           1.46566e-15           -4.85346e-14         
  0.75                  3.64266e-06           -7.17585e-16          -5.07178e-14         
  0.8                   4.93536e-06           1.58413e-15           -4.84161e-14         
  0.85                  6.23963e-06           -1.77392e-15          -5.17741e-14         
  0.9                   7.53277e-06           2.63775e-15           -4.73625e-14         
  0.95                  8.80175e-06           -3.1826e-16           -5.03185e-14         
  1                     1.00377e-05           -2.36252e-15          -5.23627e-14         
  1.05                  1.12339e-05           1.82242e-15           -4.81778e-14         
  1.1                   1.2385e-05            -2.26819e-15          -5.22684e-14         
  1.15                  1.34864e-05           -2.23853e-15          -5.22388e-14         
  1.2                   1.45348e-05           8.05919e-16           -4.91943e-14         
  1.25                  1.55275e-05           -1.51495e-15          -5.15152e-14         
  1.3                   1.64625e-05           5.50779e-16           -4.94495e-14         
  1.35                  1.73385e-05           1.96487e-15           -4.80354e-14         
  1.4                   1.81551e-05           1.4691e-16            -4.98533e-14         
  1.45                  1.89122e-05           2.7052e-16            -4.97297e-14         
  1.5                   1.96103e-05           1.43984e-15           -4.85604e-14         
  1.55                  2.02503e-05           2.03807e-15           -4.79622e-14         
  1.6                   2.08337e-05           1.97531e-15           -4.80249e-14         
  1.65                  2.1362e-05            -2.11908e-15          -5.21193e-14         
  1.7                   2.18373e-05           -1.13146e-15          -5.11317e-14         
  1.75                  2.22617e-05           -4.50819e-15          -5.45084e-14         
  1.8                   2.26375e-05           -1.77666e-15          -5.17769e-14         
END_DB

BEGIN_DB
 ICCAP_VAR vs         0              
 ICCAP_VAR vd         0.05           
 ICCAP_VAR vb         -0.9           
 ICCAP_VAR TEMP_swp   -40            

 #vg                    id                    ig                    ib                   
  -0.6                  3.51062e-14           -2.89395e-15          -7.68942e-14         
  -0.55                 3.60305e-14           -1.96962e-15          -7.59698e-14         
  -0.5                  3.61729e-14           -1.82717e-15          -7.58274e-14         
  -0.45                 4.02642e-14           2.26409e-15           -7.17361e-14         
  -0.4                  3.6204e-14            -1.79609e-15          -7.57963e-14         
  -0.35                 3.49662e-14           -3.03389e-15          -7.70341e-14         
  -0.3                  3.67203e-14           -1.27979e-15          -7.528e-14           
  -0.25                 3.86414e-14           6.41301e-16           -7.33589e-14         
  -0.2                  3.82738e-14           2.73725e-16           -7.37265e-14         
  -0.15                 3.95119e-14           1.5118e-15            -7.24884e-14         
  -0.1                  4.12903e-14           3.29003e-15           -7.07102e-14         
  -0.05                 3.65995e-14           -1.40219e-15          -7.54024e-14         
  0                     3.73e-14              -7.14053e-16          -7.47143e-14         
  0.05                  3.77891e-14           -3.33688e-16          -7.43339e-14         
  0.1                   4.07569e-14           1.68032e-15           -7.23199e-14         
  0.15                  4.70021e-14           -4.43538e-16          -7.44438e-14         
  0.2                   1.21147e-13           3.55103e-16           -7.36451e-14         
  0.25                  7.58881e-13           -2.43603e-15          -7.64363e-14         
  0.3                   6.29844e-12           1.06068e-15           -7.29395e-14         
  0.35                  5.27557e-11           1.608e-15             -7.23922e-14         
  0.4                   4.13164e-10           -1.09658e-15          -7.50968e-14         
  0.45                  2.75879e-09           -3.02369e-16          -7.43026e-14         
  0.5                   1.43437e-08           2.2881e-15            -7.17121e-14         
  0.55                  5.90665e-08           -1.79868e-15          -7.57989e-14         
  0.6                   2.10508e-07           -4.50303e-16          -7.44505e-14         
  0.65                  6.3364e-07            -1.5045e-15           -7.55047e-14         
  0.7                   1.44945e-06           3.13417e-15           -7.08661e-14         
  0.75                  2.55629e-06           3.42909e-16           -7.36573e-14         
  0.8                   3.79662e-06           -1.271e-15            -7.52712e-14         
  0.85                  5.07928e-06           2.34704e-15           -7.16532e-14         
  0.9                   6.36218e-06           -2.34402e-15          -7.63442e-14         
  0.95                  7.62492e-06           -7.09077e-16          -7.47093e-14         
  1                     8.85592e-06           9.17247e-16           -7.3083e-14          
  1.05                  1.00474e-05           4.16576e-16           -7.35837e-14         
  1.1                   1.11937e-05           -9.56177e-16          -7.49564e-14         
  1.15                  1.22902e-05           3.00363e-15           -7.09966e-14         
  1.2                   1.33337e-05           -1.97241e-15          -7.59726e-14         
  1.25                  1.43216e-05           1.57257e-15           -7.24277e-14         
  1.3                   1.52521e-05           -1.93002e-15          -7.59302e-14         
  1.35                  1.61242e-05           -1.92111e-15          -7.59213e-14         
  1.4                   1.69375e-05           -2.82548e-15          -7.68257e-14         
  1.45                  1.7692e-05            2.54664e-15           -7.14536e-14         
  1.5                   1.83885e-05           1.17943e-15           -7.28208e-14         
  1.55                  1.9028e-05            1.72789e-15           -7.22723e-14         
  1.6                   1.96119e-05           1.54401e-15           -7.24562e-14         
  1.65                  2.0142e-05            1.362e-15             -7.26382e-14         
  1.7                   2.06203e-05           -9.44762e-16          -7.4945e-14          
  1.75                  2.10489e-05           -2.3399e-15           -7.63401e-14         
  1.8                   2.14301e-05           -1.11952e-15          -7.51197e-14         
END_DB

BEGIN_DB
 ICCAP_VAR vs         0              
 ICCAP_VAR vd         0.05           
 ICCAP_VAR vb         -1.2           
 ICCAP_VAR TEMP_swp   -40            

 #vg                    id                    ig                    ib                   
  -0.6                  4.90532e-14           -9.46911e-16          -9.89471e-14         
  -0.55                 4.9804e-14            -1.96131e-16          -9.81964e-14         
  -0.5                  4.64279e-14           -3.57219e-15          -1.01572e-13         
  -0.45                 5.05057e-14           5.05567e-16           -9.74947e-14         
  -0.4                  5.2415e-14            2.41487e-15           -9.55854e-14         
