! VERSION = 6.00
!combined file by aosykin on Thu 27 Mar 11:59:27 MSK 2025
BEGIN_HEADER
 ICCAP_INPUTS
  vg         V  G GROUND SMU2 0.001 LIN        1    -0.6       1.8        49   0.05      
  vb         V  B GROUND SMU4 0.1 LIN        2    0          -1.2       5    -0.3      
  vs         V  S GROUND SMU3 0.1 CON        0
  vd         V  D GROUND SMU1 0.1 LIN        3    0.05       1.8        6    0.35      
  MAIN_L_swp P  MAIN.L DEFAULT LIST       4 7 1.8E-07 2.5E-07 4E-07 6E-07 1E-05 1E-06 2E-06
 ICCAP_OUTPUTS
  id         I  D GROUND SMU1 B
  ig         I  G GROUND SMU2 B
  ib         I  B GROUND SMU4 B
END_HEADER

BEGIN_DB
 ICCAP_VAR vb         0              
 ICCAP_VAR vs         0              
 ICCAP_VAR vd         0.05           
 ICCAP_VAR MAIN_L_swp 1.8e-07        

 #vg                    id                    ig                    ib                   
  -0.6                  5.31765e-15           2.41487e-15           -4.8789e-16          
  -0.55                 5.96988e-15           3.06703e-15           1.6427e-16           
  -0.5                  4.86378e-15           1.96057e-15           -9.4219e-16          
  -0.45                 -1.2645e-15           -4.16941e-15          -7.07217e-15         
  -0.4                  1.60885e-15           -1.30417e-15          -4.20693e-15         
  -0.35                 4.16933e-15           1.21752e-15           -1.68524e-15         
  -0.3                  7.73519e-15           4.59787e-15           1.69511e-15          
  -0.25                 5.28082e-15           1.25644e-15           -1.64632e-15         
  -0.2                  9.71142e-15           1.44544e-15           -1.45732e-15         
  -0.15                 2.77066e-14           -8.40947e-16          -3.74371e-15         
  -0.1                  1.23305e-13           -2.21584e-15          -5.1186e-15          
  -0.05                 5.87139e-13           -1.99818e-15          -4.90094e-15         
  0                     2.80547e-12           3.35153e-16           -2.56761e-15         
  0.05                  1.33927e-11           6.15719e-16           -2.28704e-15         
  0.1                   6.39176e-11           2.54868e-16           -2.64789e-15         
  0.15                  3.04492e-10           1.51898e-15           -1.38378e-15         
  0.2                   1.44427e-09           2.61673e-15           -2.8603e-16          
  0.25                  6.78678e-09           -5.29141e-16          -3.4319e-15          
  0.3                   3.12755e-08           2.73118e-15           -1.7158e-16          
  0.35                  1.38645e-07           9.79529e-16           -1.92323e-15         
  0.4                   5.7314e-07            3.66353e-15           7.6077e-16           
  0.45                  2.1294e-06            -3.71724e-16          -3.27448e-15         
  0.5                   6.9235e-06            -2.72881e-16          -3.17564e-15         
  0.55                  1.93104e-05           -2.39193e-15          -5.29469e-15         
  0.6                   4.4621e-05            1.46566e-15           -1.4371e-15          
  0.65                  8.38082e-05           -7.17585e-16          -3.62035e-15         
  0.7                   0.000131817           1.58413e-15           -1.31863e-15         
  0.75                  0.000182645           -1.77392e-15          -4.67668e-15         
  0.8                   0.000232589           2.63775e-15           -2.6501e-16          
  0.85                  0.000280054           -3.1826e-16           -3.22102e-15         
  0.9                   0.000324572           -2.36252e-15          -5.26528e-15         
  0.95                  0.00036615            1.82242e-15           -1.08034e-15         
  1                     0.000404963           -2.26819e-15          -5.17095e-15         
  1.05                  0.000441236           -2.23853e-15          -5.14129e-15         
  1.1                   0.000475189           8.05919e-16           -2.09684e-15         
  1.15                  0.00050703            -1.51495e-15          -4.41771e-15         
  1.2                   0.000536945           5.50779e-16           -2.35198e-15         
  1.25                  0.000565102           1.96487e-15           -9.3789e-16          
  1.3                   0.00059165            1.4691e-16            -2.75585e-15         
  1.35                  0.000616725           2.7052e-16            -2.63224e-15         
  1.4                   0.000640445           1.43984e-15           -1.46292e-15         
  1.45                  0.000662919           2.03807e-15           -8.6469e-16          
  1.5                   0.000684244           1.97531e-15           -9.2745e-16          
  1.55                  0.000704507           -2.11908e-15          -5.02184e-15         
  1.6                   0.000723786           -1.13146e-15          -4.03422e-15         
  1.65                  0.000742154           -4.50819e-15          -7.41095e-15         
  1.7                   0.000759674           -1.77666e-15          -4.67942e-15         
  1.75                  0.000776405           -2.89395e-15          -5.79671e-15         
  1.8                   0.000792402           -1.96962e-15          -4.87238e-15         
END_DB

BEGIN_DB
 ICCAP_VAR vb         -0.3           
 ICCAP_VAR vs         0              
 ICCAP_VAR vd         0.05           
 ICCAP_VAR MAIN_L_swp 1.8e-07        

 #vg                    id                    ig                    ib                   
  -0.6                  1.33479e-14           -1.82717e-15          -3.01771e-14         
  -0.55                 1.74391e-14           2.26409e-15           -2.60858e-14         
  -0.5                  1.3379e-14            -1.79609e-15          -3.0146e-14          
  -0.45                 1.21415e-14           -3.03389e-15          -3.13838e-14         
  -0.4                  1.38971e-14           -1.27979e-15          -2.96297e-14         
  -0.35                 1.58255e-14           6.41301e-16           -2.77086e-14         
  -0.3                  1.54934e-14           2.73725e-16           -2.80762e-14         
  -0.25                 1.69053e-14           1.5118e-15            -2.68381e-14         
  -0.2                  1.95348e-14           3.29003e-15           -2.50599e-14         
  -0.15                 1.90109e-14           -1.40219e-15          -2.97521e-14         
  -0.1                  4.01094e-14           -7.14053e-16          -2.9064e-14          
  -0.05                 1.40426e-13           -3.33688e-16          -2.86836e-14         
  0                     6.31711e-13           1.68032e-15           -2.66696e-14         
  0.05                  3.02439e-12           -4.43538e-16          -2.87935e-14         
  0.1                   1.47406e-11           3.55103e-16           -2.79948e-14         
  0.15                  7.19829e-11           -2.43603e-15          -3.0786e-14          
  0.2                   3.5098e-10            1.06068e-15           -2.72893e-14         
  0.25                  1.70304e-09           1.608e-15             -2.67419e-14         
  0.3                   8.17563e-09           -1.09658e-15          -2.94465e-14         
  0.35                  3.83738e-08           -3.02369e-16          -2.86523e-14         
  0.4                   1.72234e-07           2.2881e-15            -2.60618e-14         
  0.45                  7.13917e-07           -1.79868e-15          -3.01486e-14         
  0.5                   2.62964e-06           -4.50303e-16          -2.88002e-14         
  0.55                  8.39745e-06           -1.5045e-15           -2.98544e-14         
  0.6                   2.27922e-05           3.13417e-15           -2.52158e-14         
  0.65                  5.08241e-05           3.42909e-16           -2.8007e-14          
  0.7                   9.2184e-05            -1.271e-15            -2.96209e-14         
  0.75                  0.000141143           2.34704e-15           -2.60029e-14         
  0.8                   0.000191961           -2.34402e-15          -3.0694e-14          
  0.85                  0.000241392           -7.09077e-16          -2.9059e-14          
  0.9                   0.000288133           9.17247e-16           -2.74327e-14         
  0.95                  0.000331858           4.16576e-16           -2.79334e-14         
  1                     0.000372633           -9.56177e-16          -2.93061e-14         
  1.05                  0.000410659           3.00363e-15           -2.53463e-14         
  1.1                   0.000446168           -1.97241e-15          -3.03223e-14         
  1.15                  0.000479385           1.57257e-15           -2.67774e-14         
  1.2                   0.000510517           -1.93002e-15          -3.028e-14           
  1.25                  0.000539751           -1.92111e-15          -3.0271e-14          
  1.3                   0.000567253           -2.82548e-15          -3.11754e-14         
  1.35                  0.000593172           2.54664e-15           -2.58033e-14         
  1.4                   0.000617642           1.17943e-15           -2.71705e-14         
  1.45                  0.000640782           1.72789e-15           -2.6622e-14          
  1.5                   0.000662697           1.54401e-15           -2.68059e-14         
  1.55                  0.000683485           1.362e-15             -2.69879e-14         
  1.6                   0.000703231           -9.44762e-16          -2.92947e-14         
  1.65                  0.000722013           -2.3399e-15           -3.06898e-14         
  1.7                   0.000739901           -1.11952e-15          -2.94695e-14         
  1.75                  0.000756959           -9.46911e-16          -2.92968e-14         
  1.8                   0.000773246           -1.96131e-16          -2.85461e-14         
END_DB

BEGIN_DB
 ICCAP_VAR vb         -0.6           
 ICCAP_VAR vs         0              
 ICCAP_VAR vd         0.05           
 ICCAP_VAR MAIN_L_swp 1.8e-07        

 #vg                    id                    ig                    ib                   
  -0.6                  2.36033e-14           -3.57219e-15          -5.59231e-14         
  -0.55                 2.76811e-14           5.05567e-16           -5.18454e-14         
  -0.5                  2.95904e-14           2.41487e-15           -4.99361e-14         
  -0.45                 3.02426e-14           3.06703e-15           -4.92839e-14         
  -0.4                  2.91365e-14           1.96057e-15           -5.03904e-14         
  -0.35                 2.30084e-14           -4.16941e-15          -5.65203e-14         
  -0.3                  2.58828e-14           -1.30417e-15          -5.36551e-14         
  -0.25                 2.84501e-14           1.21752e-15           -5.11334e-14         
  -0.2                  3.20563e-14           4.59787e-15           -4.77531e-14         
  -0.15                 2.98349e-14           1.25644e-15           -5.10945e-14         
  -0.1                  3.55777e-14           1.44544e-15           -5.09055e-14         
  -0.05                 6.08303e-14           -8.40947e-16          -5.31919e-14         
  0                     1.96e-13              -2.21584e-15          -5.45668e-14         
  0.05                  8.73153e-13           -1.99818e-15          -5.43491e-14         
  0.1                   4.23049e-12           3.35153e-16           -5.20158e-14         
  0.15                  2.0848e-11            6.15719e-16           -5.17352e-14         
  0.2                   1.03034e-10           2.54868e-16           -5.20961e-14         
  0.25                  5.08233e-10           1.51898e-15           -5.0832e-14          
  0.3                   2.49205e-09           2.61673e-15           -4.97342e-14         
  0.35                  1.20592e-08           -5.29141e-16          -5.28801e-14         
  0.4                   5.67613e-08           2.73118e-15           -4.96198e-14         
  0.45                  2.53114e-07           9.79529e-16           -5.13714e-14         
  0.5                   1.02888e-06           3.66353e-15           -4.86874e-14         
  0.55                  3.67281e-06           -3.71724e-16          -5.27227e-14         
  0.6                   1.12787e-05           -2.72881e-16          -5.26238e-14         
  0.65                  2.91316e-05           -2.39193e-15          -5.47429e-14         
  0.7                   6.12955e-05           1.46566e-15           -5.08853e-14         
  0.75                  0.000105525           -7.17585e-16          -5.30685e-14         
  0.8                   0.000155514           1.58413e-15           -5.07668e-14         
  0.85                  0.000206133           -1.77392e-15          -5.41249e-14         
  0.9                   0.000254785           2.63775e-15           -4.97132e-14         
  0.95                  0.000300539           -3.1826e-16           -5.26692e-14         
  1                     0.000343233           -2.36252e-15          -5.47135e-14         
  1.05                  0.000382999           1.82242e-15           -5.05285e-14         
  1.1                   0.000420059           -2.26819e-15          -5.46191e-14         
  1.15                  0.000454651           -2.23853e-15          -5.45895e-14         
  1.2                   0.000487              8.05919e-16           -5.1545e-14          
  1.25                  0.000517312           -1.51495e-15          -5.38659e-14         
  1.3                   0.00054577            5.50779e-16           -5.18002e-14         
  1.35                  0.000572538           1.96487e-15           -5.03861e-14         
  1.4                   0.000597761           1.4691e-16            -5.2204e-14          
  1.45                  0.000621571           2.7052e-16            -5.20804e-14         
  1.5                   0.000644083           1.43984e-15           -5.09111e-14         
  1.55                  0.000665402           2.03807e-15           -5.03129e-14         
  1.6                   0.000685622           1.97531e-15           -5.03756e-14         
  1.65                  0.000704827           -2.11908e-15          -5.447e-14           
  1.7                   0.000723093           -1.13146e-15          -5.34824e-14         
  1.75                  0.000740488           -4.50819e-15          -5.68591e-14         
  1.8                   0.000757075           -1.77666e-15          -5.41276e-14         
END_DB

BEGIN_DB
 ICCAP_VAR vb         -0.9           
 ICCAP_VAR vs         0              
 ICCAP_VAR vd         0.05           
 ICCAP_VAR MAIN_L_swp 1.8e-07        

 #vg                    id                    ig                    ib                   
  -0.6                  3.6282e-14            -2.89395e-15          -7.92458e-14         
  -0.55                 3.72064e-14           -1.96962e-15          -7.83215e-14         
  -0.5                  3.73488e-14           -1.82717e-15          -7.8179e-14          
  -0.45                 4.14401e-14           2.26409e-15           -7.40878e-14         
  -0.4                  3.738e-14             -1.79609e-15          -7.8148e-14          
  -0.35                 3.61428e-14           -3.03389e-15          -7.93858e-14         
  -0.3                  3.78999e-14           -1.27979e-15          -7.76317e-14         
  -0.25                 3.98356e-14           6.41301e-16           -7.57106e-14         
  -0.2                  3.95411e-14           2.73725e-16           -7.60781e-14         
  -0.15                 4.11435e-14           1.5118e-15            -7.48401e-14         
  -0.1                  4.47392e-14           3.29003e-15           -7.30618e-14         
  -0.05                 4.9113e-14            -1.40219e-15          -7.77541e-14         
  0                     9.50217e-14           -7.14053e-16          -7.70659e-14         
  0.05                  3.20943e-13           -3.33688e-16          -7.66856e-14         
  0.1                   1.44767e-12           1.68032e-15           -7.46716e-14         
  0.15                  7.05208e-12           -4.43538e-16          -7.67954e-14         
  0.2                   3.49771e-11           3.55103e-16           -7.59968e-14         
  0.25                  1.73795e-10           -2.43603e-15          -7.87879e-14         
  0.3                   8.61065e-10           1.06068e-15           -7.52912e-14         
  0.35                  4.23266e-09           1.608e-15             -7.47439e-14         
  0.4                   2.04515e-08           -1.09658e-15          -7.74485e-14         
  0.45                  9.53761e-08           -3.02369e-16          -7.66542e-14         
  0.5                   4.16003e-07           2.2881e-15            -7.40638e-14         
  0.55                  1.62874e-06           -1.79868e-15          -7.81506e-14         
  0.6                   5.54066e-06           -4.50303e-16          -7.68022e-14         
  0.65                  1.60935e-05           -1.5045e-15           -7.78564e-14         
  0.7                   3.88159e-05           3.13417e-15           -7.32177e-14         
  0.75                  7.58864e-05           3.42909e-16           -7.6009e-14          
  0.8                   0.000122949           -1.271e-15            -7.76229e-14         
  0.85                  0.000173641           2.34704e-15           -7.40048e-14         
  0.9                   0.000223736           -2.34402e-15          -7.86959e-14         
  0.95                  0.000271351           -7.09077e-16          -7.70609e-14         
  1                     0.000315913           9.17247e-16           -7.54346e-14         
  1.05                  0.00035741            4.16576e-16           -7.59353e-14         
  1.1                   0.000396027           -9.56177e-16          -7.7308e-14          
  1.15                  0.000432004           3.00363e-15           -7.33482e-14         
  1.2                   0.000465581           -1.97241e-15          -7.83243e-14         
  1.25                  0.00049698            1.57257e-15           -7.47793e-14         
  1.3                   0.000526402           -1.93002e-15          -7.82819e-14         
  1.35                  0.000554025           -1.92111e-15          -7.8273e-14          
  1.4                   0.000580009           -2.82548e-15          -7.91774e-14         
  1.45                  0.000604496           2.54664e-15           -7.38052e-14         
  1.5                   0.000627612           1.17943e-15           -7.51724e-14         
  1.55                  0.00064947            1.72789e-15           -7.4624e-14          
  1.6                   0.000670171           1.54401e-15           -7.48079e-14         
  1.65                  0.000689806           1.362e-15             -7.49899e-14         
  1.7                   0.000708457           -9.44762e-16          -7.72966e-14         
  1.75                  0.000726197           -2.3399e-15           -7.86918e-14         
  1.8                   0.000743092           -1.11952e-15          -7.74714e-14         
END_DB

BEGIN_DB
 ICCAP_VAR vb         -1.2           
 ICCAP_VAR vs         0              
 ICCAP_VAR vd         0.05           
 ICCAP_VAR MAIN_L_swp 1.8e-07        

 #vg                    id                    ig                    ib                   
  -0.6                  5.02295e-14           -9.46911e-16          -1.013e-13           
  -0.55                 5.09803e-14           -1.96131e-16          -1.00549e-13         
  -0.5                  4.76043e-14           -3.57219e-15          -1.03925e-13         
  -0.45                 5.1682e-14            5.05567e-16           -9.98472e-14         
