! VERSION = 6.00
!combined file by aosykin on Thu 27 Mar 11:13:07 MSK 2025
BEGIN_HEADER
 ICCAP_INPUTS
  vb         V  B GROUND SMU4 0.1 LIN        2    0          -1.2       5    -0.3      
  vd         V  D GROUND SMU1 0.1 LIN        3    0.05       1.8        6    0.35      
  vs         V  S GROUND SMU3 0.1 CON        0
  vg         V  G GROUND SMU2 0.001 LIN        1    -0.6       1.8        49   0.05      
  MAIN_W_swp P  MAIN.W DEFAULT LIST       4 5 2.5E-07 4E-07 6E-07 1E-05 1E-06
 ICCAP_OUTPUTS
  id         I  D GROUND SMU1 B
  ig         I  G GROUND SMU2 B
  ib         I  B GROUND SMU4 B
END_HEADER

BEGIN_DB
 ICCAP_VAR vb         0              
 ICCAP_VAR vd         0.05           
 ICCAP_VAR vs         0              
 ICCAP_VAR MAIN_W_swp 2.5e-07        

 #vg                    id                    ig                    ib                   
  -0.6                  4.50417e-15           2.41487e-15           3.25576e-16          
  -0.55                 5.15633e-15           3.06703e-15           9.77736e-16          
  -0.5                  4.0499e-15            1.96057e-15           -1.28724e-16         
  -0.45                 -2.07992e-15          -4.16941e-15          -6.2587e-15          
  -0.4                  7.86098e-16           -1.30417e-15          -3.39346e-15         
  -0.35                 3.3117e-15            1.21752e-15           -8.71774e-16         
  -0.3                  6.71167e-15           4.59787e-15           2.50858e-15          
  -0.25                 3.46867e-15           1.25644e-15           -8.32854e-16         
  -0.2                  4.1513e-15            1.44544e-15           -6.43854e-16         
  -0.15                 4.33904e-15           -8.40947e-16          -2.93024e-15         
  -0.1                  1.5347e-14            -2.21584e-15          -4.30513e-15         
  -0.05                 7.73448e-14           -1.99818e-15          -4.08747e-15         
  0                     3.85771e-13           3.35153e-16           -1.75414e-15         
  0.05                  1.87981e-12           6.15719e-16           -1.47358e-15         
  0.1                   8.94154e-12           2.54868e-16           -1.83443e-15         
  0.15                  4.03352e-11           1.51898e-15           -5.70314e-16         
  0.2                   1.66188e-10           2.61673e-15           5.27436e-16          
  0.25                  6.06687e-10           -5.29141e-16          -2.61844e-15         
  0.3                   1.9487e-09            2.73118e-15           6.41886e-16          
  0.35                  5.43774e-09           9.79529e-16           -1.10977e-15         
  0.4                   1.26027e-08           3.66353e-15           1.57424e-15          
  0.45                  2.37726e-08           -3.71724e-16          -2.46102e-15         
  0.5                   3.78596e-08           -2.72881e-16          -2.36218e-15         
  0.55                  5.3608e-08            -2.39193e-15          -4.48122e-15         
  0.6                   7.01963e-08           1.46566e-15           -6.23634e-16         
  0.65                  8.71801e-08           -7.17585e-16          -2.80688e-15         
  0.7                   1.04325e-07           1.58413e-15           -5.05164e-16         
  0.75                  1.21497e-07           -1.77392e-15          -3.86321e-15         
  0.8                   1.38609e-07           2.63775e-15           5.48456e-16          
  0.85                  1.55594e-07           -3.1826e-16           -2.40755e-15         
  0.9                   1.72396e-07           -2.36252e-15          -4.45181e-15         
  0.95                  1.88968e-07           1.82242e-15           -2.66874e-16         
  1                     2.05266e-07           -2.26819e-15          -4.35748e-15         
  1.05                  2.2125e-07            -2.23853e-15          -4.32782e-15         
  1.1                   2.36884e-07           8.05919e-16           -1.28338e-15         
  1.15                  2.52136e-07           -1.51495e-15          -3.60424e-15         
  1.2                   2.66978e-07           5.50779e-16           -1.53852e-15         
  1.25                  2.81383e-07           1.96487e-15           -1.24424e-16         
  1.3                   2.9533e-07            1.4691e-16            -1.94238e-15         
  1.35                  3.08801e-07           2.7052e-16            -1.81877e-15         
  1.4                   3.21781e-07           1.43984e-15           -6.49454e-16         
  1.45                  3.34256e-07           2.03807e-15           -5.12242e-17         
  1.5                   3.46219e-07           1.97531e-15           -1.13984e-16         
  1.55                  3.57663e-07           -2.11908e-15          -4.20837e-15         
  1.6                   3.68586e-07           -1.13146e-15          -3.22075e-15         
  1.65                  3.78984e-07           -4.50819e-15          -6.59748e-15         
  1.7                   3.88862e-07           -1.77666e-15          -3.86595e-15         
  1.75                  3.98221e-07           -2.89395e-15          -4.98324e-15         
  1.8                   4.07069e-07           -1.96962e-15          -4.05891e-15         
END_DB

BEGIN_DB
 ICCAP_VAR vb         -0.3           
 ICCAP_VAR vd         0.05           
 ICCAP_VAR vs         0              
 ICCAP_VAR MAIN_W_swp 2.5e-07        

 #vg                    id                    ig                    ib                   
  -0.6                  1.22891e-14           -1.82717e-15          -2.80596e-14         
  -0.55                 1.63803e-14           2.26409e-15           -2.39683e-14         
  -0.5                  1.23201e-14           -1.79609e-15          -2.80285e-14         
  -0.45                 1.10824e-14           -3.03389e-15          -2.92663e-14         
  -0.4                  1.28365e-14           -1.27979e-15          -2.75122e-14         
  -0.35                 1.4758e-14            6.41301e-16           -2.55911e-14         
  -0.3                  1.43925e-14           2.73725e-16           -2.59587e-14         
  -0.25                 1.56413e-14           1.5118e-15            -2.47206e-14         
  -0.2                  1.74752e-14           3.29003e-15           -2.29424e-14         
  -0.15                 1.30735e-14           -1.40219e-15          -2.76346e-14         
  -0.1                  1.52745e-14           -7.14053e-16          -2.69465e-14         
  -0.05                 2.35257e-14           -3.33688e-16          -2.65661e-14         
  0                     6.63758e-14           1.68032e-15           -2.45521e-14         
  0.05                  2.74822e-13           -4.43538e-16          -2.6676e-14          
  0.1                   1.34668e-12           3.55103e-16           -2.58773e-14         
  0.15                  6.63359e-12           -2.43603e-15          -2.86685e-14         
  0.2                   3.12586e-11           1.06068e-15           -2.51718e-14         
  0.25                  1.34552e-10           1.608e-15             -2.46244e-14         
  0.3                   5.09863e-10           -1.09658e-15          -2.7329e-14          
  0.35                  1.68409e-09           -3.02369e-16          -2.65348e-14         
  0.4                   4.82394e-09           2.2881e-15            -2.39443e-14         
  0.45                  1.15128e-08           -1.79868e-15          -2.80311e-14         
  0.5                   2.22849e-08           -4.50303e-16          -2.66827e-14         
  0.55                  3.61255e-08           -1.5045e-15           -2.77369e-14         
  0.6                   5.17143e-08           3.13417e-15           -2.30983e-14         
  0.65                  6.81607e-08           3.42909e-16           -2.58895e-14         
  0.7                   8.49827e-08           -1.271e-15            -2.75034e-14         
  0.75                  1.01929e-07           2.34704e-15           -2.38854e-14         
  0.8                   1.1886e-07            -2.34402e-15          -2.85765e-14         
  0.85                  1.35687e-07           -7.09077e-16          -2.69415e-14         
  0.9                   1.52343e-07           9.17247e-16           -2.53152e-14         
  0.95                  1.68775e-07           4.16576e-16           -2.58159e-14         
  1                     1.84938e-07           -9.56177e-16          -2.71886e-14         
  1.05                  2.00791e-07           3.00363e-15           -2.32288e-14         
  1.1                   2.16296e-07           -1.97241e-15          -2.82048e-14         
  1.15                  2.31424e-07           1.57257e-15           -2.46599e-14         
  1.2                   2.46144e-07           -1.93002e-15          -2.81625e-14         
  1.25                  2.60432e-07           -1.92111e-15          -2.81535e-14         
  1.3                   2.74267e-07           -2.82548e-15          -2.90579e-14         
  1.35                  2.87631e-07           2.54664e-15           -2.36858e-14         
  1.4                   3.00509e-07           1.17943e-15           -2.5053e-14          
  1.45                  3.1289e-07            1.72789e-15           -2.45045e-14         
  1.5                   3.24766e-07           1.54401e-15           -2.46884e-14         
  1.55                  3.36131e-07           1.362e-15             -2.48704e-14         
  1.6                   3.46983e-07           -9.44762e-16          -2.71772e-14         
  1.65                  3.5732e-07            -2.3399e-15           -2.85723e-14         
  1.7                   3.67145e-07           -1.11952e-15          -2.7352e-14          
  1.75                  3.76462e-07           -9.46911e-16          -2.71793e-14         
  1.8                   3.85276e-07           -1.96131e-16          -2.64286e-14         
END_DB

BEGIN_DB
 ICCAP_VAR vb         -0.6           
 ICCAP_VAR vd         0.05           
 ICCAP_VAR vs         0              
 ICCAP_VAR MAIN_W_swp 2.5e-07        

 #vg                    id                    ig                    ib                   
  -0.6                  2.25441e-14           -3.57219e-15          -5.38047e-14         
  -0.55                 2.66218e-14           5.05567e-16           -4.9727e-14          
  -0.5                  2.85311e-14           2.41487e-15           -4.78177e-14         
  -0.45                 2.91833e-14           3.06703e-15           -4.71655e-14         
  -0.4                  2.80769e-14           1.96057e-15           -4.8272e-14          
  -0.35                 2.19469e-14           -4.16941e-15          -5.44019e-14         
  -0.3                  2.48125e-14           -1.30417e-15          -5.15367e-14         
  -0.25                 2.73357e-14           1.21752e-15           -4.9015e-14          
  -0.2                  3.07246e-14           4.59787e-15           -4.56347e-14         
  -0.15                 2.74286e-14           1.25644e-15           -4.89761e-14         
  -0.1                  2.78611e-14           1.44544e-15           -4.87871e-14         
  -0.05                 2.6878e-14            -8.40947e-16          -5.10735e-14         
  0                     3.24696e-14           -2.21584e-15          -5.24484e-14         
  0.05                  6.98258e-14           -1.99818e-15          -5.22307e-14         
  0.1                   2.68923e-13           3.35153e-16           -4.98974e-14         
  0.15                  1.2972e-12            6.15719e-16           -4.96168e-14         
  0.2                   6.50613e-12           2.54868e-16           -4.99777e-14         
  0.25                  3.13138e-11           1.51898e-15           -4.87136e-14         
  0.3                   1.37146e-10           2.61673e-15           -4.76158e-14         
  0.35                  5.24905e-10           -5.29141e-16          -5.07617e-14         
  0.4                   1.73968e-09           2.73118e-15           -4.75014e-14         
  0.45                  4.97879e-09           9.79529e-16           -4.9253e-14          
  0.5                   1.1832e-08            3.66353e-15           -4.6569e-14          
  0.55                  2.27694e-08           -3.71724e-16          -5.06043e-14         
  0.6                   3.6713e-08            -2.72881e-16          -5.05054e-14         
  0.65                  5.23259e-08           -2.39193e-15          -5.26245e-14         
  0.7                   6.87254e-08           1.46566e-15           -4.87669e-14         
  0.75                  8.54398e-08           -7.17585e-16          -5.09501e-14         
  0.8                   1.02226e-07           1.58413e-15           -4.86484e-14         
  0.85                  1.18948e-07           -1.77392e-15          -5.20065e-14         
  0.9                   1.35521e-07           2.63775e-15           -4.75948e-14         
  0.95                  1.51881e-07           -3.1826e-16           -5.05508e-14         
  1                     1.6798e-07            -2.36252e-15          -5.25951e-14         
  1.05                  1.83773e-07           1.82242e-15           -4.84101e-14         
  1.1                   1.99223e-07           -2.26819e-15          -5.25007e-14         
  1.15                  2.14298e-07           -2.23853e-15          -5.24711e-14         
  1.2                   2.2897e-07            8.05919e-16           -4.94266e-14         
  1.25                  2.43213e-07           -1.51495e-15          -5.17475e-14         
  1.3                   2.57006e-07           5.50779e-16           -4.96818e-14         
  1.35                  2.70331e-07           1.96487e-15           -4.82677e-14         
  1.4                   2.83175e-07           1.4691e-16            -5.00856e-14         
  1.45                  2.95527e-07           2.7052e-16            -4.9962e-14          
  1.5                   3.07378e-07           1.43984e-15           -4.87927e-14         
  1.55                  3.18722e-07           2.03807e-15           -4.81945e-14         
  1.6                   3.29559e-07           1.97531e-15           -4.82572e-14         
  1.65                  3.39887e-07           -2.11908e-15          -5.23516e-14         
  1.7                   3.49708e-07           -1.13146e-15          -5.1364e-14          
  1.75                  3.59027e-07           -4.50819e-15          -5.47407e-14         
  1.8                   3.67851e-07           -1.77666e-15          -5.20092e-14         
END_DB

BEGIN_DB
 ICCAP_VAR vb         -0.9           
 ICCAP_VAR vd         0.05           
 ICCAP_VAR vs         0              
 ICCAP_VAR MAIN_W_swp 2.5e-07        

 #vg                    id                    ig                    ib                   
  -0.6                  3.52224e-14           -2.89395e-15          -7.71266e-14         
  -0.55                 3.61467e-14           -1.96962e-15          -7.62022e-14         
  -0.5                  3.62891e-14           -1.82717e-15          -7.60598e-14         
  -0.45                 4.03804e-14           2.26409e-15           -7.19685e-14         
  -0.4                  3.63202e-14           -1.79609e-15          -7.60287e-14         
  -0.35                 3.50824e-14           -3.03389e-15          -7.72665e-14         
  -0.3                  3.68366e-14           -1.27979e-15          -7.55124e-14         
  -0.25                 3.8758e-14            6.41301e-16           -7.35913e-14         
  -0.2                  3.8392e-14            2.73725e-16           -7.39589e-14         
  -0.15                 3.96389e-14           1.5118e-15            -7.27208e-14         
  -0.1                  4.14651e-14           3.29003e-15           -7.09426e-14         
  -0.05                 3.70355e-14           -1.40219e-15          -7.56348e-14         
  0                     3.91578e-14           -7.14053e-16          -7.49467e-14         
  0.05                  4.73622e-14           -3.33688e-16          -7.45663e-14         
  0.1                   9.19311e-14           1.68032e-15           -7.25523e-14         
  0.15                  3.19669e-13           -4.43538e-16          -7.46762e-14         
  0.2                   1.54272e-12           3.55103e-16           -7.38775e-14         
  0.25                  7.81902e-12           -2.43603e-15          -7.66687e-14         
  0.3                   3.7904e-11            1.06068e-15           -7.31719e-14         
  0.35                  1.65569e-10           1.608e-15             -7.26246e-14         
  0.4                   6.26533e-10           -1.09658e-15          -7.53292e-14         
  0.45                  2.04464e-09           -3.02369e-16          -7.4535e-14          
  0.5                   5.72897e-09           2.2881e-15            -7.19445e-14         
  0.55                  1.32237e-08           -1.79868e-15          -7.60313e-14         
  0.6                   2.47259e-08           -4.50303e-16          -7.46829e-14         
  0.65                  3.90062e-08           -1.5045e-15           -7.57371e-14         
  0.7                   5.47577e-08           3.13417e-15           -7.10985e-14         
  0.75                  7.11635e-08           3.42909e-16           -7.38897e-14         
  0.8                   8.77969e-08           -1.271e-15            -7.55036e-14         
  0.85                  1.04438e-07           2.34704e-15           -7.18856e-14         
  0.9                   1.20965e-07           -2.34402e-15          -7.65766e-14         
  0.95                  1.37297e-07           -7.09077e-16          -7.49417e-14         
  1                     1.53378e-07           9.17247e-16           -7.33154e-14         
  1.05                  1.6916e-07            4.16576e-16           -7.38161e-14         
  1.1                   1.84604e-07           -9.56177e-16          -7.51888e-14         
  1.15                  1.99676e-07           3.00363e-15           -7.1229e-14          
  1.2                   2.14347e-07           -1.97241e-15          -7.6205e-14          
  1.25                  2.28593e-07           1.57257e-15           -7.26601e-14         
  1.3                   2.42391e-07           -1.93002e-15          -7.61626e-14         
  1.35                  2.55724e-07           -1.92111e-15          -7.61537e-14         
  1.4                   2.68579e-07           -2.82548e-15          -7.70581e-14         
  1.45                  2.80943e-07           2.54664e-15           -7.1686e-14          
  1.5                   2.92809e-07           1.17943e-15           -7.30532e-14         
  1.55                  3.04173e-07           1.72789e-15           -7.25047e-14         
  1.6                   3.15031e-07           1.54401e-15           -7.26886e-14         
  1.65                  3.25383e-07           1.362e-15             -7.28706e-14         
  1.7                   3.35233e-07           -9.44762e-16          -7.51774e-14         
  1.75                  3.44584e-07           -2.3399e-15           -7.65725e-14         
  1.8                   3.53443e-07           -1.11952e-15          -7.53521e-14         
END_DB

BEGIN_DB
 ICCAP_VAR vb         -1.2           
 ICCAP_VAR vd         0.05           
 ICCAP_VAR vs         0              
 ICCAP_VAR MAIN_W_swp 2.5e-07        

 #vg                    id                    ig                    ib                   
  -0.6                  4.91695e-14           -9.46911e-16          -9.91796e-14         
  -0.55                 4.99202e-14           -1.96131e-16          -9.84289e-14         
  -0.5                  4.65442e-14           -3.57219e-15          -1.01805e-13         
  -0.45                 5.06219e-14           5.05567e-16           -9.77272e-14         
  -0.4                  5.25312e-14           2.41487e-15           -9.58179e-14         
