! VERSION = 6.00
BEGIN_HEADER
 ICCAP_INPUTS
  vd         V  D GROUND SMU1 0.1 LIN        1    0          1.8        37   0.05      
  vg         V  G GROUND SMU2 0.001 LIN        2    0.556      1.8        5    0.311     
  vb         V  B GROUND SMU4 0.1 CON        0
  vs         V  S GROUND SMU3 0.1 CON        0
 ICCAP_OUTPUTS
  id         I  D GROUND SMU1 B
  ig         I  G GROUND SMU2 B
  ib         I  B GROUND SMU4 B
 ICCAP_VALUES
  MASTER_SETUP_TYPE "~dc_idvd~"
  LINVT_VALUE "|idvg|100.0n|200.0m|1.000m|5|1.800|"
  LISTVT_VALUE ""
  TYPE "1"
  TEMP "25.0000"
  IS_TNOM "1.00000"
  MAIN.W "10.00u"
  MAIN.L "10.00u"
  MAIN.AD "10.00p"
  MAIN.AS "10.00p"
  MAIN.PD "22.00u"
  MAIN.PS "22.00u"
  MAIN.NF "1.000"
  MAIN.M "1"
  MAIN.NRD "0.000"
  MAIN.NRS "0.000"
  MAIN.LDRIFT1 "1E-06"
  MAIN.LDRIFT2 "1E-06"
  MAIN.SA "0"
  MAIN.SB "0"
  MAIN.SD "0"
  MAIN.SCA "0"
  MAIN.SCB "0"
  MAIN.SCC "0"
  MAIN.SC "0"
  MODULE "Mod_T1"
  PIN_D "1"
  PIN_G "2"
  PIN_S "31"
  PIN_B "32"
  PIN_E ""
  PIN_6 ""
  XY_ID ""
  FUNC "Large"
  STI "SA ref"
  WPE "WPE ref"
  COMMENT ""
  DIS_MEAS ""
  TypeTCI "10"
END_HEADER

BEGIN_DB
 ICCAP_VAR vg         0.556          
 ICCAP_VAR vb         0              
 ICCAP_VAR vs         0              

 #vd              id              ig              ib             
  0               2.41487e-015    2.41487e-015    2.41487e-015   
  0.05            1.86725e-006    3.06703e-015    1.6427e-016    
  0.1             2.85549e-006    1.96057e-015    -3.1514e-015   
  0.15            3.19549e-006    -4.16941e-015   -1.13299e-014  
  0.2             3.27846e-006    -1.30417e-015   -1.04759e-014  
  0.25            3.30367e-006    1.21752e-015    -9.95677e-015  
  0.3             3.31532e-006    4.59787e-015    -8.57703e-015  
  0.35            3.32272e-006    1.25644e-015    -1.39186e-014  
  0.4             3.32843e-006    1.44544e-015    -1.57297e-014  
  0.45            3.33335e-006    -8.40947e-016   -2.00161e-014  
  0.5             3.33784e-006    -2.21584e-015   -2.33911e-014  
  0.55            3.3421e-006     -1.99818e-015   -2.51735e-014  
  0.6             3.34621e-006    3.35153e-016    -2.48403e-014  
  0.65            3.35023e-006    6.15719e-016    -2.65598e-014  
  0.7             3.35417e-006    2.54868e-016    -2.89207e-014  
  0.75            3.35808e-006    1.51898e-015    -2.96567e-014  
  0.8             3.36195e-006    2.61673e-015    -3.0559e-014   
  0.85            3.36579e-006    -5.29141e-016   -3.5705e-014   
  0.9             3.36962e-006    2.73118e-015    -3.44447e-014  
  0.95            3.37343e-006    9.79529e-016    -3.81964e-014  
  1               3.37723e-006    3.66353e-015    -3.75125e-014  
  1.05            3.38102e-006    -3.71724e-016   -4.35479e-014  
  1.1             3.38481e-006    -2.72881e-016   -4.54491e-014  
  1.15            3.38859e-006    -2.39193e-015   -4.95682e-014  
  1.2             3.39236e-006    1.46566e-015    -4.77107e-014  
  1.25            3.39613e-006    -7.17585e-016   -5.1894e-014   
  1.3             3.3999e-006     1.58413e-015    -5.15924e-014  
  1.35            3.40367e-006    -1.77392e-015   -5.69505e-014  
  1.4             3.40743e-006    2.63775e-015    -5.45389e-014  
  1.45            3.41119e-006    -3.1826e-016    -5.9495e-014   
  1.5             3.41496e-006    -2.36252e-015   -6.35394e-014  
  1.55            3.41872e-006    1.82242e-015    -6.13545e-014  
  1.6             3.42249e-006    -2.26819e-015   -6.74452e-014  
  1.65            3.42627e-006    -2.23853e-015   -6.94156e-014  
  1.7             3.43006e-006    8.05919e-016    -6.83712e-014  
  1.75            3.43386e-006    -1.51495e-015   -7.26922e-014  
  1.8             3.43768e-006    5.50779e-016    -7.26265e-014  
END_DB

BEGIN_DB
 ICCAP_VAR vg         0.867          
 ICCAP_VAR vb         0              
 ICCAP_VAR vs         0              

 #vd              id              ig              ib             
  0               1.96487e-015    1.96487e-015    1.96487e-015   
  0.05            6.89724e-006    1.4691e-016     -2.75585e-015  
  0.1             1.27324e-005    2.7052e-016     -4.84145e-015  
  0.15            1.75116e-005    1.43984e-015    -5.72061e-015  
  0.2             2.12459e-005    2.03807e-015    -7.13362e-015  
  0.25            2.39599e-005    1.97531e-015    -9.19898e-015  
  0.3             2.5717e-005     -2.11908e-015   -1.5294e-014   
  0.35            2.66752e-005    -1.13146e-015   -1.63065e-014  
  0.4             2.7114e-005     -4.50819e-015   -2.16833e-014  
  0.45            2.73069e-005    -1.77666e-015   -2.09519e-014  
  0.5             2.74036e-005    -2.89395e-015   -2.40692e-014  
  0.55            2.74622e-005    -1.96962e-015   -2.5145e-014   
  0.6             2.75043e-005    -1.82717e-015   -2.70026e-014  
  0.65            2.75383e-005    2.26409e-015    -2.49114e-014  
  0.7             2.75679e-005    -1.79609e-015   -3.09717e-014  
  0.75            2.7595e-005     -3.03389e-015   -3.42096e-014  
  0.8             2.76205e-005    -1.27979e-015   -3.44555e-014  
  0.85            2.7645e-005     6.41301e-016    -3.45345e-014  
  0.9             2.76688e-005    2.73725e-016    -3.69022e-014  
  0.95            2.7692e-005     1.5118e-015     -3.76642e-014  
  1               2.77149e-005    3.29003e-015    -3.7886e-014   
  1.05            2.77376e-005    -1.40219e-015   -4.45783e-014  
  1.1             2.776e-005      -7.14053e-016   -4.58903e-014  
  1.15            2.77823e-005    -3.33688e-016   -4.751e-014    
  1.2             2.78044e-005    1.68032e-015    -4.7496e-014   
  1.25            2.78265e-005    -4.43538e-016   -5.162e-014    
  1.3             2.78484e-005    3.55103e-016    -5.28214e-014  
  1.35            2.78703e-005    -2.43603e-015   -5.76126e-014  
  1.4             2.78921e-005    1.06068e-015    -5.6116e-014   
  1.45            2.79139e-005    1.608e-015      -5.75688e-014  
  1.5             2.79357e-005    -1.09658e-015   -6.22734e-014  
  1.55            2.79574e-005    -3.02369e-016   -6.34793e-014  
  1.6             2.79791e-005    2.2881e-015     -6.28889e-014  
  1.65            2.80008e-005    -1.79868e-015   -6.89757e-014  
  1.7             2.80224e-005    -4.50303e-016   -6.96274e-014  
  1.75            2.80441e-005    -1.5045e-015    -7.26817e-014  
  1.8             2.80658e-005    3.13417e-015    -7.00431e-014  
END_DB

BEGIN_DB
 ICCAP_VAR vg         1.178          
 ICCAP_VAR vb         0              
 ICCAP_VAR vs         0              

 #vd              id              ig              ib             
  0               3.42909e-016    3.42909e-016    3.42909e-016   
  0.05            1.15027e-005    -1.271e-015     -4.17376e-015  
  0.1             2.20144e-005    2.34704e-015    -2.76493e-015  
  0.15            3.15376e-005    -2.34402e-015   -9.50447e-015  
  0.2             4.00753e-005    -7.09077e-016   -9.88077e-015  
  0.25            4.76309e-005    9.17247e-016    -1.0257e-014   
  0.3             5.42086e-005    4.16576e-016    -1.27583e-014  
  0.35            5.98138e-005    -9.56177e-016   -1.61312e-014  
  0.4             6.44556e-005    3.00363e-015    -1.41715e-014  
  0.45            6.81495e-005    -1.97241e-015   -2.11476e-014  
  0.5             7.09272e-005    1.57257e-015    -1.96027e-014  
  0.55            7.28545e-005    -1.93002e-015   -2.51054e-014  
  0.6             7.40608e-005    -1.92111e-015   -2.70965e-014  
  0.65            7.47457e-005    -2.82548e-015   -3.0001e-014   
  0.7             7.51212e-005    2.54664e-015    -2.66289e-014  
  0.75            7.53383e-005    1.17943e-015    -2.99962e-014  
  0.8             7.54785e-005    1.72789e-015    -3.14479e-014  
  0.85            7.55799e-005    1.54401e-015    -3.36318e-014  
  0.9             7.56607e-005    1.362e-015      -3.58139e-014  
  0.95            7.57297e-005    -9.44762e-016   -4.01207e-014  
  1               7.57915e-005    -2.3399e-015    -4.3516e-014   
  1.05            7.58487e-005    -1.11952e-015   -4.42957e-014  
  1.1             7.59028e-005    -9.46911e-016   -4.61231e-014  
  1.15            7.59548e-005    -1.96131e-016   -4.73724e-014  
  1.2             7.60052e-005    -3.57219e-015   -5.27486e-014  
  1.25            7.60545e-005    5.05567e-016    -5.06709e-014  
  1.3             7.61029e-005    2.41487e-015    -5.07617e-014  
  1.35            7.61507e-005    3.06703e-015    -5.21096e-014  
  1.4             7.61979e-005    1.96057e-015    -5.52161e-014  
  1.45            7.62447e-005    -4.16941e-015   -6.33462e-014  
  1.5             7.62911e-005    -1.30417e-015   -6.2481e-014   
  1.55            7.63373e-005    1.21752e-015    -6.19594e-014  
  1.6             7.63832e-005    4.59787e-015    -6.05791e-014  
  1.65            7.64289e-005    1.25644e-015    -6.59206e-014  
  1.7             7.64745e-005    1.44544e-015    -6.77317e-014  
  1.75            7.65199e-005    -8.40947e-016   -7.20182e-014  
  1.8             7.65653e-005    -2.21584e-015   -7.53931e-014  
END_DB

BEGIN_DB
 ICCAP_VAR vg         1.489          
 ICCAP_VAR vb         0              
 ICCAP_VAR vs         0              

 #vd              id              ig              ib             
  0               -1.99818e-015   -1.99818e-015   -1.99818e-015  
  0.05            1.52026e-005    3.35153e-016    -2.56761e-015  
  0.1             2.95322e-005    6.15719e-016    -4.49625e-015  
  0.15            4.29908e-005    2.54868e-016    -6.90559e-015  
  0.2             5.55803e-005    1.51898e-015    -7.65271e-015  
  0.25            6.73029e-005    2.61673e-015    -8.55756e-015  
  0.3             7.81607e-005    -5.29141e-016   -1.3704e-014   
  0.35            8.81559e-005    2.73118e-015    -1.24439e-014  
  0.4             9.7291e-005     9.79529e-016    -1.61956e-014  
  0.45            0.000105568     3.66353e-015    -1.55117e-014  
  0.5             0.000112991     -3.71724e-016   -2.1547e-014   
  0.55            0.000119564     -2.72881e-016   -2.34482e-014  
  0.6             0.00012529      -2.39193e-015   -2.75674e-014  
  0.65            0.000130178     1.46566e-015    -2.57098e-014  
  0.7             0.000134239     -7.17585e-016   -2.98932e-014  
  0.75            0.000137493     1.58413e-015    -2.95915e-014  
  0.8             0.000139979     -1.77392e-015   -3.49497e-014  
  0.85            0.000141764     2.63775e-015    -3.25381e-014  
  0.9             0.000142961     -3.1826e-016    -3.74942e-014  
  0.95            0.00014372      -2.36252e-015   -4.15385e-014  
  1               0.000144195     1.82242e-015    -3.93536e-014  
  1.05            0.000144504     -2.26819e-015   -4.54443e-014  
  1.1             0.000144719     -2.23853e-015   -4.74147e-014  
  1.15            0.000144881     8.05919e-016    -4.63704e-014  
  1.2             0.000145013     -1.51495e-015   -5.06913e-014  
  1.25            0.000145126     5.50779e-016    -5.06257e-014  
  1.3             0.000145226     1.96487e-015    -5.12117e-014  
  1.35            0.000145319     1.4691e-016     -5.50297e-014  
  1.4             0.000145406     2.7052e-016     -5.69062e-014  
  1.45            0.000145489     1.43984e-015    -5.77369e-014  
  1.5             0.000145569     2.03807e-015    -5.91388e-014  
  1.55            0.000145647     1.97531e-015    -6.12016e-014  
  1.6             0.000145723     -2.11908e-015   -6.72961e-014  
  1.65            0.000145797     -1.13146e-015   -6.83085e-014  
  1.7             0.000145871     -4.50819e-015   -7.36853e-014  
  1.75            0.000145943     -1.77666e-015   -7.29539e-014  
  1.8             0.000146015     -2.89395e-015   -7.60713e-014  
END_DB

BEGIN_DB
 ICCAP_VAR vg         1.8            
 ICCAP_VAR vb         0              
 ICCAP_VAR vs         0              

 #vd              id              ig              ib             
  0               -1.96962e-015   -1.96962e-015   -1.96962e-015  
  0.05            1.78862e-005    -1.82717e-015   -4.72993e-015  
  0.1             3.50296e-005    2.26409e-015    -2.84788e-015  
  0.15            5.14318e-005    -1.79609e-015   -8.95654e-015  
  0.2             6.70943e-005    -3.03389e-015   -1.22056e-014  
  0.25            8.20187e-005    -1.27979e-015   -1.24541e-014  
  0.3             9.62066e-005    6.41301e-016    -1.25336e-014  
  0.35            0.000109659     2.73725e-016    -1.49013e-014  
  0.4             0.000122379     1.5118e-015     -1.56633e-014  
  0.45            0.000134367     3.29003e-015    -1.58852e-014  
  0.5             0.000145625     -1.40219e-015   -2.25775e-014  
  0.55            0.000156154     -7.14053e-016   -2.38894e-014  
  0.6             0.000165956     -3.33688e-016   -2.55091e-014  
  0.65            0.000175034     1.68032e-015    -2.54952e-014  
  0.7             0.000183389     -4.43538e-016   -2.96191e-014  
  0.75            0.000191024     3.55103e-016    -3.08206e-014  
  0.8             0.00019794      -2.43603e-015   -3.56118e-014  
  0.85            0.000204141     1.06068e-015    -3.41151e-014  
  0.9             0.000209632     1.608e-015      -3.55679e-014  
  0.95            0.000214418     -1.09658e-015   -4.02726e-014  
  1               0.000218508     -3.02369e-016   -4.14784e-014  
  1.05            0.000221916     2.2881e-015     -4.0888e-014   
  1.1             0.000224666     -1.79868e-015   -4.69749e-014  
  1.15            0.000226797     -4.50303e-016   -4.76266e-014  
  1.2             0.000228373     -1.5045e-015    -5.06809e-014  
  1.25            0.000229488     3.13417e-015    -4.80423e-014  
  1.3             0.000230252     3.42909e-016    -5.28336e-014  
  1.35            0.000230776     -1.271e-015     -5.64476e-014  
  1.4             0.000231146     2.34704e-015    -5.48296e-014  
  1.45            0.000231421     -2.34402e-015   -6.15208e-014  
  1.5             0.000231637     -7.09077e-016   -6.18859e-014  
  1.55            0.000231816     9.17247e-016    -6.22597e-014  
  1.6             0.000231971     4.16576e-016    -6.47604e-014  
  1.65            0.00023211      -9.56177e-016   -6.81332e-014  
  1.7             0.000232238     3.00363e-015    -6.61735e-014  
  1.75            0.000232357     -1.97241e-015   -7.31496e-014  
  1.8             0.00023247      1.57257e-015    -7.16047e-014  
END_DB

