! VERSION = 6.00
!combined file by aosykin on Thu 27 Mar 11:57:14 MSK 2025
BEGIN_HEADER
 ICCAP_INPUTS
  vs         V  S GROUND SMU3 0.1 CON        0
  vd         V  D GROUND SMU1 0.1 LIN        1    0          1.8        37   0.05      
  vg         V  G GROUND SMU2 0.001 LIN        2    0.656      1.8        5    0.286     
  vb         V  B GROUND SMU4 0.1 CON        0
  MAIN_L_swp P  MAIN.L DEFAULT LIST       3 7 1.8E-07 2.5E-07 4E-07 6E-07 1E-05 1E-06 2E-06
 ICCAP_OUTPUTS
  id         I  D GROUND SMU1 B
  ig         I  G GROUND SMU2 B
  ib         I  B GROUND SMU4 B
END_HEADER

BEGIN_DB
 ICCAP_VAR vs         0              
 ICCAP_VAR vg         0.656          
 ICCAP_VAR vb         0              
 ICCAP_VAR MAIN_L_swp 1.8e-07        

 #vd                    id                    ig                    ib                   
  0                     2.41487e-15           2.41487e-15           2.41487e-15          
  0.05                  8.92349e-05           3.06703e-15           1.6427e-16           
  0.1                   0.000127815           1.96057e-15           -3.1514e-15          
  0.15                  0.000144229           -4.16941e-15          -1.13299e-14         
  0.2                   0.000154492           -1.30417e-15          -1.04759e-14         
  0.25                  0.000162451           1.21752e-15           -9.95677e-15         
  0.3                   0.000169197           4.59787e-15           -8.57703e-15         
  0.35                  0.000175201           1.25644e-15           -1.39186e-14         
  0.4                   0.000180717           1.44544e-15           -1.57297e-14         
  0.45                  0.000185892           -8.40947e-16          -2.00161e-14         
  0.5                   0.000190824           -2.21584e-15          -2.33911e-14         
  0.55                  0.000195576           -1.99818e-15          -2.51735e-14         
  0.6                   0.000200193           3.35153e-16           -2.48403e-14         
  0.65                  0.000204707           6.15719e-16           -2.65598e-14         
  0.7                   0.000209142           2.54868e-16           -2.89207e-14         
  0.75                  0.000213517           1.51898e-15           -2.96567e-14         
  0.8                   0.000217844           2.61673e-15           -3.0559e-14          
  0.85                  0.000222135           -5.29141e-16          -3.5705e-14          
  0.9                   0.000226399           2.73118e-15           -3.44447e-14         
  0.95                  0.000230642           9.79529e-16           -3.81964e-14         
  1                     0.000234869           3.66353e-15           -3.75125e-14         
  1.05                  0.000239087           -3.71724e-16          -4.35479e-14         
  1.1                   0.000243297           -2.72881e-16          -4.54491e-14         
  1.15                  0.000247504           -2.39193e-15          -4.95682e-14         
  1.2                   0.000251711           1.46566e-15           -4.77107e-14         
  1.25                  0.000255921           -7.17585e-16          -5.1894e-14          
  1.3                   0.000260136           1.58413e-15           -5.15924e-14         
  1.35                  0.000264361           -1.77392e-15          -5.69505e-14         
  1.4                   0.0002686             2.63775e-15           -5.45389e-14         
  1.45                  0.000272862           -3.1826e-16           -5.9495e-14          
  1.5                   0.000277156           -2.36252e-15          -6.35394e-14         
  1.55                  0.000281499           1.82242e-15           -6.13545e-14         
  1.6                   0.000285911           -2.26819e-15          -6.74452e-14         
  1.65                  0.000290423           -2.23853e-15          -6.94156e-14         
  1.7                   0.000295075           8.05919e-16           -6.83712e-14         
  1.75                  0.000299922           -1.51495e-15          -7.26922e-14         
  1.8                   0.000305036           5.50779e-16           -7.26265e-14         
END_DB

BEGIN_DB
 ICCAP_VAR vs         0              
 ICCAP_VAR vg         0.942          
 ICCAP_VAR vb         0              
 ICCAP_VAR MAIN_L_swp 1.8e-07        

 #vd                    id                    ig                    ib                   
  0                     1.96487e-15           1.96487e-15           1.96487e-15          
  0.05                  0.000359688           1.4691e-16            -2.75585e-15         
  0.1                   0.000629451           2.7052e-16            -4.84145e-15         
  0.15                  0.000823625           1.43984e-15           -5.72061e-15         
  0.2                   0.000956201           2.03807e-15           -7.13362e-15         
  0.25                  0.00104383            1.97531e-15           -9.19898e-15         
  0.3                   0.00110377            -2.11908e-15          -1.5294e-14          
  0.35                  0.00114776            -1.13146e-15          -1.63065e-14         
  0.4                   0.00118215            -4.50819e-15          -2.16833e-14         
  0.45                  0.00121039            -1.77666e-15          -2.09519e-14         
  0.5                   0.00123445            -2.89395e-15          -2.40692e-14         
  0.55                  0.00125555            -1.96962e-15          -2.5145e-14          
  0.6                   0.00127448            -1.82717e-15          -2.70026e-14         
  0.65                  0.00129178            2.26409e-15           -2.49114e-14         
  0.7                   0.00130782            -1.79609e-15          -3.09717e-14         
  0.75                  0.00132287            -3.03389e-15          -3.42096e-14         
  0.8                   0.00133711            -1.27979e-15          -3.44555e-14         
  0.85                  0.00135071            6.41301e-16           -3.45345e-14         
  0.9                   0.00136377            2.73725e-16           -3.69022e-14         
  0.95                  0.00137639            1.5118e-15            -3.76642e-14         
  1                     0.00138863            3.29003e-15           -3.7886e-14          
  1.05                  0.00140056            -1.40219e-15          -4.45783e-14         
  1.1                   0.00141222            -7.14053e-16          -4.58903e-14         
  1.15                  0.00142364            -3.33688e-16          -4.751e-14           
  1.2                   0.00143486            1.68032e-15           -4.7496e-14          
  1.25                  0.0014459             -4.43538e-16          -5.162e-14           
  1.3                   0.00145679            3.55103e-16           -5.28214e-14         
  1.35                  0.00146755            -2.43603e-15          -5.76126e-14         
  1.4                   0.0014782             1.06068e-15           -5.6116e-14          
  1.45                  0.00148876            1.608e-15             -5.75688e-14         
  1.5                   0.00149926            -1.09658e-15          -6.22734e-14         
  1.55                  0.00150974            -3.02369e-16          -6.34793e-14         
  1.6                   0.00152025            2.2881e-15            -6.28889e-14         
  1.65                  0.00153085            -1.79868e-15          -6.89757e-14         
  1.7                   0.00154164            -4.50303e-16          -6.96274e-14         
  1.75                  0.00155276            -1.5045e-15           -7.26817e-14         
  1.8                   0.00156439            3.13417e-15           -7.00431e-14         
END_DB

BEGIN_DB
 ICCAP_VAR vs         0              
 ICCAP_VAR vg         1.228          
 ICCAP_VAR vb         0              
 ICCAP_VAR MAIN_L_swp 1.8e-07        

 #vd                    id                    ig                    ib                   
  0                     3.42909e-16           3.42909e-16           3.42909e-16          
  0.05                  0.000552919           -1.271e-15            -4.17376e-15         
  0.1                   0.0010114             2.34704e-15           -2.76493e-15         
  0.15                  0.00138723            -2.34402e-15          -9.50447e-15         
  0.2                   0.00169046            -7.09077e-16          -9.88077e-15         
  0.25                  0.00192986            9.17247e-16           -1.0257e-14          
  0.3                   0.00211354            4.16576e-16           -1.27583e-14         
  0.35                  0.00225028            -9.56177e-16          -1.61312e-14         
  0.4                   0.00235083            3.00363e-15           -1.41715e-14         
  0.45                  0.00242624            -1.97241e-15          -2.11476e-14         
  0.5                   0.00248495            1.57257e-15           -1.96027e-14         
  0.55                  0.00253243            -1.93002e-15          -2.51054e-14         
  0.6                   0.00257212            -1.92111e-15          -2.70965e-14         
  0.65                  0.00260623            -2.82548e-15          -3.0001e-14          
  0.7                   0.00263623            2.54664e-15           -2.66289e-14         
  0.75                  0.0026631             1.17943e-15           -2.99962e-14         
  0.8                   0.00268755            1.72789e-15           -3.14479e-14         
  0.85                  0.00271009            1.54401e-15           -3.36318e-14         
  0.9                   0.00273109            1.362e-15             -3.58139e-14         
  0.95                  0.00275083            -9.44762e-16          -4.01207e-14         
  1                     0.00276954            -2.3399e-15           -4.3516e-14          
  1.05                  0.00278739            -1.11952e-15          -4.42957e-14         
  1.1                   0.0028045             -9.46911e-16          -4.61231e-14         
  1.15                  0.002821              -1.96131e-16          -4.73724e-14         
  1.2                   0.00283696            -3.57219e-15          -5.27486e-14         
  1.25                  0.00285247            5.05567e-16           -5.06709e-14         
  1.3                   0.00286757            2.41487e-15           -5.07617e-14         
  1.35                  0.00288233            3.06703e-15           -5.21096e-14         
  1.4                   0.00289678            1.96057e-15           -5.52161e-14         
  1.45                  0.00291097            -4.16941e-15          -6.33462e-14         
  1.5                   0.00292493            -1.30417e-15          -6.2481e-14          
  1.55                  0.00293872            1.21752e-15           -6.19594e-14         
  1.6                   0.00295238            4.59787e-15           -6.05791e-14         
  1.65                  0.00296598            1.25644e-15           -6.59206e-14         
  1.7                   0.00297961            1.44544e-15           -6.77317e-14         
  1.75                  0.00299341            -8.40947e-16          -7.20182e-14         
  1.8                   0.00300757            -2.21584e-15          -7.53931e-14         
END_DB

BEGIN_DB
 ICCAP_VAR vs         0              
 ICCAP_VAR vg         1.514          
 ICCAP_VAR vb         0              
 ICCAP_VAR MAIN_L_swp 1.8e-07        

 #vd                    id                    ig                    ib                   
  0                     -1.99818e-15          -1.99818e-15          -1.99818e-15         
  0.05                  0.000690021           3.35153e-16           -2.56761e-15         
  0.1                   0.00128757            6.15719e-16           -4.49625e-15         
  0.15                  0.0018026             2.54868e-16           -6.90559e-15         
  0.2                   0.00224371            1.51898e-15           -7.65271e-15         
  0.25                  0.00261834            2.61673e-15           -8.55756e-15         
  0.3                   0.0029329             -5.29141e-16          -1.3704e-14          
  0.35                  0.00319281            2.73118e-15           -1.24439e-14         
  0.4                   0.00340253            9.79529e-16           -1.61956e-14         
  0.45                  0.00356665            3.66353e-15           -1.55117e-14         
  0.5                   0.00369236            -3.71724e-16          -2.1547e-14          
  0.55                  0.00378906            -2.72881e-16          -2.34482e-14         
  0.6                   0.00386525            -2.39193e-15          -2.75674e-14         
  0.65                  0.00392709            1.46566e-15           -2.57098e-14         
  0.7                   0.00397872            -7.17585e-16          -2.98932e-14         
  0.75                  0.0040229             1.58413e-15           -2.95915e-14         
  0.8                   0.00406151            -1.77392e-15          -3.49497e-14         
  0.85                  0.00409585            2.63775e-15           -3.25381e-14         
  0.9                   0.00412685            -3.1826e-16           -3.74942e-14         
  0.95                  0.0041552             -2.36252e-15          -4.15385e-14         
  1                     0.00418141            1.82242e-15           -3.93536e-14         
  1.05                  0.00420587            -2.26819e-15          -4.54443e-14         
  1.1                   0.00422887            -2.23853e-15          -4.74147e-14         
  1.15                  0.00425065            8.05919e-16           -4.63704e-14         
  1.2                   0.0042714             -1.51495e-15          -5.06913e-14         
  1.25                  0.00429127            5.50779e-16           -5.06257e-14         
  1.3                   0.00431038            1.96487e-15           -5.12117e-14         
  1.35                  0.00432884            1.4691e-16            -5.50297e-14         
  1.4                   0.00434673            2.7052e-16            -5.69062e-14         
  1.45                  0.00436411            1.43984e-15           -5.77369e-14         
  1.5                   0.00438106            2.03807e-15           -5.91388e-14         
  1.55                  0.00439764            1.97531e-15           -6.12016e-14         
  1.6                   0.00441389            -2.11908e-15          -6.72961e-14         
  1.65                  0.00442989            -1.13146e-15          -6.83085e-14         
  1.7                   0.00444571            -4.50819e-15          -7.36853e-14         
  1.75                  0.00446147            -1.77666e-15          -7.29539e-14         
  1.8                   0.00447729            -2.89395e-15          -7.60713e-14         
END_DB

BEGIN_DB
 ICCAP_VAR vs         0              
 ICCAP_VAR vg         1.8            
 ICCAP_VAR vb         0              
 ICCAP_VAR MAIN_L_swp 1.8e-07        

 #vd                    id                    ig                    ib                   
  0                     -1.96962e-15          -1.96962e-15          -1.96962e-15         
  0.05                  0.000792402           -1.82717e-15          -4.72993e-15         
  0.1                   0.00149612            2.26409e-15           -2.84788e-15         
  0.15                  0.00211965            -1.79609e-15          -8.95654e-15         
  0.2                   0.00267042            -3.03389e-15          -1.22056e-14         
  0.25                  0.00315499            -1.27979e-15          -1.24541e-14         
  0.3                   0.00357909            6.41301e-16           -1.25336e-14         
  0.35                  0.00394772            2.73725e-16           -1.49013e-14         
  0.4                   0.00426507            1.5118e-15            -1.56633e-14         
  0.45                  0.00453432            3.29003e-15           -1.58852e-14         
  0.5                   0.00475758            -1.40219e-15          -2.25775e-14         
  0.55                  0.00493724            -7.14053e-16          -2.38894e-14         
  0.6                   0.00507868            -3.33688e-16          -2.55091e-14         
  0.65                  0.00519               1.68032e-15           -2.54952e-14         
  0.7                   0.00527912            -4.43538e-16          -2.96191e-14         
  0.75                  0.00535217            3.55103e-16           -3.08206e-14         
  0.8                   0.00541348            -2.43603e-15          -3.56118e-14         
  0.85                  0.00546606            1.06068e-15           -3.41151e-14         
  0.9                   0.00551199            1.608e-15             -3.55679e-14         
  0.95                  0.00555278            -1.09658e-15          -4.02726e-14         
  1                     0.0055895             -3.02369e-16          -4.14784e-14         
  1.05                  0.00562296            2.2881e-15            -4.0888e-14          
  1.1                   0.00565377            -1.79868e-15          -4.69749e-14         
  1.15                  0.0056824             -4.50303e-16          -4.76266e-14         
  1.2                   0.0057092             -1.5045e-15           -5.06809e-14         
  1.25                  0.00573447            3.13417e-15           -4.80423e-14         
  1.3                   0.00575843            3.42909e-16           -5.28336e-14         
  1.35                  0.00578128            -1.271e-15            -5.64476e-14         
  1.4                   0.00580317            2.34704e-15           -5.48296e-14         
  1.45                  0.00582421            -2.34402e-15          -6.15208e-14         
  1.5                   0.00584452            -7.09077e-16          -6.18859e-14         
  1.55                  0.0058642             9.17247e-16           -6.22597e-14         
  1.6                   0.00588331            4.16576e-16           -6.47604e-14         
  1.65                  0.00590194            -9.56177e-16          -6.81332e-14         
  1.7                   0.00592016            3.00363e-15           -6.61735e-14         
  1.75                  0.00593806            -1.97241e-15          -7.31496e-14         
  1.8                   0.00595576            1.57257e-15           -7.16047e-14         
END_DB

BEGIN_DB
 ICCAP_VAR vs         0              
 ICCAP_VAR vg         0.656          
 ICCAP_VAR vb         0              
 ICCAP_VAR MAIN_L_swp 2.5e-07        

 #vd                    id                    ig                    ib                   
  0                     2.41487e-15           2.41487e-15           2.41487e-15          
  0.05                  7.20563e-05           3.06703e-15           1.6427e-16           
  0.1                   0.000106716           1.96057e-15           -3.1514e-15          
  0.15                  0.000120028           -4.16941e-15          -1.13299e-14         
  0.2                   0.000126488           -1.30417e-15          -1.04759e-14         
  0.25                  0.000130796           1.21752e-15           -9.95677e-15         
  0.3                   0.000134114           4.59787e-15           -8.57703e-15         
  0.35                  0.000136861           1.25644e-15           -1.39186e-14         
  0.4                   0.00013924            1.44544e-15           -1.57297e-14         
  0.45                  0.000141365           -8.40947e-16          -2.00161e-14         
  0.5                   0.000143308           -2.21584e-15          -2.33911e-14         
  0.55                  0.000145113           -1.99818e-15          -2.51735e-14         
  0.6                   0.000146813           3.35153e-16           -2.48403e-14         
