! VERSION = 6.00
BEGIN_HEADER
 ICCAP_INPUTS
  vg         V  G GROUND SMU2 0.001 LIN        1    -0.6       1.8        49   0.05      
  vb         V  B GROUND SMU4 0.1 LIN        2    0          -1.2       5    -0.3      
  vd         V  D GROUND SMU1 0.1 LIN        3    0.05       1.8        6    0.35      
  vs         V  S GROUND SMU3 0.1 CON        0
 ICCAP_OUTPUTS
  id         I  D GROUND SMU1 B
  ig         I  G GROUND SMU2 B
  ib         I  B GROUND SMU4 B
 ICCAP_VALUES
  MASTER_SETUP_TYPE "~dc_idvg~"
  LINVT_VALUE ""
  LISTVT_VALUE ""
  TYPE "1"
  TEMP "25.0000"
  IS_TNOM "1.00000"
  MAIN.W "250.0n"
  MAIN.L "180.0n"
  MAIN.AD "250.0f"
  MAIN.AS "250.0f"
  MAIN.PD "2.500u"
  MAIN.PS "2.500u"
  MAIN.NF "1.000"
  MAIN.M "1"
  MAIN.NRD "0.000"
  MAIN.NRS "0.000"
  MAIN.LDRIFT1 "1E-06"
  MAIN.LDRIFT2 "1E-06"
  MAIN.SA "0"
  MAIN.SB "0"
  MAIN.SD "0"
  MAIN.SCA "0"
  MAIN.SCB "0"
  MAIN.SCC "0"
  MAIN.SC "0"
  MODULE "Mod_T1"
  PIN_D "7"
  PIN_G "8"
  PIN_S "31"
  PIN_B "32"
  PIN_E ""
  PIN_6 ""
  XY_ID ""
  FUNC "Small"
  STI "SA ref"
  WPE "WPE ref"
  COMMENT ""
  DIS_MEAS ""
  TypeTCI "10"
END_HEADER

BEGIN_DB
 ICCAP_VAR vb         0              
 ICCAP_VAR vd         0.05           
 ICCAP_VAR vs         0              

 #vg              id              ig              ib             
  -0.6            4.50417e-015    2.41487e-015    3.25576e-016   
  -0.55           5.15633e-015    3.06703e-015    9.77736e-016   
  -0.5            4.04989e-015    1.96057e-015    -1.28724e-016  
  -0.45           -2.07999e-015   -4.16941e-015   -6.2587e-015   
  -0.4            7.85749e-016    -1.30417e-015   -3.39346e-015  
  -0.35           3.30981e-015    1.21752e-015    -8.71774e-016  
  -0.3            6.70156e-015    4.59787e-015    2.50858e-015   
  -0.25           3.41481e-015    1.25644e-015    -8.32854e-016  
  -0.2            3.86618e-015    1.44544e-015    -6.43854e-016  
  -0.15           2.8387e-015     -8.40947e-016   -2.93024e-015  
  -0.1            7.50389e-015    -2.21584e-015   -4.30513e-015  
  -0.05           3.66964e-014    -1.99818e-015   -4.08747e-015  
  0               1.77976e-013    3.35153e-016    -1.75414e-015  
  0.05            8.44038e-013    6.15719e-016    -1.47358e-015  
  0.1             4.02846e-012    2.54868e-016    -1.83443e-015  
  0.15            1.9208e-011     1.51898e-015    -5.70314e-016  
  0.2             9.09723e-011    2.61673e-015    5.27436e-016   
  0.25            4.24584e-010    -5.29141e-016   -2.61844e-015  
  0.3             1.92301e-009    2.73118e-015    6.41886e-016   
  0.35            8.2296e-009     9.79529e-016    -1.10977e-015  
  0.4             3.20929e-008    3.66353e-015    1.57424e-015   
  0.45            1.10495e-007    -3.71724e-016   -2.46102e-015  
  0.5             3.29806e-007    -2.72881e-016   -2.36218e-015  
  0.55            8.29966e-007    -2.39193e-015   -4.48122e-015  
  0.6             1.7036e-006     1.46566e-015    -6.23634e-016  
  0.65            2.87938e-006    -7.17585e-016   -2.80688e-015  
  0.7             4.19892e-006    1.58413e-015    -5.05164e-016  
  0.75            5.53941e-006    -1.77392e-015   -3.86321e-015  
  0.8             6.83847e-006    2.63775e-015    5.48456e-016   
  0.85            8.07234e-006    -3.1826e-016    -2.40755e-015  
  0.9             9.23537e-006    -2.36252e-015   -4.45181e-015  
  0.95            1.03292e-005    1.82242e-015    -2.66874e-016  
  1               1.13579e-005    -2.26819e-015   -4.35748e-015  
  1.05            1.23264e-005    -2.23853e-015   -4.32782e-015  
  1.1             1.32393e-005    8.05919e-016    -1.28338e-015  
  1.15            1.41011e-005    -1.51495e-015   -3.60424e-015  
  1.2             1.49158e-005    5.50779e-016    -1.53852e-015  
  1.25            1.56872e-005    1.96487e-015    -1.24424e-016  
  1.3             1.64186e-005    1.4691e-016     -1.94238e-015  
  1.35            1.7113e-005     2.7052e-016     -1.81877e-015  
  1.4             1.77733e-005    1.43984e-015    -6.49454e-016  
  1.45            1.8402e-005     2.03807e-015    -5.12242e-017  
  1.5             1.90012e-005    1.97531e-015    -1.13984e-016  
  1.55            1.95733e-005    -2.11908e-015   -4.20837e-015  
  1.6             2.012e-005      -1.13146e-015   -3.22075e-015  
  1.65            2.06431e-005    -4.50819e-015   -6.59748e-015  
  1.7             2.11442e-005    -1.77666e-015   -3.86595e-015  
  1.75            2.16248e-005    -2.89395e-015   -4.98324e-015  
  1.8             2.20862e-005    -1.96962e-015   -4.05891e-015  
END_DB

BEGIN_DB
 ICCAP_VAR vb         -0.3           
 ICCAP_VAR vd         0.05           
 ICCAP_VAR vs         0              

 #vg              id              ig              ib             
  -0.6            1.22891e-014    -1.82717e-015   -2.80596e-014  
  -0.55           1.63803e-014    2.26409e-015    -2.39683e-014  
  -0.5            1.23201e-014    -1.79609e-015   -2.80285e-014  
  -0.45           1.10824e-014    -3.03389e-015   -2.92663e-014  
  -0.4            1.28366e-014    -1.27979e-015   -2.75122e-014  
  -0.35           1.47581e-014    6.41301e-016    -2.55911e-014  
  -0.3            1.4393e-014     2.73725e-016    -2.59587e-014  
  -0.25           1.56428e-014    1.5118e-015     -2.47206e-014  
  -0.2            1.74788e-014    3.29003e-015    -2.29424e-014  
  -0.15           1.30708e-014    -1.40219e-015   -2.76346e-014  
  -0.1            1.51567e-014    -7.14053e-016   -2.69465e-014  
  -0.05           2.24096e-014    -3.33688e-016   -2.65661e-014  
  0               5.82088e-014    1.68032e-015    -2.45521e-014  
  0.05            2.22105e-013    -4.43538e-016   -2.6676e-014   
  0.1             1.03799e-012    3.55103e-016    -2.58773e-014  
  0.15            5.02899e-012    -2.43603e-015   -2.86685e-014  
  0.2             2.45162e-011    1.06068e-015    -2.51718e-014  
  0.25            1.18668e-010    1.608e-015      -2.46244e-014  
  0.3             5.64497e-010    -1.09658e-015   -2.7329e-014   
  0.35            2.59016e-009    -3.02369e-016   -2.65348e-014  
  0.4             1.11123e-008    2.2881e-015     -2.39443e-014  
  0.45            4.28588e-008    -1.79868e-015   -2.80311e-014  
  0.5             1.44267e-007    -4.50303e-016   -2.66827e-014  
  0.55            4.16861e-007    -1.5045e-015    -2.77369e-014  
  0.6             1.00351e-006    3.13417e-015    -2.30983e-014  
  0.65            1.96218e-006    3.42909e-016    -2.58895e-014  
  0.7             3.18583e-006    -1.271e-015     -2.75034e-014  
  0.75            4.51581e-006    2.34704e-015    -2.38854e-014  
  0.8             5.84461e-006    -2.34402e-015   -2.85765e-014  
  0.85            7.12204e-006    -7.09077e-016   -2.69415e-014  
  0.9             8.33071e-006    9.17247e-016    -2.53152e-014  
  0.95            9.46777e-006    4.16576e-016    -2.58159e-014  
  1               1.0536e-005     -9.56177e-016   -2.71886e-014  
  1.05            1.15399e-005    3.00363e-015    -2.32288e-014  
  1.1             1.24845e-005    -1.97241e-015   -2.82048e-014  
  1.15            1.33744e-005    1.57257e-015    -2.46599e-014  
  1.2             1.42142e-005    -1.93002e-015   -2.81625e-014  
  1.25            1.50079e-005    -1.92111e-015   -2.81535e-014  
  1.3             1.5759e-005     -2.82548e-015   -2.90579e-014  
  1.35            1.6471e-005     2.54664e-015    -2.36858e-014  
  1.4             1.71469e-005    1.17943e-015    -2.5053e-014   
  1.45            1.77894e-005    1.72789e-015    -2.45045e-014  
  1.5             1.84009e-005    1.54401e-015    -2.46884e-014  
  1.55            1.89837e-005    1.362e-015      -2.48704e-014  
  1.6             1.954e-005      -9.44762e-016   -2.71772e-014  
  1.65            2.00715e-005    -2.3399e-015    -2.85723e-014  
  1.7             2.058e-005      -1.11952e-015   -2.7352e-014   
  1.75            2.1067e-005     -9.46911e-016   -2.71793e-014  
  1.8             2.1534e-005     -1.96131e-016   -2.64286e-014  
END_DB

BEGIN_DB
 ICCAP_VAR vb         -0.6           
 ICCAP_VAR vd         0.05           
 ICCAP_VAR vs         0              

 #vg              id              ig              ib             
  -0.6            2.25441e-014    -3.57219e-015   -5.38047e-014  
  -0.55           2.66218e-014    5.05567e-016    -4.9727e-014   
  -0.5            2.85311e-014    2.41487e-015    -4.78177e-014  
  -0.45           2.91833e-014    3.06703e-015    -4.71655e-014  
  -0.4            2.80769e-014    1.96057e-015    -4.8272e-014   
  -0.35           2.1947e-014     -4.16941e-015   -5.44019e-014  
  -0.3            2.4813e-014     -1.30417e-015   -5.15367e-014  
  -0.25           2.73381e-014    1.21752e-015    -4.9015e-014   
  -0.2            3.07354e-014    4.59787e-015    -4.56347e-014  
  -0.15           2.74786e-014    1.25644e-015    -4.89761e-014  
  -0.1            2.80895e-014    1.44544e-015    -4.87871e-014  
  -0.05           2.79052e-014    -8.40947e-016   -5.10735e-014  
  0               3.70036e-014    -2.21584e-015   -5.24484e-014  
  0.05            8.93908e-014    -1.99818e-015   -5.22307e-014  
  0.1             3.51456e-013    3.35153e-016    -4.98974e-014  
  0.15            1.64335e-012    6.15719e-016    -4.96168e-014  
  0.2             8.04956e-012    2.54868e-016    -4.99777e-014  
  0.25            3.96486e-011    1.51898e-015    -4.87136e-014  
  0.3             1.93578e-010    2.61673e-015    -4.76158e-014  
  0.35            9.2401e-010     -5.29141e-016   -5.07617e-014  
  0.4             4.21265e-009    2.73118e-015    -4.75014e-014  
  0.45            1.76903e-008    9.79529e-016    -4.9253e-014   
  0.5             6.57677e-008    3.66353e-015    -4.6569e-014   
  0.55            2.11364e-007    -3.71724e-016   -5.06043e-014  
  0.6             5.77055e-007    -2.72881e-016   -5.05054e-014  
  0.65            1.29502e-006    -2.39193e-015   -5.26245e-014  
  0.7             2.36361e-006    1.46566e-015    -4.87669e-014  
  0.75            3.63946e-006    -7.17585e-016   -5.09501e-014  
  0.8             4.97526e-006    1.58413e-015    -4.86484e-014  
  0.85            6.28571e-006    -1.77392e-015   -5.20065e-014  
  0.9             7.53505e-006    2.63775e-015    -4.75948e-014  
  0.95            8.71277e-006    -3.1826e-016    -5.05508e-014  
  1               9.81886e-006    -2.36252e-015   -5.25951e-014  
  1.05            1.08571e-005    1.82242e-015    -4.84101e-014  
  1.1             1.18325e-005    -2.26819e-015   -5.25007e-014  
  1.15            1.27501e-005    -2.23853e-015   -5.24711e-014  
  1.2             1.36144e-005    8.05919e-016    -4.94266e-014  
  1.25            1.443e-005      -1.51495e-015   -5.17475e-014  
  1.3             1.52006e-005    5.50779e-016    -4.96818e-014  
  1.35            1.593e-005      1.96487e-015    -4.82677e-014  
  1.4             1.66214e-005    1.4691e-016     -5.00856e-014  
  1.45            1.72777e-005    2.7052e-016     -4.9962e-014   
  1.5             1.79015e-005    1.43984e-015    -4.87927e-014  
  1.55            1.84953e-005    2.03807e-015    -4.81945e-014  
  1.6             1.90613e-005    1.97531e-015    -4.82572e-014  
  1.65            1.96014e-005    -2.11908e-015   -5.23516e-014  
  1.7             2.01175e-005    -1.13146e-015   -5.1364e-014   
  1.75            2.06113e-005    -4.50819e-015   -5.47407e-014  
  1.8             2.10843e-005    -1.77666e-015   -5.20092e-014  
END_DB

BEGIN_DB
 ICCAP_VAR vb         -0.9           
 ICCAP_VAR vd         0.05           
 ICCAP_VAR vs         0              

 #vg              id              ig              ib             
  -0.6            3.52224e-014    -2.89395e-015   -7.71266e-014  
  -0.55           3.61467e-014    -1.96962e-015   -7.62022e-014  
  -0.5            3.62891e-014    -1.82717e-015   -7.60598e-014  
  -0.45           4.03804e-014    2.26409e-015    -7.19685e-014  
  -0.4            3.63202e-014    -1.79609e-015   -7.60287e-014  
  -0.35           3.50825e-014    -3.03389e-015   -7.72665e-014  
  -0.3            3.68368e-014    -1.27979e-015   -7.55124e-014  
  -0.25           3.87591e-014    6.41301e-016    -7.35913e-014  
  -0.2            3.83977e-014    2.73725e-016    -7.39589e-014  
  -0.15           3.96665e-014    1.5118e-015     -7.27208e-014  
  -0.1            4.15988e-014    3.29003e-015    -7.09426e-014  
  -0.05           3.76793e-014    -1.40219e-015   -7.56348e-014  
  0               4.22432e-014    -7.14053e-016   -7.49467e-014  
  0.05            6.20599e-014    -3.33688e-016   -7.45663e-014  
  0.1             1.61513e-013    1.68032e-015    -7.25523e-014  
  0.15            6.47523e-013    -4.43538e-016   -7.46762e-014  
  0.2             3.08979e-012    3.55103e-016    -7.38775e-014  
  0.25            1.5255e-011     -2.43603e-015   -7.66687e-014  
  0.3             7.54276e-011    1.06068e-015    -7.31719e-014  
  0.35            3.67928e-010    1.608e-015      -7.26246e-014  
  0.4             1.74011e-009    -1.09658e-015   -7.53292e-014  
  0.45            7.7489e-009     -3.02369e-016   -7.4535e-014   
  0.5             3.11993e-008    2.2881e-015     -7.19445e-014  
  0.55            1.09628e-007    -1.79868e-015   -7.60313e-014  
  0.6             3.3038e-007     -4.50303e-016   -7.46829e-014  
  0.65            8.34151e-007    -1.5045e-015    -7.57371e-014  
  0.7             1.71239e-006    3.13417e-015    -7.10985e-014  
  0.75            2.88991e-006    3.42909e-016    -7.38897e-014  
  0.8             4.2053e-006     -1.271e-015     -7.55036e-014  
  0.85            5.53559e-006    2.34704e-015    -7.18856e-014  
  0.9             6.81977e-006    -2.34402e-015   -7.65766e-014  
  0.95            8.03549e-006    -7.09077e-016   -7.49417e-014  
  1               9.17814e-006    9.17247e-016    -7.33154e-014  
  1.05            1.025e-005      4.16576e-016    -7.38161e-014  
  1.1             1.12557e-005    -9.56177e-016   -7.51888e-014  
  1.15            1.22004e-005    3.00363e-015    -7.1229e-014   
  1.2             1.3089e-005     -1.97241e-015   -7.6205e-014   
  1.25            1.39262e-005    1.57257e-015    -7.26601e-014  
  1.3             1.47162e-005    -1.93002e-015   -7.61626e-014  
  1.35            1.54629e-005    -1.92111e-015   -7.61537e-014  
  1.4             1.61697e-005    -2.82548e-015   -7.70581e-014  
  1.45            1.68398e-005    2.54664e-015    -7.1686e-014   
  1.5             1.74759e-005    1.17943e-015    -7.30532e-014  
  1.55            1.80807e-005    1.72789e-015    -7.25047e-014  
  1.6             1.86565e-005    1.54401e-015    -7.26886e-014  
  1.65            1.92055e-005    1.362e-015      -7.28706e-014  
  1.7             1.97294e-005    -9.44762e-016   -7.51774e-014  
  1.75            2.02302e-005    -2.3399e-015    -7.65725e-014  
  1.8             2.07093e-005    -1.11952e-015   -7.53521e-014  
END_DB

BEGIN_DB
 ICCAP_VAR vb         -1.2           
 ICCAP_VAR vd         0.05           
 ICCAP_VAR vs         0              

 #vg              id              ig              ib             
  -0.6            4.91695e-014    -9.46911e-016   -9.91796e-014  
  -0.55           4.99202e-014    -1.96131e-016   -9.84289e-014  
  -0.5            4.65442e-014    -3.57219e-015   -1.01805e-013  
  -0.45           5.06219e-014    5.05567e-016    -9.77272e-014  
  -0.4            5.25312e-014    2.41487e-015    -9.58179e-014  
  -0.35           5.31834e-014    3.06703e-015    -9.51657e-014  
  -0.3            5.20771e-014    1.96057e-015    -9.62722e-014  
  -0.25           4.59476e-014    -4.16941e-015   -1.02402e-013  
  -0.2            4.88154e-014    -1.30417e-015   -9.95369e-014  
  -0.15           5.13501e-014    1.21752e-015    -9.70152e-014  
  -0.1            5.47955e-014    4.59787e-015    -9.36349e-014  
  -0.05           5.17815e-014    1.25644e-015    -9.69763e-014  
  0               5.36163e-014    1.44544e-015    -9.67873e-014  
  0.05            5.96019e-014    -8.40947e-016   -9.90737e-014  
  0.1             9.97939e-014    -2.21584e-015   -1.00449e-013  
  0.15            3.0879e-013     -1.99818e-015   -1.00231e-013  
  0.2             1.35866e-012    3.35153e-016    -9.78976e-014  
  0.25            6.6026e-012     6.15719e-016    -9.7617e-014   
  0.3             3.27145e-011    2.54868e-016    -9.79779e-014  
  0.35            1.61275e-010    1.51898e-015    -9.67137e-014  
  0.4             7.78945e-010    2.61673e-015    -9.5616e-014   
  0.45            3.60308e-009    -5.29141e-016   -9.87619e-014  
  0.5             1.53991e-008    2.73118e-015    -9.55015e-014  
  0.55            5.83507e-008    9.79529e-016    -9.72532e-014  
  0.6             1.90903e-007    3.66353e-015    -9.45692e-014  
  0.65            5.30606e-007    -3.71724e-016   -9.86044e-014  
  0.7             1.21464e-006    -2.72881e-016   -9.85056e-014  
  0.75            2.25744e-006    -2.39193e-015   -1.00625e-013  
  0.8             3.52209e-006    1.46566e-015    -9.67671e-014  
  0.85            4.856e-006      -7.17585e-016   -9.89503e-014  
  0.9             6.1678e-006     1.58413e-015    -9.66486e-014  
  0.95            7.41848e-006    -1.77392e-015   -1.00007e-013  
  1               8.59636e-006    2.63775e-015    -9.5595e-014   
  1.05            9.70117e-006    -3.1826e-016    -9.8551e-014   
  1.1             1.07368e-005    -2.36252e-015   -1.00595e-013  
  1.15            1.17084e-005    1.82242e-015    -9.64103e-014  
  1.2             1.26211e-005    -2.26819e-015   -1.00501e-013  
  1.25            1.34799e-005    -2.23853e-015   -1.00471e-013  
  1.3             1.42892e-005    8.05919e-016    -9.74268e-014  
  1.35            1.50531e-005    -1.51495e-015   -9.97477e-014  
  1.4             1.57753e-005    5.50779e-016    -9.76819e-014  
  1.45            1.64592e-005    1.96487e-015    -9.62679e-014  
  1.5             1.71077e-005    1.4691e-016     -9.80858e-014  
  1.55            1.77235e-005    2.7052e-016     -9.79622e-014  
  1.6             1.83093e-005    1.43984e-015    -9.67929e-014  
  1.65            1.8867e-005     2.03807e-015    -9.61947e-014  
  1.7             1.93989e-005    1.97531e-015    -9.62574e-014  
  1.75            1.99068e-005    -2.11908e-015   -1.00352e-013  
  1.8             2.03923e-005    -1.13146e-015   -9.93642e-014  
END_DB

BEGIN_DB
 ICCAP_VAR vb         0              
 ICCAP_VAR vd         0.4            
 ICCAP_VAR vs         0              

 #vg              id              ig              ib             
  -0.6            1.1608e-014     -4.50819e-015   -2.06244e-014  
  -0.55           1.43396e-014    -1.77666e-015   -1.78929e-014  
  -0.5            1.32223e-014    -2.89395e-015   -1.90102e-014  
  -0.45           1.41468e-014    -1.96962e-015   -1.80859e-014  
  -0.4            1.42902e-014    -1.82717e-015   -1.79434e-014  
  -0.35           1.83857e-014    2.26409e-015    -1.38521e-014  
  -0.3            1.43458e-014    -1.79609e-015   -1.79123e-014  
  -0.25           1.3205e-014     -3.03389e-015   -1.91501e-014  
  -0.2            1.54222e-014    -1.27979e-015   -1.7396e-014   
  -0.15           1.95543e-014    6.41301e-016    -1.54749e-014  
  -0.1            2.9742e-014     2.73725e-016    -1.58425e-014  
  -0.05           8.13637e-014    1.5118e-015     -1.46044e-014  
  0               3.23548e-013    3.29003e-015    -1.28262e-014  
  0.05            1.46503e-012    -1.40219e-015   -1.75184e-014  
  0.1             6.92062e-012    -7.14053e-016   -1.68303e-014  
  0.15            3.2783e-011     -3.33688e-016   -1.64499e-014  
  0.2             1.54393e-010    1.68032e-015    -1.44359e-014  
  0.25            7.16379e-010    -4.43538e-016   -1.65598e-014  
  0.3             3.22374e-009    3.55103e-016    -1.57611e-014  
  0.35            1.36989e-008    -2.43603e-015   -1.85523e-014  
  0.4             5.30676e-008    1.06068e-015    -1.50556e-014  
  0.45            1.82265e-007    1.608e-015      -1.45082e-014  
  0.5             5.49896e-007    -1.09658e-015   -1.72128e-014  
