! VERSION = 6.00
!combined file by aosykin on Fri 28 Mar 09:25:18 MSK 2025
BEGIN_HEADER
 ICCAP_INPUTS
  vb         V  B GROUND SMU4 0.1 LIN        2    0          -1.2       5    -0.3      
  vd         V  D GROUND SMU1 0.1 LIN        3    0.05       1.8        6    0.35      
  vs         V  S GROUND SMU3 0.1 CON        0
  vg         V  G GROUND SMU2 0.001 LIN        1    -0.6       1.8        49   0.05      
  MAIN_W_swp P  MAIN.W DEFAULT LIST       4 9 2.5E-07 2.5E-07 2.5E-07 4E-07 4E-07 4E-07 6E-07 6E-07 6E-07
  MAIN_L_swp P  MAIN.L DEFAULT LSYNC      MAIN_W_swp 1.8E-07 2.5E-07 4E-07 1.8E-07 2.5E-07 4E-07 1.8E-07 2.5E-07 4E-07
 ICCAP_OUTPUTS
  id         I  D GROUND SMU1 B
  ig         I  G GROUND SMU2 B
  ib         I  B GROUND SMU4 B
END_HEADER

BEGIN_DB
 ICCAP_VAR vb         0              
 ICCAP_VAR vd         0.05           
 ICCAP_VAR vs         0              
 ICCAP_VAR MAIN_W_swp 2.5e-07        
 ICCAP_VAR MAIN_L_swp 1.8e-07        

 #vg                    id                    ig                    ib                   
  -0.6                  4.50417e-15           2.41487e-15           3.25576e-16          
  -0.55                 5.15633e-15           3.06703e-15           9.77736e-16          
  -0.5                  4.04989e-15           1.96057e-15           -1.28724e-16         
  -0.45                 -2.07999e-15          -4.16941e-15          -6.2587e-15          
  -0.4                  7.85749e-16           -1.30417e-15          -3.39346e-15         
  -0.35                 3.30981e-15           1.21752e-15           -8.71774e-16         
  -0.3                  6.70156e-15           4.59787e-15           2.50858e-15          
  -0.25                 3.41481e-15           1.25644e-15           -8.32854e-16         
  -0.2                  3.86618e-15           1.44544e-15           -6.43854e-16         
  -0.15                 2.8387e-15            -8.40947e-16          -2.93024e-15         
  -0.1                  7.50389e-15           -2.21584e-15          -4.30513e-15         
  -0.05                 3.66964e-14           -1.99818e-15          -4.08747e-15         
  0                     1.77976e-13           3.35153e-16           -1.75414e-15         
  0.05                  8.44038e-13           6.15719e-16           -1.47358e-15         
  0.1                   4.02846e-12           2.54868e-16           -1.83443e-15         
  0.15                  1.9208e-11            1.51898e-15           -5.70314e-16         
  0.2                   9.09723e-11           2.61673e-15           5.27436e-16          
  0.25                  4.24584e-10           -5.29141e-16          -2.61844e-15         
  0.3                   1.92301e-09           2.73118e-15           6.41886e-16          
  0.35                  8.2296e-09            9.79529e-16           -1.10977e-15         
  0.4                   3.20929e-08           3.66353e-15           1.57424e-15          
  0.45                  1.10495e-07           -3.71724e-16          -2.46102e-15         
  0.5                   3.29806e-07           -2.72881e-16          -2.36218e-15         
  0.55                  8.29966e-07           -2.39193e-15          -4.48122e-15         
  0.6                   1.7036e-06            1.46566e-15           -6.23634e-16         
  0.65                  2.87938e-06           -7.17585e-16          -2.80688e-15         
  0.7                   4.19892e-06           1.58413e-15           -5.05164e-16         
  0.75                  5.53941e-06           -1.77392e-15          -3.86321e-15         
  0.8                   6.83847e-06           2.63775e-15           5.48456e-16          
  0.85                  8.07234e-06           -3.1826e-16           -2.40755e-15         
  0.9                   9.23537e-06           -2.36252e-15          -4.45181e-15         
  0.95                  1.03292e-05           1.82242e-15           -2.66874e-16         
  1                     1.13579e-05           -2.26819e-15          -4.35748e-15         
  1.05                  1.23264e-05           -2.23853e-15          -4.32782e-15         
  1.1                   1.32393e-05           8.05919e-16           -1.28338e-15         
  1.15                  1.41011e-05           -1.51495e-15          -3.60424e-15         
  1.2                   1.49158e-05           5.50779e-16           -1.53852e-15         
  1.25                  1.56872e-05           1.96487e-15           -1.24424e-16         
  1.3                   1.64186e-05           1.4691e-16            -1.94238e-15         
  1.35                  1.7113e-05            2.7052e-16            -1.81877e-15         
  1.4                   1.77733e-05           1.43984e-15           -6.49454e-16         
  1.45                  1.8402e-05            2.03807e-15           -5.12242e-17         
  1.5                   1.90012e-05           1.97531e-15           -1.13984e-16         
  1.55                  1.95733e-05           -2.11908e-15          -4.20837e-15         
  1.6                   2.012e-05             -1.13146e-15          -3.22075e-15         
  1.65                  2.06431e-05           -4.50819e-15          -6.59748e-15         
  1.7                   2.11442e-05           -1.77666e-15          -3.86595e-15         
  1.75                  2.16248e-05           -2.89395e-15          -4.98324e-15         
  1.8                   2.20862e-05           -1.96962e-15          -4.05891e-15         
END_DB

BEGIN_DB
 ICCAP_VAR vb         -0.3           
 ICCAP_VAR vd         0.05           
 ICCAP_VAR vs         0              
 ICCAP_VAR MAIN_W_swp 2.5e-07        
 ICCAP_VAR MAIN_L_swp 1.8e-07        

 #vg                    id                    ig                    ib                   
  -0.6                  1.22891e-14           -1.82717e-15          -2.80596e-14         
  -0.55                 1.63803e-14           2.26409e-15           -2.39683e-14         
  -0.5                  1.23201e-14           -1.79609e-15          -2.80285e-14         
  -0.45                 1.10824e-14           -3.03389e-15          -2.92663e-14         
  -0.4                  1.28366e-14           -1.27979e-15          -2.75122e-14         
  -0.35                 1.47581e-14           6.41301e-16           -2.55911e-14         
  -0.3                  1.4393e-14            2.73725e-16           -2.59587e-14         
  -0.25                 1.56428e-14           1.5118e-15            -2.47206e-14         
  -0.2                  1.74788e-14           3.29003e-15           -2.29424e-14         
  -0.15                 1.30708e-14           -1.40219e-15          -2.76346e-14         
  -0.1                  1.51567e-14           -7.14053e-16          -2.69465e-14         
  -0.05                 2.24096e-14           -3.33688e-16          -2.65661e-14         
  0                     5.82088e-14           1.68032e-15           -2.45521e-14         
  0.05                  2.22105e-13           -4.43538e-16          -2.6676e-14          
  0.1                   1.03799e-12           3.55103e-16           -2.58773e-14         
  0.15                  5.02899e-12           -2.43603e-15          -2.86685e-14         
  0.2                   2.45162e-11           1.06068e-15           -2.51718e-14         
  0.25                  1.18668e-10           1.608e-15             -2.46244e-14         
  0.3                   5.64497e-10           -1.09658e-15          -2.7329e-14          
  0.35                  2.59016e-09           -3.02369e-16          -2.65348e-14         
  0.4                   1.11123e-08           2.2881e-15            -2.39443e-14         
  0.45                  4.28588e-08           -1.79868e-15          -2.80311e-14         
  0.5                   1.44267e-07           -4.50303e-16          -2.66827e-14         
  0.55                  4.16861e-07           -1.5045e-15           -2.77369e-14         
  0.6                   1.00351e-06           3.13417e-15           -2.30983e-14         
  0.65                  1.96218e-06           3.42909e-16           -2.58895e-14         
  0.7                   3.18583e-06           -1.271e-15            -2.75034e-14         
  0.75                  4.51581e-06           2.34704e-15           -2.38854e-14         
  0.8                   5.84461e-06           -2.34402e-15          -2.85765e-14         
  0.85                  7.12204e-06           -7.09077e-16          -2.69415e-14         
  0.9                   8.33071e-06           9.17247e-16           -2.53152e-14         
  0.95                  9.46777e-06           4.16576e-16           -2.58159e-14         
  1                     1.0536e-05            -9.56177e-16          -2.71886e-14         
  1.05                  1.15399e-05           3.00363e-15           -2.32288e-14         
  1.1                   1.24845e-05           -1.97241e-15          -2.82048e-14         
  1.15                  1.33744e-05           1.57257e-15           -2.46599e-14         
  1.2                   1.42142e-05           -1.93002e-15          -2.81625e-14         
  1.25                  1.50079e-05           -1.92111e-15          -2.81535e-14         
  1.3                   1.5759e-05            -2.82548e-15          -2.90579e-14         
  1.35                  1.6471e-05            2.54664e-15           -2.36858e-14         
  1.4                   1.71469e-05           1.17943e-15           -2.5053e-14          
  1.45                  1.77894e-05           1.72789e-15           -2.45045e-14         
  1.5                   1.84009e-05           1.54401e-15           -2.46884e-14         
  1.55                  1.89837e-05           1.362e-15             -2.48704e-14         
  1.6                   1.954e-05             -9.44762e-16          -2.71772e-14         
  1.65                  2.00715e-05           -2.3399e-15           -2.85723e-14         
  1.7                   2.058e-05             -1.11952e-15          -2.7352e-14          
  1.75                  2.1067e-05            -9.46911e-16          -2.71793e-14         
  1.8                   2.1534e-05            -1.96131e-16          -2.64286e-14         
END_DB

BEGIN_DB
 ICCAP_VAR vb         -0.6           
 ICCAP_VAR vd         0.05           
 ICCAP_VAR vs         0              
 ICCAP_VAR MAIN_W_swp 2.5e-07        
 ICCAP_VAR MAIN_L_swp 1.8e-07        

 #vg                    id                    ig                    ib                   
  -0.6                  2.25441e-14           -3.57219e-15          -5.38047e-14         
  -0.55                 2.66218e-14           5.05567e-16           -4.9727e-14          
  -0.5                  2.85311e-14           2.41487e-15           -4.78177e-14         
  -0.45                 2.91833e-14           3.06703e-15           -4.71655e-14         
  -0.4                  2.80769e-14           1.96057e-15           -4.8272e-14          
  -0.35                 2.1947e-14            -4.16941e-15          -5.44019e-14         
  -0.3                  2.4813e-14            -1.30417e-15          -5.15367e-14         
  -0.25                 2.73381e-14           1.21752e-15           -4.9015e-14          
  -0.2                  3.07354e-14           4.59787e-15           -4.56347e-14         
  -0.15                 2.74786e-14           1.25644e-15           -4.89761e-14         
  -0.1                  2.80895e-14           1.44544e-15           -4.87871e-14         
  -0.05                 2.79052e-14           -8.40947e-16          -5.10735e-14         
  0                     3.70036e-14           -2.21584e-15          -5.24484e-14         
  0.05                  8.93908e-14           -1.99818e-15          -5.22307e-14         
  0.1                   3.51456e-13           3.35153e-16           -4.98974e-14         
  0.15                  1.64335e-12           6.15719e-16           -4.96168e-14         
  0.2                   8.04956e-12           2.54868e-16           -4.99777e-14         
  0.25                  3.96486e-11           1.51898e-15           -4.87136e-14         
  0.3                   1.93578e-10           2.61673e-15           -4.76158e-14         
  0.35                  9.2401e-10            -5.29141e-16          -5.07617e-14         
  0.4                   4.21265e-09           2.73118e-15           -4.75014e-14         
  0.45                  1.76903e-08           9.79529e-16           -4.9253e-14          
  0.5                   6.57677e-08           3.66353e-15           -4.6569e-14          
  0.55                  2.11364e-07           -3.71724e-16          -5.06043e-14         
  0.6                   5.77055e-07           -2.72881e-16          -5.05054e-14         
  0.65                  1.29502e-06           -2.39193e-15          -5.26245e-14         
  0.7                   2.36361e-06           1.46566e-15           -4.87669e-14         
  0.75                  3.63946e-06           -7.17585e-16          -5.09501e-14         
  0.8                   4.97526e-06           1.58413e-15           -4.86484e-14         
  0.85                  6.28571e-06           -1.77392e-15          -5.20065e-14         
  0.9                   7.53505e-06           2.63775e-15           -4.75948e-14         
  0.95                  8.71277e-06           -3.1826e-16           -5.05508e-14         
  1                     9.81886e-06           -2.36252e-15          -5.25951e-14         
  1.05                  1.08571e-05           1.82242e-15           -4.84101e-14         
  1.1                   1.18325e-05           -2.26819e-15          -5.25007e-14         
  1.15                  1.27501e-05           -2.23853e-15          -5.24711e-14         
  1.2                   1.36144e-05           8.05919e-16           -4.94266e-14         
  1.25                  1.443e-05             -1.51495e-15          -5.17475e-14         
  1.3                   1.52006e-05           5.50779e-16           -4.96818e-14         
  1.35                  1.593e-05             1.96487e-15           -4.82677e-14         
  1.4                   1.66214e-05           1.4691e-16            -5.00856e-14         
  1.45                  1.72777e-05           2.7052e-16            -4.9962e-14          
  1.5                   1.79015e-05           1.43984e-15           -4.87927e-14         
  1.55                  1.84953e-05           2.03807e-15           -4.81945e-14         
  1.6                   1.90613e-05           1.97531e-15           -4.82572e-14         
  1.65                  1.96014e-05           -2.11908e-15          -5.23516e-14         
  1.7                   2.01175e-05           -1.13146e-15          -5.1364e-14          
  1.75                  2.06113e-05           -4.50819e-15          -5.47407e-14         
  1.8                   2.10843e-05           -1.77666e-15          -5.20092e-14         
END_DB

BEGIN_DB
 ICCAP_VAR vb         -0.9           
 ICCAP_VAR vd         0.05           
 ICCAP_VAR vs         0              
 ICCAP_VAR MAIN_W_swp 2.5e-07        
 ICCAP_VAR MAIN_L_swp 1.8e-07        

 #vg                    id                    ig                    ib                   
  -0.6                  3.52224e-14           -2.89395e-15          -7.71266e-14         
  -0.55                 3.61467e-14           -1.96962e-15          -7.62022e-14         
  -0.5                  3.62891e-14           -1.82717e-15          -7.60598e-14         
  -0.45                 4.03804e-14           2.26409e-15           -7.19685e-14         
  -0.4                  3.63202e-14           -1.79609e-15          -7.60287e-14         
  -0.35                 3.50825e-14           -3.03389e-15          -7.72665e-14         
  -0.3                  3.68368e-14           -1.27979e-15          -7.55124e-14         
  -0.25                 3.87591e-14           6.41301e-16           -7.35913e-14         
  -0.2                  3.83977e-14           2.73725e-16           -7.39589e-14         
  -0.15                 3.96665e-14           1.5118e-15            -7.27208e-14         
  -0.1                  4.15988e-14           3.29003e-15           -7.09426e-14         
  -0.05                 3.76793e-14           -1.40219e-15          -7.56348e-14         
  0                     4.22432e-14           -7.14053e-16          -7.49467e-14         
  0.05                  6.20599e-14           -3.33688e-16          -7.45663e-14         
  0.1                   1.61513e-13           1.68032e-15           -7.25523e-14         
  0.15                  6.47523e-13           -4.43538e-16          -7.46762e-14         
  0.2                   3.08979e-12           3.55103e-16           -7.38775e-14         
  0.25                  1.5255e-11            -2.43603e-15          -7.66687e-14         
  0.3                   7.54276e-11           1.06068e-15           -7.31719e-14         
  0.35                  3.67928e-10           1.608e-15             -7.26246e-14         
  0.4                   1.74011e-09           -1.09658e-15          -7.53292e-14         
  0.45                  7.7489e-09            -3.02369e-16          -7.4535e-14          
  0.5                   3.11993e-08           2.2881e-15            -7.19445e-14         
  0.55                  1.09628e-07           -1.79868e-15          -7.60313e-14         
  0.6                   3.3038e-07            -4.50303e-16          -7.46829e-14         
  0.65                  8.34151e-07           -1.5045e-15           -7.57371e-14         
  0.7                   1.71239e-06           3.13417e-15           -7.10985e-14         
  0.75                  2.88991e-06           3.42909e-16           -7.38897e-14         
  0.8                   4.2053e-06            -1.271e-15            -7.55036e-14         
  0.85                  5.53559e-06           2.34704e-15           -7.18856e-14         
  0.9                   6.81977e-06           -2.34402e-15          -7.65766e-14         
  0.95                  8.03549e-06           -7.09077e-16          -7.49417e-14         
  1                     9.17814e-06           9.17247e-16           -7.33154e-14         
  1.05                  1.025e-05             4.16576e-16           -7.38161e-14         
  1.1                   1.12557e-05           -9.56177e-16          -7.51888e-14         
  1.15                  1.22004e-05           3.00363e-15           -7.1229e-14          
  1.2                   1.3089e-05            -1.97241e-15          -7.6205e-14          
  1.25                  1.39262e-05           1.57257e-15           -7.26601e-14         
  1.3                   1.47162e-05           -1.93002e-15          -7.61626e-14         
  1.35                  1.54629e-05           -1.92111e-15          -7.61537e-14         
  1.4                   1.61697e-05           -2.82548e-15          -7.70581e-14         
  1.45                  1.68398e-05           2.54664e-15           -7.1686e-14          
  1.5                   1.74759e-05           1.17943e-15           -7.30532e-14         
  1.55                  1.80807e-05           1.72789e-15           -7.25047e-14         
  1.6                   1.86565e-05           1.54401e-15           -7.26886e-14         
  1.65                  1.92055e-05           1.362e-15             -7.28706e-14         
  1.7                   1.97294e-05           -9.44762e-16          -7.51774e-14         
  1.75                  2.02302e-05           -2.3399e-15           -7.65725e-14         
  1.8                   2.07093e-05           -1.11952e-15          -7.53521e-14         
END_DB

BEGIN_DB
 ICCAP_VAR vb         -1.2           
 ICCAP_VAR vd         0.05           
 ICCAP_VAR vs         0              
 ICCAP_VAR MAIN_W_swp 2.5e-07        
 ICCAP_VAR MAIN_L_swp 1.8e-07        

 #vg                    id                    ig                    ib                   
  -0.6                  4.91695e-14           -9.46911e-16          -9.91796e-14         
