! VERSION = 6.00
!combined file by aosykin on Thu 27 Mar 11:54:18 MSK 2025
BEGIN_HEADER
 ICCAP_INPUTS
  vg         V  G GROUND SMU2 0.001 LIN        2    0.508      1.8        5    0.323     
  vb         V  B GROUND SMU4 0.1 CON        0
  vs         V  S GROUND SMU3 0.1 CON        0
  vd         V  D GROUND SMU1 0.1 LIN        1    0          1.8        37   0.05      
  MAIN_W_swp P  MAIN.W DEFAULT LIST       3 5 2.5E-07 4E-07 6E-07 1E-05 1E-06
 ICCAP_OUTPUTS
  id         I  D GROUND SMU1 B
  ig         I  G GROUND SMU2 B
  ib         I  B GROUND SMU4 B
END_HEADER

BEGIN_DB
 ICCAP_VAR vg         0.508          
 ICCAP_VAR vb         0              
 ICCAP_VAR vs         0              
 ICCAP_VAR MAIN_W_swp 2.5e-07        

 #vd                    id                    ig                    ib                   
  0                     2.41487e-15           2.41487e-15           2.41487e-15          
  0.05                  4.02947e-08           3.06703e-15           9.77736e-16          
  0.1                   6.22007e-08           1.96057e-15           -2.14942e-15         
  0.15                  7.01134e-08           -4.16941e-15          -1.02842e-14         
  0.2                   7.20987e-08           -1.30417e-15          -9.42006e-15         
  0.25                  7.26909e-08           1.21752e-15           -8.89863e-15         
  0.3                   7.29573e-08           4.59787e-15           -7.51834e-15         
  0.35                  7.3123e-08            1.25644e-15           -1.28598e-14         
  0.4                   7.32491e-08           1.44544e-15           -1.46708e-14         
  0.45                  7.33569e-08           -8.40947e-16          -1.89572e-14         
  0.5                   7.34551e-08           -2.21584e-15          -2.23321e-14         
  0.55                  7.35477e-08           -1.99818e-15          -2.41144e-14         
  0.6                   7.3637e-08            3.35153e-16           -2.37811e-14         
  0.65                  7.37241e-08           6.15719e-16           -2.55006e-14         
  0.7                   7.38096e-08           2.54868e-16           -2.78614e-14         
  0.75                  7.38942e-08           1.51898e-15           -2.85973e-14         
  0.8                   7.3978e-08            2.61673e-15           -2.94996e-14         
  0.85                  7.40613e-08           -5.29141e-16          -3.46454e-14         
  0.9                   7.41441e-08           2.73118e-15           -3.33851e-14         
  0.95                  7.42266e-08           9.79529e-16           -3.71368e-14         
  1                     7.43089e-08           3.66353e-15           -3.64528e-14         
  1.05                  7.43909e-08           -3.71724e-16          -4.24881e-14         
  1.1                   7.44729e-08           -2.72881e-16          -4.43892e-14         
  1.15                  7.45546e-08           -2.39193e-15          -4.85083e-14         
  1.2                   7.46363e-08           1.46566e-15           -4.66507e-14         
  1.25                  7.47179e-08           -7.17585e-16          -5.08339e-14         
  1.3                   7.47994e-08           1.58413e-15           -5.05322e-14         
  1.35                  7.48808e-08           -1.77392e-15          -5.58903e-14         
  1.4                   7.49623e-08           2.63775e-15           -5.34786e-14         
  1.45                  7.50437e-08           -3.1826e-16           -5.84347e-14         
  1.5                   7.51251e-08           -2.36252e-15          -6.24789e-14         
  1.55                  7.52065e-08           1.82242e-15           -6.0294e-14          
  1.6                   7.5288e-08            -2.26819e-15          -6.63846e-14         
  1.65                  7.53697e-08           -2.23853e-15          -6.8355e-14          
  1.7                   7.54516e-08           8.05919e-16           -6.73105e-14         
  1.75                  7.55339e-08           -1.51495e-15          -7.16314e-14         
  1.8                   7.56166e-08           5.50779e-16           -7.15657e-14         
END_DB

BEGIN_DB
 ICCAP_VAR vg         0.831          
 ICCAP_VAR vb         0              
 ICCAP_VAR vs         0              
 ICCAP_VAR MAIN_W_swp 2.5e-07        

 #vd                    id                    ig                    ib                   
  0                     1.96487e-15           1.96487e-15           1.96487e-15          
  0.05                  1.49158e-07           1.4691e-16            -1.94238e-15         
  0.1                   2.75927e-07           2.7052e-16            -3.83947e-15         
  0.15                  3.80432e-07           1.43984e-15           -4.67494e-15         
  0.2                   4.62885e-07           2.03807e-15           -6.07782e-15         
  0.25                  5.23745e-07           1.97531e-15           -8.14084e-15         
  0.3                   5.64158e-07           -2.11908e-15          -1.42353e-14         
  0.35                  5.87029e-07           -1.13146e-15          -1.52477e-14         
  0.4                   5.97857e-07           -4.50819e-15          -2.06244e-14         
  0.45                  6.0264e-07            -1.77666e-15          -1.98929e-14         
  0.5                   6.04983e-07           -2.89395e-15          -2.30102e-14         
  0.55                  6.06365e-07           -1.96962e-15          -2.40859e-14         
  0.6                   6.07333e-07           -1.82717e-15          -2.59434e-14         
  0.65                  6.081e-07             2.26409e-15           -2.38522e-14         
  0.7                   6.08761e-07           -1.79609e-15          -2.99124e-14         
  0.75                  6.09361e-07           -3.03389e-15          -3.31502e-14         
  0.8                   6.09923e-07           -1.27979e-15          -3.33961e-14         
  0.85                  6.1046e-07            6.41301e-16           -3.3475e-14          
  0.9                   6.10981e-07           2.73725e-16           -3.58426e-14         
  0.95                  6.1149e-07            1.5118e-15            -3.66045e-14         
  1                     6.1199e-07            3.29003e-15           -3.68263e-14         
  1.05                  6.12484e-07           -1.40219e-15          -4.35185e-14         
  1.1                   6.12973e-07           -7.14053e-16          -4.48304e-14         
  1.15                  6.13458e-07           -3.33688e-16          -4.645e-14           
  1.2                   6.13941e-07           1.68032e-15           -4.6436e-14          
  1.25                  6.14421e-07           -4.43538e-16          -5.05599e-14         
  1.3                   6.14899e-07           3.55103e-16           -5.17613e-14         
  1.35                  6.15375e-07           -2.43603e-15          -5.65524e-14         
  1.4                   6.1585e-07            1.06068e-15           -5.50557e-14         
  1.45                  6.16324e-07           1.608e-15             -5.65084e-14         
  1.5                   6.16798e-07           -1.09658e-15          -6.1213e-14          
  1.55                  6.1727e-07            -3.02369e-16          -6.24188e-14         
  1.6                   6.17742e-07           2.2881e-15            -6.18283e-14         
  1.65                  6.18213e-07           -1.79868e-15          -6.79151e-14         
  1.7                   6.18684e-07           -4.50303e-16          -6.85667e-14         
  1.75                  6.19156e-07           -1.5045e-15           -7.16209e-14         
  1.8                   6.19627e-07           3.13417e-15           -6.89823e-14         
END_DB

BEGIN_DB
 ICCAP_VAR vg         1.154          
 ICCAP_VAR vb         0              
 ICCAP_VAR vs         0              
 ICCAP_VAR MAIN_W_swp 2.5e-07        

 #vd                    id                    ig                    ib                   
  0                     3.42909e-16           3.42909e-16           3.42909e-16          
  0.05                  2.53339e-07           -1.271e-15            -3.36029e-15         
  0.1                   4.85343e-07           2.34704e-15           -1.76295e-15         
  0.15                  6.96071e-07           -2.34402e-15          -8.4588e-15          
  0.2                   8.85585e-07           -7.09077e-16          -8.82497e-15         
  0.25                  1.05396e-06           9.17247e-16           -9.19891e-15         
  0.3                   1.20127e-06           4.16576e-16           -1.16996e-14         
  0.35                  1.32764e-06           -9.56177e-16          -1.50724e-14         
  0.4                   1.43324e-06           3.00363e-15           -1.31126e-14         
  0.45                  1.51835e-06           -1.97241e-15          -2.00887e-14         
  0.5                   1.58355e-06           1.57257e-15           -1.85437e-14         
  0.55                  1.63001e-06           -1.93002e-15          -2.40463e-14         
  0.6                   1.66008e-06           -1.92111e-15          -2.60374e-14         
  0.65                  1.67766e-06           -2.82548e-15          -2.89418e-14         
  0.7                   1.6874e-06            2.54664e-15           -2.55696e-14         
  0.75                  1.69294e-06           1.17943e-15           -2.89369e-14         
  0.8                   1.69643e-06           1.72789e-15           -3.03884e-14         
  0.85                  1.69888e-06           1.54401e-15           -3.25723e-14         
  0.9                   1.70079e-06           1.362e-15             -3.47543e-14         
  0.95                  1.70239e-06           -9.44762e-16          -3.90611e-14         
  1                     1.70381e-06           -2.3399e-15           -4.24562e-14         
  1.05                  1.70511e-06           -1.11952e-15          -4.32359e-14         
  1.1                   1.70633e-06           -9.46911e-16          -4.50633e-14         
  1.15                  1.7075e-06            -1.96131e-16          -4.63125e-14         
  1.2                   1.70863e-06           -3.57219e-15          -5.16885e-14         
  1.25                  1.70974e-06           5.05567e-16           -4.96108e-14         
  1.3                   1.71082e-06           2.41487e-15           -4.97015e-14         
  1.35                  1.71188e-06           3.06703e-15           -5.10494e-14         
  1.4                   1.71293e-06           1.96057e-15           -5.41558e-14         
  1.45                  1.71397e-06           -4.16941e-15          -6.22858e-14         
  1.5                   1.71501e-06           -1.30417e-15          -6.14206e-14         
  1.55                  1.71603e-06           1.21752e-15           -6.08989e-14         
  1.6                   1.71705e-06           4.59787e-15           -5.95185e-14         
  1.65                  1.71807e-06           1.25644e-15           -6.486e-14           
  1.7                   1.71908e-06           1.44544e-15           -6.6671e-14          
  1.75                  1.72009e-06           -8.40947e-16          -7.09574e-14         
  1.8                   1.72109e-06           -2.21584e-15          -7.43323e-14         
END_DB

BEGIN_DB
 ICCAP_VAR vg         1.477          
 ICCAP_VAR vb         0              
 ICCAP_VAR vs         0              
 ICCAP_VAR MAIN_W_swp 2.5e-07        

 #vd                    id                    ig                    ib                   
  0                     -1.99818e-15          -1.99818e-15          -1.99818e-15         
  0.05                  3.4078e-07            3.35153e-16           -1.75414e-15         
  0.1                   6.62423e-07           6.15719e-16           -3.49427e-15         
  0.15                  9.64972e-07           2.54868e-16           -5.85992e-15         
  0.2                   1.24847e-06           1.51898e-15           -6.59691e-15         
  0.25                  1.51297e-06           2.61673e-15           -7.49942e-15         
  0.3                   1.75852e-06           -5.29141e-16          -1.26454e-14         
  0.35                  1.98516e-06           2.73118e-15           -1.1385e-14          
  0.4                   2.19294e-06           9.79529e-16           -1.51367e-14         
  0.45                  2.38193e-06           3.66353e-15           -1.44527e-14         
  0.5                   2.55219e-06           -3.71724e-16          -2.0488e-14          
  0.55                  2.70379e-06           -2.72881e-16          -2.23891e-14         
  0.6                   2.83683e-06           -2.39193e-15          -2.65082e-14         
  0.65                  2.95145e-06           1.46566e-15           -2.46506e-14         
  0.7                   3.04786e-06           -7.17585e-16          -2.88339e-14         
  0.75                  3.12643e-06           1.58413e-15           -2.85322e-14         
  0.8                   3.18781e-06           -1.77392e-15          -3.38902e-14         
  0.85                  3.23317e-06           2.63775e-15           -3.14786e-14         
  0.9                   3.26457e-06           -3.1826e-16           -3.64346e-14         
  0.95                  3.28499e-06           -2.36252e-15          -4.04788e-14         
  1                     3.29786e-06           1.82242e-15           -3.82939e-14         
  1.05                  3.30611e-06           -2.26819e-15          -4.43845e-14         
  1.1                   3.31172e-06           -2.23853e-15          -4.63549e-14         
  1.15                  3.31583e-06           8.05919e-16           -4.53104e-14         
  1.2                   3.31908e-06           -1.51495e-15          -4.96313e-14         
  1.25                  3.3218e-06            5.50779e-16           -4.95656e-14         
  1.3                   3.32419e-06           1.96487e-15           -5.01515e-14         
  1.35                  3.32637e-06           1.4691e-16            -5.39695e-14         
  1.4                   3.32839e-06           2.7052e-16            -5.58459e-14         
  1.45                  3.33031e-06           1.43984e-15           -5.66766e-14         
  1.5                   3.33215e-06           2.03807e-15           -5.80783e-14         
  1.55                  3.33394e-06           1.97531e-15           -6.01411e-14         
  1.6                   3.33567e-06           -2.11908e-15          -6.62355e-14         
  1.65                  3.33738e-06           -1.13146e-15          -6.72479e-14         
  1.7                   3.33905e-06           -4.50819e-15          -7.26246e-14         
  1.75                  3.3407e-06            -1.77666e-15          -7.18931e-14         
  1.8                   3.34234e-06           -2.89395e-15          -7.50104e-14         
END_DB

BEGIN_DB
 ICCAP_VAR vg         1.8            
 ICCAP_VAR vb         0              
 ICCAP_VAR vs         0              
 ICCAP_VAR MAIN_W_swp 2.5e-07        

 #vd                    id                    ig                    ib                   
  0                     -1.96962e-15          -1.96962e-15          -1.96962e-15         
  0.05                  4.07069e-07           -1.82717e-15          -3.91646e-15         
  0.1                   7.97613e-07           2.26409e-15           -1.8459e-15          
  0.15                  1.17167e-06           -1.79609e-15          -7.91087e-15         
  0.2                   1.52927e-06           -3.03389e-15          -1.11498e-14         
  0.25                  1.87045e-06           -1.27979e-15          -1.13959e-14         
  0.3                   2.19526e-06           6.41301e-16           -1.14749e-14         
  0.35                  2.50371e-06           2.73725e-16           -1.38425e-14         
  0.4                   2.79585e-06           1.5118e-15            -1.46044e-14         
  0.45                  3.07172e-06           3.29003e-15           -1.48262e-14         
  0.5                   3.33135e-06           -1.40219e-15          -2.15184e-14         
  0.55                  3.57477e-06           -7.14053e-16          -2.28303e-14         
  0.6                   3.80204e-06           -3.33688e-16          -2.445e-14           
  0.65                  4.01319e-06           1.68032e-15           -2.4436e-14          
  0.7                   4.20825e-06           -4.43538e-16          -2.85598e-14         
  0.75                  4.38729e-06           3.55103e-16           -2.97612e-14         
  0.8                   4.55035e-06           -2.43603e-15          -3.45523e-14         
  0.85                  4.69749e-06           1.06068e-15           -3.30556e-14         
  0.9                   4.82881e-06           1.608e-15             -3.45083e-14         
  0.95                  4.9444e-06            -1.09658e-15          -3.92129e-14         
  1                     5.04442e-06           -3.02369e-16          -4.04187e-14         
  1.05                  5.12911e-06           2.2881e-15            -3.98282e-14         
  1.1                   5.19887e-06           -1.79868e-15          -4.5915e-14          
  1.15                  5.25435e-06           -4.50303e-16          -4.65667e-14         
  1.2                   5.29666e-06           -1.5045e-15           -4.96209e-14         
  1.25                  5.32747e-06           3.13417e-15           -4.69822e-14         
  1.3                   5.34904e-06           3.42909e-16           -5.17735e-14         
  1.35                  5.36388e-06           -1.271e-15            -5.53874e-14         
  1.4                   5.37421e-06           2.34704e-15           -5.37693e-14         
  1.45                  5.38169e-06           -2.34402e-15          -6.04604e-14         
  1.5                   5.3874e-06            -7.09077e-16          -6.08255e-14         
  1.55                  5.39201e-06           9.17247e-16           -6.11992e-14         
  1.6                   5.3959e-06            4.16576e-16           -6.36998e-14         
  1.65                  5.39932e-06           -9.56177e-16          -6.70726e-14         
  1.7                   5.40241e-06           3.00363e-15           -6.51128e-14         
  1.75                  5.40528e-06           -1.97241e-15          -7.20889e-14         
  1.8                   5.40798e-06           1.57257e-15           -7.05439e-14         
END_DB

BEGIN_DB
 ICCAP_VAR vg         0.508          
 ICCAP_VAR vb         0              
 ICCAP_VAR vs         0              
 ICCAP_VAR MAIN_W_swp 4e-07          

 #vd                    id                    ig                    ib                   
  0                     2.41487e-15           2.41487e-15           2.41487e-15          
  0.05                  6.66487e-08           3.06703e-15           9.65221e-16          
  0.1                   1.02225e-07           1.96057e-15           -2.16483e-15         
  0.15                  1.14655e-07           -4.16941e-15          -1.03003e-14         
  0.2                   1.17713e-07           -1.30417e-15          -9.43631e-15         
  0.25                  1.18636e-07           1.21752e-15           -8.91491e-15         
  0.3                   1.19059e-07           4.59787e-15           -7.53463e-15         
  0.35                  1.19325e-07           1.25644e-15           -1.28761e-14         
  0.4                   1.19529e-07           1.44544e-15           -1.46871e-14         
  0.45                  1.19705e-07           -8.40947e-16          -1.89735e-14         
  0.5                   1.19865e-07           -2.21584e-15          -2.23484e-14         
  0.55                  1.20017e-07           -1.99818e-15          -2.41307e-14         
  0.6                   1.20163e-07           3.35153e-16           -2.37974e-14         
