! VERSION = 6.00
!combined file by aosykin on Thu 27 Mar 12:06:26 MSK 2025
BEGIN_HEADER
 USER_INPUTS

  TEMP_ptr   LIST 5    3    -40        25         125       
 ICCAP_INPUTS
  vd         V  D GROUND SMU1 0.1 LIN        3    0.05       1.8        6    0.35      
  vg         V  G GROUND SMU2 0.001 LIN        1    -0.6       1.8        49   0.05      
  vb         V  B GROUND SMU4 0.1 LIN        2    0          -1.2       5    -0.3      
  MAIN_L_swp P  MAIN.L DEFAULT LIST       4 3 1.8E-07 4E-07 1E-05
  vs         V  S GROUND SMU3 0.1 CON        0
 ICCAP_OUTPUTS
  id         I  D GROUND SMU1 B
  ig         I  G GROUND SMU2 B
  ib         I  B GROUND SMU4 B
END_HEADER

BEGIN_DB
 USER_VAR  TEMP_ptr   -40            
 ICCAP_VAR vd         0.05           
 ICCAP_VAR vb         0              
 ICCAP_VAR MAIN_L_swp 1.8e-07        
 ICCAP_VAR vs         0              

 #vg                    id                    ig                    ib                   
  -0.6                  4.41497e-15           2.41487e-15           4.14773e-16          
  -0.55                 5.06713e-15           3.06703e-15           1.06693e-15          
  -0.5                  3.96067e-15           1.96057e-15           -3.95271e-17         
  -0.45                 -2.16931e-15          -4.16941e-15          -6.16951e-15         
  -0.4                  6.95928e-16           -1.30417e-15          -3.30427e-15         
  -0.35                 3.21763e-15           1.21752e-15           -7.82577e-16         
  -0.3                  6.59803e-15           4.59787e-15           2.59777e-15          
  -0.25                 3.257e-15             1.25644e-15           -7.43657e-16         
  -0.2                  3.44896e-15           1.44544e-15           -5.54657e-16         
  -0.15                 1.18448e-15           -8.40947e-16          -2.84104e-15         
  -0.1                  -2.83705e-17          -2.21584e-15          -4.21594e-15         
  -0.05                 1.38787e-15           -1.99818e-15          -3.99828e-15         
  0                     1.25866e-14           3.35153e-16           -1.66494e-15         
  0.05                  7.84361e-14           6.15719e-16           -1.38438e-15         
  0.1                   5.62921e-13           2.54868e-16           -1.74523e-15         
  0.15                  4.1473e-12            1.51898e-15           -4.81117e-16         
  0.2                   3.05872e-11           2.61673e-15           6.16633e-16          
  0.25                  2.2485e-10            -5.29141e-16          -2.52924e-15         
  0.3                   1.63629e-09           2.73118e-15           7.31083e-16          
  0.35                  1.15943e-08           9.79529e-16           -1.02057e-15         
  0.4                   7.69911e-08           3.66353e-15           1.66343e-15          
  0.45                  4.46661e-07           -3.71724e-16          -2.37182e-15         
  0.5                   2.10267e-06           -2.72881e-16          -2.27298e-15         
  0.55                  7.97579e-06           -2.39193e-15          -4.39203e-15         
  0.6                   2.52013e-05           1.46566e-15           -5.34437e-16         
  0.65                  6.40365e-05           -7.17585e-16          -2.71768e-15         
  0.7                   0.000125214           1.58413e-15           -4.15967e-16         
  0.75                  0.000196904           -1.77392e-15          -3.77402e-15         
  0.8                   0.000268589           2.63775e-15           6.37653e-16          
  0.85                  0.000335732           -3.1826e-16           -2.31836e-15         
  0.9                   0.000397197           -2.36252e-15          -4.36262e-15         
  0.95                  0.00045311            1.82242e-15           -1.77677e-16         
  1                     0.000503962           -2.26819e-15          -4.26829e-15         
  1.05                  0.000550302           -2.23853e-15          -4.23863e-15         
  1.1                   0.000592643           8.05919e-16           -1.19418e-15         
  1.15                  0.000631441           -1.51495e-15          -3.51505e-15         
  1.2                   0.000667091           5.50779e-16           -1.44932e-15         
  1.25                  0.000699938           1.96487e-15           -3.52271e-17         
  1.3                   0.000730277           1.4691e-16            -1.85319e-15         
  1.35                  0.000758368           2.7052e-16            -1.72958e-15         
  1.4                   0.000784435           1.43984e-15           -5.60257e-16         
  1.45                  0.000808675           2.03807e-15           3.79729e-17          
  1.5                   0.000831259           1.97531e-15           -2.47871e-17         
  1.55                  0.000852339           -2.11908e-15          -4.11918e-15         
  1.6                   0.000872049           -1.13146e-15          -3.13156e-15         
  1.65                  0.000890507           -4.50819e-15          -6.50829e-15         
  1.7                   0.000907819           -1.77666e-15          -3.77676e-15         
  1.75                  0.000924079           -2.89395e-15          -4.89405e-15         
  1.8                   0.00093937            -1.96962e-15          -3.96972e-15         
END_DB

BEGIN_DB
 USER_VAR  TEMP_ptr   -40            
 ICCAP_VAR vd         0.05           
 ICCAP_VAR vb         -0.3           
 ICCAP_VAR MAIN_L_swp 1.8e-07        
 ICCAP_VAR vs         0              

 #vg                    id                    ig                    ib                   
  -0.6                  1.21729e-14           -1.82717e-15          -2.78274e-14         
  -0.55                 1.62642e-14           2.26409e-15           -2.37361e-14         
  -0.5                  1.2204e-14            -1.79609e-15          -2.77963e-14         
  -0.45                 1.09662e-14           -3.03389e-15          -2.90341e-14         
  -0.4                  1.27203e-14           -1.27979e-15          -2.728e-14           
  -0.35                 1.46414e-14           6.41301e-16           -2.53589e-14         
  -0.3                  1.42738e-14           2.73725e-16           -2.57265e-14         
  -0.25                 1.5512e-14            1.5118e-15            -2.44884e-14         
  -0.2                  1.72906e-14           3.29003e-15           -2.27102e-14         
  -0.15                 1.26017e-14           -1.40219e-15          -2.74024e-14         
  -0.1                  1.33149e-14           -7.14053e-16          -2.67143e-14         
  -0.05                 1.38862e-14           -3.33688e-16          -2.63339e-14         
  0                     1.73562e-14           1.68032e-15           -2.43199e-14         
  0.05                  2.6334e-14            -4.43538e-16          -2.64438e-14         
  0.1                   1.11772e-13           3.55103e-16           -2.56451e-14         
  0.15                  7.54118e-13           -2.43603e-15          -2.84363e-14         
  0.2                   5.67147e-12           1.06068e-15           -2.49395e-14         
  0.25                  4.3027e-11            1.608e-15             -2.43922e-14         
  0.3                   3.25487e-10           -1.09658e-15          -2.70968e-14         
  0.35                  2.43075e-09           -3.02369e-16          -2.63026e-14         
  0.4                   1.75401e-08           2.2881e-15            -2.37121e-14         
  0.45                  1.16555e-07           -1.79868e-15          -2.77989e-14         
  0.5                   6.58135e-07           -4.50303e-16          -2.64505e-14         
  0.55                  2.95798e-06           -1.5045e-15           -2.75047e-14         
  0.6                   1.07586e-05           3.13417e-15           -2.28661e-14         
  0.65                  3.2563e-05            3.42909e-16           -2.56573e-14         
  0.7                   7.78476e-05           -1.271e-15            -2.72712e-14         
  0.75                  0.000143194           2.34704e-15           -2.36532e-14         
  0.8                   0.000215556           -2.34402e-15          -2.83442e-14         
  0.85                  0.000285963           -7.09077e-16          -2.67093e-14         
  0.9                   0.000351117           9.17247e-16           -2.5083e-14          
  0.95                  0.00041043            4.16576e-16           -2.55837e-14         
  1                     0.000464225           -9.56177e-16          -2.69564e-14         
  1.05                  0.000513062           3.00363e-15           -2.29966e-14         
  1.1                   0.000557507           -1.97241e-15          -2.79726e-14         
  1.15                  0.000598075           1.57257e-15           -2.44277e-14         
  1.2                   0.000635215           -1.93002e-15          -2.79302e-14         
  1.25                  0.000669316           -1.92111e-15          -2.79213e-14         
  1.3                   0.000700713           -2.82548e-15          -2.88257e-14         
  1.35                  0.000729697           2.54664e-15           -2.34536e-14         
  1.4                   0.000756518           1.17943e-15           -2.48208e-14         
  1.45                  0.000781393           1.72789e-15           -2.42723e-14         
  1.5                   0.000804513           1.54401e-15           -2.44562e-14         
  1.55                  0.000826045           1.362e-15             -2.46382e-14         
  1.6                   0.000846134           -9.44762e-16          -2.6945e-14          
  1.65                  0.000864911           -2.3399e-15           -2.83401e-14         
  1.7                   0.000882489           -1.11952e-15          -2.71197e-14         
  1.75                  0.00089897            -9.46911e-16          -2.69471e-14         
  1.8                   0.000914444           -1.96131e-16          -2.61964e-14         
END_DB

BEGIN_DB
 USER_VAR  TEMP_ptr   -40            
 ICCAP_VAR vd         0.05           
 ICCAP_VAR vb         -0.6           
 ICCAP_VAR MAIN_L_swp 1.8e-07        
 ICCAP_VAR vs         0              

 #vg                    id                    ig                    ib                   
  -0.6                  2.24279e-14           -3.57219e-15          -5.35724e-14         
  -0.55                 2.65057e-14           5.05567e-16           -4.94947e-14         
  -0.5                  2.8415e-14            2.41487e-15           -4.75854e-14         
  -0.45                 2.90671e-14           3.06703e-15           -4.69332e-14         
  -0.4                  2.79607e-14           1.96057e-15           -4.80397e-14         
  -0.35                 2.18307e-14           -4.16941e-15          -5.41696e-14         
  -0.3                  2.46959e-14           -1.30417e-15          -5.13044e-14         
  -0.25                 2.72176e-14           1.21752e-15           -4.87827e-14         
  -0.2                  3.05981e-14           4.59787e-15           -4.54024e-14         
  -0.15                 2.72574e-14           1.25644e-15           -4.87438e-14         
  -0.1                  2.74518e-14           1.44544e-15           -4.85548e-14         
  -0.05                 2.52077e-14           -8.40947e-16          -5.08412e-14         
  0                     2.41606e-14           -2.21584e-15          -5.22161e-14         
  0.05                  2.69181e-14           -1.99818e-15          -5.19984e-14         
  0.1                   4.89307e-14           3.35153e-16           -4.96651e-14         
  0.15                  2.01673e-13           6.15719e-16           -4.93845e-14         
  0.2                   1.38206e-12           2.54868e-16           -4.97454e-14         
  0.25                  1.05187e-11           1.51898e-15           -4.84812e-14         
  0.3                   8.10067e-11           2.61673e-15           -4.73835e-14         
  0.35                  6.2078e-10            -5.29141e-16          -5.05294e-14         
  0.4                   4.67076e-09           2.73118e-15           -4.7269e-14          
  0.45                  3.34967e-08           9.79529e-16           -4.90207e-14         
  0.5                   2.15217e-07           3.66353e-15           -4.63367e-14         
  0.55                  1.13613e-06           -3.71724e-16          -5.0372e-14          
  0.6                   4.7345e-06            -2.72881e-16          -5.02731e-14         
  0.65                  1.62005e-05           -2.39193e-15          -5.23922e-14         
  0.7                   4.56172e-05           1.46566e-15           -4.85346e-14         
  0.75                  9.93014e-05           -7.17585e-16          -5.07178e-14         
  0.8                   0.000168535           1.58413e-15           -4.84161e-14         
  0.85                  0.000240604           -1.77392e-15          -5.17741e-14         
  0.9                   0.000308871           2.63775e-15           -4.73625e-14         
  0.95                  0.000371372           -3.1826e-16           -5.03185e-14         
  1                     0.000428024           -2.36252e-15          -5.23627e-14         
  1.05                  0.000479312           1.82242e-15           -4.81778e-14         
  1.1                   0.000525831           -2.26819e-15          -5.22684e-14         
  1.15                  0.000568147           -2.23853e-15          -5.22388e-14         
  1.2                   0.000606761           8.05919e-16           -4.91943e-14         
  1.25                  0.000642106           -1.51495e-15          -5.15152e-14         
  1.3                   0.000674556           5.50779e-16           -4.94495e-14         
  1.35                  0.00070443            1.96487e-15           -4.80354e-14         
  1.4                   0.000732006           1.4691e-16            -4.98533e-14         
  1.45                  0.000757523           2.7052e-16            -4.97297e-14         
  1.5                   0.000781189           1.43984e-15           -4.85604e-14         
  1.55                  0.000803184           2.03807e-15           -4.79622e-14         
  1.6                   0.000823667           1.97531e-15           -4.80249e-14         
  1.65                  0.000842778           -2.11908e-15          -5.21193e-14         
  1.7                   0.00086064            -1.13146e-15          -5.11317e-14         
  1.75                  0.000877361           -4.50819e-15          -5.45084e-14         
  1.8                   0.000893038           -1.77666e-15          -5.17769e-14         
END_DB

BEGIN_DB
 USER_VAR  TEMP_ptr   -40            
 ICCAP_VAR vd         0.05           
 ICCAP_VAR vb         -0.9           
 ICCAP_VAR MAIN_L_swp 1.8e-07        
 ICCAP_VAR vs         0              

 #vg                    id                    ig                    ib                   
  -0.6                  3.51062e-14           -2.89395e-15          -7.68942e-14         
  -0.55                 3.60305e-14           -1.96962e-15          -7.59698e-14         
  -0.5                  3.61729e-14           -1.82717e-15          -7.58274e-14         
  -0.45                 4.02642e-14           2.26409e-15           -7.17361e-14         
  -0.4                  3.6204e-14            -1.79609e-15          -7.57963e-14         
  -0.35                 3.49662e-14           -3.03389e-15          -7.70341e-14         
  -0.3                  3.67203e-14           -1.27979e-15          -7.528e-14           
  -0.25                 3.86414e-14           6.41301e-16           -7.33589e-14         
  -0.2                  3.82739e-14           2.73725e-16           -7.37265e-14         
  -0.15                 3.95121e-14           1.5118e-15            -7.24884e-14         
  -0.1                  4.12919e-14           3.29003e-15           -7.07102e-14         
  -0.05                 3.66115e-14           -1.40219e-15          -7.54024e-14         
  0                     3.73922e-14           -7.14053e-16          -7.47143e-14         
  0.05                  3.84953e-14           -3.33688e-16          -7.43339e-14         
  0.1                   4.61521e-14           1.68032e-15           -7.23199e-14         
  0.15                  8.80812e-14           -4.43538e-16          -7.44438e-14         
  0.2                   4.32734e-13           3.55103e-16           -7.36451e-14         
  0.25                  3.11245e-12           -2.43603e-15          -7.64363e-14         
  0.3                   2.40114e-11           1.06068e-15           -7.29395e-14         
  0.35                  1.86097e-10           1.608e-15             -7.23922e-14         
  0.4                   1.42898e-09           -1.09658e-15          -7.50968e-14         
  0.45                  1.067e-08             -3.02369e-16          -7.43026e-14         
  0.5                   7.42799e-08           2.2881e-15            -7.17121e-14         
  0.55                  4.46111e-07           -1.79868e-15          -7.57989e-14         
  0.6                   2.13581e-06           -4.50303e-16          -7.44505e-14         
  0.65                  8.14939e-06           -1.5045e-15           -7.55047e-14         
  0.7                   2.58477e-05           3.13417e-15           -7.08661e-14         
  0.75                  6.5675e-05            3.42909e-16           -7.36573e-14         
  0.8                   0.000127639           -1.271e-15            -7.52712e-14         
  0.85                  0.000199108           2.34704e-15           -7.16532e-14         
  0.9                   0.000269632           -2.34402e-15          -7.63442e-14         
  0.95                  0.000335031           -7.09077e-16          -7.47093e-14         
  1                     0.000394437           9.17247e-16           -7.3083e-14          
  1.05                  0.000448135           4.16576e-16           -7.35837e-14         
  1.1                   0.000496708           -9.56177e-16          -7.49564e-14         
  1.15                  0.00054076            3.00363e-15           -7.09966e-14         
  1.2                   0.000580838           -1.97241e-15          -7.59726e-14         
  1.25                  0.000617421           1.57257e-15           -7.24277e-14         
  1.3                   0.000650919           -1.93002e-15          -7.59302e-14         
  1.35                  0.000681682           -1.92111e-15          -7.59213e-14         
  1.4                   0.000710014           -2.82548e-15          -7.68257e-14         
  1.45                  0.000736175           2.54664e-15           -7.14536e-14         
  1.5                   0.00076039            1.17943e-15           -7.28208e-14         
  1.55                  0.000782854           1.72789e-15           -7.22723e-14         
  1.6                   0.000803739           1.54401e-15           -7.24562e-14         
  1.65                  0.000823193           1.362e-15             -7.26382e-14         
  1.7                   0.000841349           -9.44762e-16          -7.4945e-14          
  1.75                  0.000858321           -2.3399e-15           -7.63401e-14         
  1.8                   0.000874213           -1.11952e-15          -7.51197e-14         
END_DB

BEGIN_DB
 USER_VAR  TEMP_ptr   -40            
 ICCAP_VAR vd         0.05           
 ICCAP_VAR vb         -1.2           
 ICCAP_VAR MAIN_L_swp 1.8e-07        
 ICCAP_VAR vs         0              

 #vg                    id                    ig                    ib                   
  -0.6                  4.90532e-14           -9.46911e-16          -9.89471e-14         
  -0.55                 4.9804e-14            -1.96131e-16          -9.81964e-14         
