! VERSION = 6.00
!combined file by aosykin on Wed 26 Mar 11:36:49 MSK 2025
BEGIN_HEADER
 ICCAP_INPUTS
  vg         V  G GROUND SMU2 0.001 LIN        2    0.616      1.8        5    0.296     
  vb         V  B GROUND SMU4 0.1 CON        0
  vs         V  S GROUND SMU3 0.1 CON        0
  vd         V  D GROUND SMU1 0.1 LIN        1    0          1.8        37   0.05      
  TEMP_swp   P  TEMP DEFAULT LIST       3 3 -40 25 125
 ICCAP_OUTPUTS
  id         I  D GROUND SMU1 B
  ig         I  G GROUND SMU2 B
  ib         I  B GROUND SMU4 B
END_HEADER

BEGIN_DB
 ICCAP_VAR vg         0.616          
 ICCAP_VAR vb         0              
 ICCAP_VAR vs         0              
 ICCAP_VAR TEMP_swp   -40            

 #vd                    id                    ig                    ib                   
  0                     2.41487e-15           2.41487e-15           2.41487e-15          
  0.05                  2.91212e-06           3.06703e-15           1.06693e-15          
  0.1                   4.38348e-06           1.96057e-15           -2.03954e-15         
  0.15                  4.85154e-06           -4.16941e-15          -1.01695e-14         
  0.2                   4.96319e-06           -1.30417e-15          -9.30428e-15         
  0.25                  4.9996e-06            1.21752e-15           -8.78259e-15         
  0.3                   5.0181e-06            4.59787e-15           -7.40224e-15         
  0.35                  5.03083e-06           1.25644e-15           -1.27437e-14         
  0.4                   5.04122e-06           1.44544e-15           -1.45547e-14         
  0.45                  5.05048e-06           -8.40947e-16          -1.88411e-14         
  0.5                   5.05915e-06           -2.21584e-15          -2.2216e-14          
  0.55                  5.06747e-06           -1.99818e-15          -2.39983e-14         
  0.6                   5.07558e-06           3.35153e-16           -2.3665e-14          
  0.65                  5.08354e-06           6.15719e-16           -2.53844e-14         
  0.7                   5.09141e-06           2.54868e-16           -2.77452e-14         
  0.75                  5.09921e-06           1.51898e-15           -2.84811e-14         
  0.8                   5.10696e-06           2.61673e-15           -2.93834e-14         
  0.85                  5.11467e-06           -5.29141e-16          -3.45293e-14         
  0.9                   5.12236e-06           2.73118e-15           -3.32689e-14         
  0.95                  5.13002e-06           9.79529e-16           -3.70206e-14         
  1                     5.13767e-06           3.66353e-15           -3.63366e-14         
  1.05                  5.1453e-06            -3.71724e-16          -4.23718e-14         
  1.1                   5.15293e-06           -2.72881e-16          -4.4273e-14          
  1.15                  5.16054e-06           -2.39193e-15          -4.8392e-14          
  1.2                   5.16815e-06           1.46566e-15           -4.65345e-14         
  1.25                  5.17575e-06           -7.17585e-16          -5.07177e-14         
  1.3                   5.18334e-06           1.58413e-15           -5.0416e-14          
  1.35                  5.19094e-06           -1.77392e-15          -5.5774e-14          
  1.4                   5.19853e-06           2.63775e-15           -5.33624e-14         
  1.45                  5.20611e-06           -3.1826e-16           -5.83184e-14         
  1.5                   5.2137e-06            -2.36252e-15          -6.23626e-14         
  1.55                  5.2213e-06            1.82242e-15           -6.01777e-14         
  1.6                   5.2289e-06            -2.26819e-15          -6.62683e-14         
  1.65                  5.23651e-06           -2.23853e-15          -6.82386e-14         
  1.7                   5.24413e-06           8.05919e-16           -6.71942e-14         
  1.75                  5.25179e-06           -1.51495e-15          -7.15151e-14         
  1.8                   5.25948e-06           5.50779e-16           -7.14493e-14         
END_DB

BEGIN_DB
 ICCAP_VAR vg         0.912          
 ICCAP_VAR vb         0              
 ICCAP_VAR vs         0              
 ICCAP_VAR TEMP_swp   -40            

 #vd                    id                    ig                    ib                   
  0                     1.96487e-15           1.96487e-15           1.96487e-15          
  0.05                  1.07082e-05           1.4691e-16            -1.85319e-15         
  0.1                   1.96729e-05           2.7052e-16            -3.72959e-15         
  0.15                  2.69071e-05           1.43984e-15           -4.56027e-15         
  0.2                   3.24347e-05           2.03807e-15           -5.96204e-15         
  0.25                  3.63099e-05           1.97531e-15           -8.0248e-15          
  0.3                   3.86766e-05           -2.11908e-15          -1.41192e-14         
  0.35                  3.98723e-05           -1.13146e-15          -1.51316e-14         
  0.4                   4.03954e-05           -4.50819e-15          -2.05083e-14         
  0.45                  4.06336e-05           -1.77666e-15          -1.97768e-14         
  0.5                   4.07639e-05           -2.89395e-15          -2.28941e-14         
  0.55                  4.08506e-05           -1.96962e-15          -2.39697e-14         
  0.6                   4.09175e-05           -1.82717e-15          -2.58273e-14         
  0.65                  4.09745e-05           2.26409e-15           -2.3736e-14          
  0.7                   4.10258e-05           -1.79609e-15          -2.97962e-14         
  0.75                  4.10738e-05           -3.03389e-15          -3.3034e-14          
  0.8                   4.11196e-05           -1.27979e-15          -3.32799e-14         
  0.85                  4.11641e-05           6.41301e-16           -3.33588e-14         
  0.9                   4.12075e-05           2.73725e-16           -3.57264e-14         
  0.95                  4.12503e-05           1.5118e-15            -3.64883e-14         
  1                     4.12925e-05           3.29003e-15           -3.67101e-14         
  1.05                  4.13343e-05           -1.40219e-15          -4.34023e-14         
  1.1                   4.13758e-05           -7.14053e-16          -4.47142e-14         
  1.15                  4.14171e-05           -3.33688e-16          -4.63338e-14         
  1.2                   4.14582e-05           1.68032e-15           -4.63198e-14         
  1.25                  4.14991e-05           -4.43538e-16          -5.04437e-14         
  1.3                   4.15399e-05           3.55103e-16           -5.1645e-14          
  1.35                  4.15806e-05           -2.43603e-15          -5.64361e-14         
  1.4                   4.16212e-05           1.06068e-15           -5.49394e-14         
  1.45                  4.16618e-05           1.608e-15             -5.63921e-14         
  1.5                   4.17022e-05           -1.09658e-15          -6.10967e-14         
  1.55                  4.17427e-05           -3.02369e-16          -6.23025e-14         
  1.6                   4.17831e-05           2.2881e-15            -6.1712e-14          
  1.65                  4.18234e-05           -1.79868e-15          -6.77988e-14         
  1.7                   4.18638e-05           -4.50303e-16          -6.84504e-14         
  1.75                  4.19041e-05           -1.5045e-15           -7.15046e-14         
  1.8                   4.19445e-05           3.13417e-15           -6.88659e-14         
END_DB

BEGIN_DB
 ICCAP_VAR vg         1.208          
 ICCAP_VAR vb         0              
 ICCAP_VAR vs         0              
 ICCAP_VAR TEMP_swp   -40            

 #vd                    id                    ig                    ib                   
  0                     3.42909e-16           3.42909e-16           3.42909e-16          
  0.05                  1.77081e-05           -1.271e-15            -3.2711e-15          
  0.1                   3.37935e-05           2.34704e-15           -1.65307e-15         
  0.15                  4.82621e-05           -2.34402e-15          -8.34413e-15         
  0.2                   6.11206e-05           -7.09077e-16          -8.70919e-15         
  0.25                  7.23764e-05           9.17247e-16           -9.08287e-15         
  0.3                   8.20387e-05           4.16576e-16           -1.15835e-14         
  0.35                  9.01206e-05           -9.56177e-16          -1.49563e-14         
  0.4                   9.66429e-05           3.00363e-15           -1.29965e-14         
  0.45                  0.000101645           -1.97241e-15          -1.99725e-14         
  0.5                   0.000105211           1.57257e-15           -1.84275e-14         
  0.55                  0.000107511           -1.93002e-15          -2.39301e-14         
  0.6                   0.000108844           -1.92111e-15          -2.59212e-14         
  0.65                  0.000109572           -2.82548e-15          -2.88256e-14         
  0.7                   0.000109983           2.54664e-15           -2.54535e-14         
  0.75                  0.000110242           1.17943e-15           -2.88207e-14         
  0.8                   0.000110426           1.72789e-15           -3.02722e-14         
  0.85                  0.00011057            1.54401e-15           -3.24561e-14         
  0.9                   0.000110693           1.362e-15             -3.46381e-14         
  0.95                  0.000110803           -9.44762e-16          -3.89449e-14         
  1                     0.000110904           -2.3399e-15           -4.234e-14           
  1.05                  0.000110999           -1.11952e-15          -4.31196e-14         
  1.1                   0.000111091           -9.46911e-16          -4.4947e-14          
  1.15                  0.00011118            -1.96131e-16          -4.61962e-14         
  1.2                   0.000111267           -3.57219e-15          -5.15723e-14         
  1.25                  0.000111353           5.05567e-16           -4.94945e-14         
  1.3                   0.000111437           2.41487e-15           -4.95852e-14         
  1.35                  0.00011152            3.06703e-15           -5.09331e-14         
  1.4                   0.000111603           1.96057e-15           -5.40395e-14         
  1.45                  0.000111685           -4.16941e-15          -6.21695e-14         
  1.5                   0.000111767           -1.30417e-15          -6.13043e-14         
  1.55                  0.000111848           1.21752e-15           -6.07826e-14         
  1.6                   0.000111929           4.59787e-15           -5.94022e-14         
  1.65                  0.000112009           1.25644e-15           -6.47437e-14         
  1.7                   0.000112089           1.44544e-15           -6.65547e-14         
  1.75                  0.000112169           -8.40947e-16          -7.08411e-14         
  1.8                   0.000112249           -2.21584e-15          -7.4216e-14          
END_DB

BEGIN_DB
 ICCAP_VAR vg         1.504          
 ICCAP_VAR vb         0              
 ICCAP_VAR vs         0              
 ICCAP_VAR TEMP_swp   -40            

 #vd                    id                    ig                    ib                   
  0                     -1.99818e-15          -1.99818e-15          -1.99818e-15         
  0.05                  2.28007e-05           3.35153e-16           -1.66494e-15         
  0.1                   4.42008e-05           6.15719e-16           -3.38439e-15         
  0.15                  6.42048e-05           2.54868e-16           -5.74525e-15         
  0.2                   8.2817e-05            1.51898e-15           -6.48113e-15         
  0.25                  0.000100042           2.61673e-15           -7.38338e-15         
  0.3                   0.000115885           -5.29141e-16          -1.25293e-14         
  0.35                  0.00013035            2.73118e-15           -1.12689e-14         
  0.4                   0.000143442           9.79529e-16           -1.50206e-14         
  0.45                  0.000155168           3.66353e-15           -1.43366e-14         
  0.5                   0.000165535           -3.71724e-16          -2.03718e-14         
  0.55                  0.00017455            -2.72881e-16          -2.2273e-14          
  0.6                   0.000182227           -2.39193e-15          -2.6392e-14          
  0.65                  0.000188584           1.46566e-15           -2.45345e-14         
  0.7                   0.000193655           -7.17585e-16          -2.87177e-14         
  0.75                  0.000197501           1.58413e-15           -2.8416e-14          
  0.8                   0.000200237           -1.77392e-15          -3.3774e-14          
  0.85                  0.000202049           2.63775e-15           -3.13624e-14         
  0.9                   0.000203188           -3.1826e-16           -3.63184e-14         
  0.95                  0.0002039             -2.36252e-15          -4.03626e-14         
  1                     0.000204367           1.82242e-15           -3.81777e-14         
  1.05                  0.000204697           -2.26819e-15          -4.42683e-14         
  1.1                   0.000204951           -2.23853e-15          -4.62386e-14         
  1.15                  0.00020516            8.05919e-16           -4.51942e-14         
  1.2                   0.000205341           -1.51495e-15          -4.95151e-14         
  1.25                  0.000205504           5.50779e-16           -4.94493e-14         
  1.3                   0.000205655           1.96487e-15           -5.00352e-14         
  1.35                  0.000205797           1.4691e-16            -5.38532e-14         
  1.4                   0.000205933           2.7052e-16            -5.57296e-14         
  1.45                  0.000206065           1.43984e-15           -5.65603e-14         
  1.5                   0.000206194           2.03807e-15           -5.7962e-14          
  1.55                  0.00020632            1.97531e-15           -6.00248e-14         
  1.6                   0.000206443           -2.11908e-15          -6.61192e-14         
  1.65                  0.000206565           -1.13146e-15          -6.71316e-14         
  1.7                   0.000206686           -4.50819e-15          -7.25083e-14         
  1.75                  0.000206805           -1.77666e-15          -7.17768e-14         
  1.8                   0.000206924           -2.89395e-15          -7.48941e-14         
END_DB

BEGIN_DB
 ICCAP_VAR vg         1.8            
 ICCAP_VAR vb         0              
 ICCAP_VAR vs         0              
 ICCAP_VAR TEMP_swp   -40            

 #vd                    id                    ig                    ib                   
  0                     -1.96962e-15          -1.96962e-15          -1.96962e-15         
  0.05                  2.57954e-05           -1.82717e-15          -3.82727e-15         
  0.1                   5.04388e-05           2.26409e-15           -1.73602e-15         
  0.15                  7.39335e-05           -1.79609e-15          -7.7962e-15          
  0.2                   9.62827e-05           -3.03389e-15          -1.1034e-14          
  0.25                  0.00011749            -1.27979e-15          -1.12799e-14         
  0.3                   0.000137558           6.41301e-16           -1.13588e-14         
  0.35                  0.00015649            2.73725e-16           -1.37264e-14         
  0.4                   0.000174289           1.5118e-15            -1.44883e-14         
  0.45                  0.00019096            3.29003e-15           -1.47101e-14         
  0.5                   0.000206505           -1.40219e-15          -2.14023e-14         
  0.55                  0.000220927           -7.14053e-16          -2.27142e-14         
  0.6                   0.000234231           -3.33688e-16          -2.43338e-14         
  0.65                  0.00024642            1.68032e-15           -2.43198e-14         
  0.7                   0.000257499           -4.43538e-16          -2.84437e-14         
  0.75                  0.000267472           3.55103e-16           -2.9645e-14          
  0.8                   0.000276346           -2.43603e-15          -3.44361e-14         
  0.85                  0.000284129           1.06068e-15           -3.29394e-14         
  0.9                   0.000290831           1.608e-15             -3.43921e-14         
  0.95                  0.00029647            -1.09658e-15          -3.90967e-14         
  1                     0.000301075           -3.02369e-16          -4.03025e-14         
  1.05                  0.000304695           2.2881e-15            -3.9712e-14          
  1.1                   0.000307411           -1.79868e-15          -4.57988e-14         
  1.15                  0.000309353           -4.50303e-16          -4.64504e-14         
  1.2                   0.000310688           -1.5045e-15           -4.95046e-14         
  1.25                  0.000311595           3.13417e-15           -4.68659e-14         
  1.3                   0.000312226           3.42909e-16           -5.16572e-14         
  1.35                  0.000312686           -1.271e-15            -5.52711e-14         
  1.4                   0.000313042           2.34704e-15           -5.36531e-14         
  1.45                  0.000313332           -2.34402e-15          -6.03441e-14         
  1.5                   0.000313581           -7.09077e-16          -6.07092e-14         
  1.55                  0.000313802           9.17247e-16           -6.10829e-14         
  1.6                   0.000314004           4.16576e-16           -6.35835e-14         
  1.65                  0.000314193           -9.56177e-16          -6.69563e-14         
  1.7                   0.000314372           3.00363e-15           -6.49965e-14         
  1.75                  0.000314543           -1.97241e-15          -7.19725e-14         
  1.8                   0.000314708           1.57257e-15           -7.04275e-14         
END_DB

BEGIN_DB
 ICCAP_VAR vg         0.616          
 ICCAP_VAR vb         0              
 ICCAP_VAR vs         0              
 ICCAP_VAR TEMP_swp   25             

 #vd                    id                    ig                    ib                   
  0                     2.41487e-15           2.41487e-15           2.41487e-15          
  0.05                  1.86725e-06           3.06703e-15           1.6427e-16           
  0.1                   2.85549e-06           1.96057e-15           -3.1514e-15          
  0.15                  3.19549e-06           -4.16941e-15          -1.13299e-14         
  0.2                   3.27846e-06           -1.30417e-15          -1.04759e-14         
  0.25                  3.30367e-06           1.21752e-15           -9.95677e-15         
  0.3                   3.31532e-06           4.59787e-15           -8.57703e-15         
  0.35                  3.32272e-06           1.25644e-15           -1.39186e-14         
  0.4                   3.32843e-06           1.44544e-15           -1.57297e-14         
  0.45                  3.33335e-06           -8.40947e-16          -2.00161e-14         
  0.5                   3.33784e-06           -2.21584e-15          -2.33911e-14         
  0.55                  3.3421e-06            -1.99818e-15          -2.51735e-14         
  0.6                   3.34621e-06           3.35153e-16           -2.48403e-14         
