! VERSION = 6.00
BEGIN_HEADER
 ICCAP_INPUTS
  vc         V  cathode GROUND SMU1 0.1 CON        0
  va         V  anode GROUND SMU2 0.1 LIN        1    15         0          151  -0.1      
 ICCAP_OUTPUTS
  ia         I  anode GROUND SMU2 B
  ic         I  cathode GROUND SMU1 B
 ICCAP_VALUES
  DataOrigin "Measure"
  ___CONTEXT ""
  Date "Jan 11 Tue 12:56:18 2022"
  Version "WaferPro.2016.01"
  Bench "B1500_B2200"
  Temperature "-40"
  Lot "M135205"
  Reticle "M135205"
  Wafer "01D2"
  Die "X-3-Y0"
  DieList "TargetDie"
  Block "WholeDie"
  Subsite "diod1-5V"
  Routine "DIODE_EXTR_Measure"
  MeasCond "Set1"
  Device "9"
  DeviceName "ndiode_Dn5_A128B640"
  DevTechno "DIO"
  DevPolarity "N"
  Setup "iv_rev"
  Type "1"
  ___SPICE_INSTANCE ""
  A "1.28E-006"
  B "6.4E-005"
  ___TECHNO_INSTANCE ""
  ___CALIBRATION ""
END_HEADER

BEGIN_DB
 ICCAP_VAR vc         0              

 #va              ia              ic             
  15              0.02337         -0.023734      
  14.9            0.02236         -0.022456      
  14.8            0.021462        -0.021514      
  14.7            0.020606        -0.020634      
  14.6            0.019766        -0.019784      
  14.5            0.018924        -0.018936      
  14.4            0.018082        -0.018086      
  14.3            0.017234        -0.017234      
  14.2            0.016372        -0.016374      
  14.1            0.015508        -0.015506      
  14              0.014622        -0.01462       
  13.9            0.013728        -0.013724      
  13.8            0.012826        -0.012822      
  13.7            0.011904        -0.011898      
  13.6            0.010978        -0.01097       
  13.5            0.01003         -0.010022      
  13.4            0.0090582       -0.009059      
  13.3            0.0080888       -0.0080886     
  13.2            0.0070998       -0.0070986     
  13.1            0.0061036       -0.0061026     
  13              0.0050898       -0.0050888     
  12.9            0.0040652       -0.0040628     
  12.8            0.003041        -0.003039      
  12.7            0.0019956       -0.0019942     
  12.6            0.00087212      -0.0008721     
  12.5            4.3806e-006     -4.782e-006    
  12.4            3.6244e-008     -3.8324e-008   
  12.3            1.2016e-008     -1.2468e-008   
  12.2            6.7528e-009     -7.071e-009    
  12.1            4.701e-009      -4.7612e-009   
  12              3.5024e-009     -3.544e-009    
  11.9            2.7432e-009     -2.766e-009    
  11.8            2.2038e-009     -2.2156e-009   
  11.7            1.819e-009      -1.8208e-009   
  11.6            1.5148e-009     -1.5232e-009   
  11.5            1.2816e-009     -1.2692e-009   
  11.4            1.0894e-009     -1.093e-009    
  11.3            9.2982e-010     -9.276e-010    
  11.2            8.0166e-010     -7.984e-010    
  11.1            6.9658e-010     -7.0022e-010   
  11              6.0846e-010     -6.0162e-010   
  10.9            5.3668e-010     -5.361e-010    
  10.8            4.7538e-010     -4.6816e-010   
  10.7            4.221e-010      -4.1802e-010   
  10.6            3.7692e-010     -3.7246e-010   
  10.5            3.358e-010      -3.2136e-010   
  10.4            3.0114e-010     -2.9212e-010   
  10.3            2.7064e-010     -2.728e-010    
  10.2            2.4264e-010     -2.4986e-010   
  10.1            2.1856e-010     -2.1698e-010   
  10              1.9804e-010     -1.8808e-010   
  9.9             1.7906e-010     -1.734e-010    
  9.8             1.6216e-010     -1.6644e-010   
  9.7             1.4748e-010     -1.2348e-010   
  9.6             1.346e-010      -1.2498e-010   
  9.5             1.2228e-010     -1.1684e-010   
  9.4             1.1132e-010     -1.0622e-010   
  9.3             1.018e-010      -1.0018e-010   
  9.2             9.3e-011        -9.228e-011    
  9.1             8.536e-011      -7.264e-011    
  9               7.818e-011      -7.394e-011    
  8.9             7.166e-011      -7.294e-011    
  8.8             6.59e-011       -5.482e-011    
  8.7             6.064e-011      -4.782e-011    
  8.6             5.584e-011      -4.528e-011    
  8.5             5.148e-011      -5.428e-011    
  8.4             4.73e-011       -4.072e-011    
  8.3             4.368e-011      -3.452e-011    
  8.2             4.052e-011      -3.558e-011    
  8.1             3.712e-011      -3.058e-011    
  8               3.452e-011      -5.092e-011    
  7.9             3.204e-011      -2.712e-011    
  7.8             2.962e-011      -8.1e-012      
  7.7             2.752e-011      -1.508e-011    
  7.6             2.534e-011      -1.754e-011    
  7.5             2.354e-011      -1.722e-011    
  7.4             2.19e-011       -1.606e-011    
  7.3             2.056e-011      -1.672e-011    
  7.2             1.89e-011       -1.502e-011    
  7.1             1.76e-011       -1.594e-011    
  7               1.63e-011       -4.24e-012     
  6.9             1.542e-011      2.86e-012      
  6.8             1.428e-011      -1.262e-011    
  6.7             1.33e-011       -7.24e-012     
  6.6             1.252e-011      1.34e-012      
  6.5             1.17e-011       -6.06e-012     
  6.4             1.102e-011      -3.86e-012     
  6.3             1.01e-011       -6.54e-012     
  6.2             9.66e-012       -9.74e-012     
  6.1             8.84e-012       1.94e-012      
  6               8.42e-012       6.4e-013       
  5.9             7.92e-012       4.8e-012       
  5.8             7.42e-012       -3.62e-012     
  5.7             6.88e-012       -3.04e-012     
  5.6             6.54e-012       1.358e-011     
  5.5             6.16e-012       4.92e-012      
  5.4             5.62e-012       -4.4e-012      
  5.3             5.6e-012        -3.82e-012     
  5.2             5.12e-012       -3.92e-012     
  5.1             5e-012          1.108e-011     
  5               4.68e-012       2.96e-012      
  4.9             4.3e-012        -3.4e-012      
  4.8             4.04e-012       2.74e-012      
  4.7             3.86e-012       1.312e-011     
  4.6             3.78e-012       2.2e-013       
  4.5             3.56e-012       4.78e-012      
  4.4             3.22e-012       -4e-013        
  4.3             2.78e-012       -1.64e-012     
  4.2             2.88e-012       1.474e-011     
  4.1             2.84e-012       1.366e-011     
  4               2.76e-012       5.7e-012       
  3.9             2.32e-012       1.112e-011     
  3.8             2.24e-012       1.608e-011     
  3.7             2.3e-012        2.002e-011     
  3.6             2.26e-012       3.74e-012      
  3.5             2.2e-012        3.86e-012      
  3.4             1.7e-012        1.206e-011     
  3.3             1.62e-012       1.39e-011      
  3.2             1.64e-012       2.66e-012      
  3.1             1.82e-012       7.82e-012      
  3               1.62e-012       1.1e-011       
  2.9             1.38e-012       1.326e-011     
  2.8             1.32e-012       1.65e-011      
  2.7             1.28e-012       9.96e-012      
  2.6             1.42e-012       1.046e-011     
  2.5             1.16e-012       7.52e-012      
  2.4             1.12e-012       4.1e-012       
  2.3             5.6e-013        1.538e-011     
  2.2             7.6e-013        1.736e-011     
  2.1             8.6e-013        -8e-014        
  2               9.4e-013        1.952e-011     
  1.9             8e-013          3.128e-011     
  1.8             5.4e-013        1.538e-011     
  1.7             6.2e-013        5.1e-012       
  1.6             7e-013          1.884e-011     
  1.5             9e-013          2.36e-011      
  1.4             4.6e-013        1.132e-011     
  1.3             2.8e-013        9.72e-012      
  1.2             2.6e-013        -1.114e-011    
  1.1             5e-013          2.328e-011     
  1               8e-013          2.004e-011     
  0.9             6.6e-013        3.022e-011     
  0.8             2.8e-013        1.646e-011     
  0.7             2.4e-013        1.658e-011     
  0.6             5.8e-013        3.884e-011     
  0.5             5.4e-013        1.904e-011     
  0.4             5e-013          1.892e-011     
  0.3             -8e-014         1.422e-011     
  0.2             0               3.02e-011      
  0.1             3.8e-013        3.236e-011     
  0               6.6e-013        3.644e-011     
END_DB

