! VERSION = 6.00
BEGIN_HEADER
 ICCAP_INPUTS
  vc         V  cathode GROUND SMU1 0.1 CON        0
  va         V  anode GROUND SMU2 0.1 LIN        1    15         0          151  -0.1      
 ICCAP_OUTPUTS
  ia         I  anode GROUND SMU2 B
  ic         I  cathode GROUND SMU1 B
 ICCAP_VALUES
  DataOrigin "Measure"
  ___CONTEXT ""
  Date "Jan 11 Tue 12:40:47 2022"
  Version "WaferPro.2016.01"
  Bench "B1500_B2200"
  Temperature "-40"
  Lot "M135205"
  Reticle "M135205"
  Wafer "01D2"
  Die "X-3-Y0"
  DieList "TargetDie"
  Block "WholeDie"
  Subsite "diod1-5V"
  Routine "DIODE_EXTR_Measure"
  MeasCond "Set1"
  Device "1"
  DeviceName "ndiode_Dn5_A032B032"
  DevTechno "DIO"
  DevPolarity "N"
  Setup "iv_rev"
  Type "1"
  ___SPICE_INSTANCE ""
  A "3.2E-007"
  B "3.2E-007"
  ___TECHNO_INSTANCE ""
  ___CALIBRATION ""
END_HEADER

BEGIN_DB
 ICCAP_VAR vc         0              

 #va              ia              ic             
  15              0.00016656      -0.00017176    
  14.9            0.0001556       -0.0001566     
  14.8            0.00014724      -0.00014674    
  14.7            0.00013784      -0.00013878    
  14.6            0.00012832      -0.00012968    
  14.5            0.00012134      -0.00012108    
  14.4            0.00011276      -0.00011338    
  14.3            0.0001044       -0.0001048     
  14.2            9.7126e-005     -9.7578e-005   
  14.1            8.996e-005      -8.9968e-005   
  14              8.264e-005      -8.231e-005    
  13.9            7.5328e-005     -7.564e-005    
  13.8            6.7116e-005     -6.7536e-005   
  13.7            6.04e-005       -6.0184e-005   
  13.6            5.3488e-005     -5.34e-005     
  13.5            4.698e-005      -4.7316e-005   
  13.4            4.0018e-005     -4.0242e-005   
  13.3            3.335e-005      -3.3432e-005   
  13.2            2.665e-005      -2.6626e-005   
  13.1            1.8658e-005     -2.0298e-005   
  13              3.979e-006      -5.224e-006    
  12.9            1.9086e-007     -1.6576e-007   
  12.8            1.4828e-008     -1.4748e-008   
  12.7            3.61e-009       -3.6038e-009   
  12.6            1.4732e-009     -1.3994e-009   
  12.5            8.0892e-010     -7.744e-010    
  12.4            4.8614e-010     -4.746e-010    
  12.3            3.3848e-010     -3.3582e-010   
  12.2            2.5384e-010     -2.7832e-010   
  12.1            1.984e-010      -1.9802e-010   
  12              1.5244e-010     -1.5474e-010   
  11.9            1.2084e-010     -1.1522e-010   
  11.8            9.994e-011      -1.0626e-010   
  11.7            8.102e-011      -8.438e-011    
  11.6            6.652e-011      -6.402e-011    
  11.5            5.384e-011      -4.648e-011    
  11.4            4.92e-011       -5.436e-011    
  11.3            4.34e-011       -4.81e-011     
  11.2            3.658e-011      -3.606e-011    
  11.1            3.024e-011      -4.014e-011    
  11              2.684e-011      -1.928e-011    
  10.9            2.358e-011      -2.794e-011    
  10.8            2.128e-011      -2.604e-011    
  10.7            1.866e-011      1.382e-011     
  10.6            1.6e-011        -8.26e-012     
  10.5            1.418e-011      -3.4e-012      
  10.4            1.274e-011      -2.448e-011    
  10.3            1.184e-011      -1.326e-011    
  10.2            1.054e-011      -8.38e-012     
  10.1            9.66e-012       -3.22e-012     
  10              8.22e-012       -1.994e-011    
  9.9             7.48e-012       -1.22e-011     
  9.8             7.32e-012       0              
  9.7             6.1e-012        -2.36e-012     
  9.6             5.32e-012       -2.16e-012     
  9.5             4.8e-012        -1.288e-011    
  9.4             4.98e-012       1.218e-011     
  9.3             4.52e-012       -9.26e-012     
  9.2             3.92e-012       -6.64e-012     
  9.1             3.1e-012        -7.04e-012     
  9               2.96e-012       -8.7e-012      
  8.9             3.44e-012       -5.12e-012     
  8.8             3.14e-012       -2.18e-012     
  8.7             2.44e-012       2.58e-012      
  8.6             1.76e-012       -1.148e-011    
  8.5             1.9e-012        -1.06e-012     
  8.4             2.32e-012       -6.48e-012     
  8.3             2.34e-012       7.24e-012      
  8.2             1.44e-012       -1.806e-011    
  8.1             1.22e-012       -1.73e-011     
  8               1.42e-012       1.428e-011     
  7.9             1.86e-012       -8.3e-012      
  7.8             1.78e-012       -5.66e-012     
  7.7             7.8e-013        6.2e-013       
  7.6             7.4e-013        -1.54e-012     
  7.5             9e-013          8.2e-012       
  7.4             1.62e-012       -7.4e-013      
  7.3             1.08e-012       -8.2e-012      
  7.2             4.6e-013        -9.8e-013      
  7.1             5.4e-013        6e-014         
  7               1e-012          -2.42e-012     
  6.9             1.46e-012       -1.2e-012      
  6.8             6.8e-013        -2.38e-012     
  6.7             1.4e-013        3.9e-012       
  6.6             2.6e-013        -3.04e-012     
  6.5             9.8e-013        -1.44e-012     
  6.4             9.2e-013        -2.84e-012     
  6.3             3.2e-013        9.8e-013       
  6.2             -4e-014         6.1e-012       
  6.1             2.8e-013        -9.6e-013      
  6               8.8e-013        -8.5e-012      
  5.9             8.6e-013        -4.96e-012     
  5.8             2.6e-013        4.72e-012      
  5.7             -2.2e-013       8e-012         
  5.6             3.8e-013        -9e-013        
  5.5             7.2e-013        3.54e-012      
  5.4             6.8e-013        -8.26e-012     
  5.3             0               3.14e-012      
  5.2             -8e-014         -1.246e-011    
  5.1             3.2e-013        -5.18e-012     
  5               7e-013          -8.58e-012     
  4.9             5.8e-013        1.4e-013       
  4.8             -1.2e-013       1.298e-011     
  4.7             -2e-014         -8.4e-013      
  4.6             2.8e-013        -7.28e-012     
  4.5             6.6e-013        -2.08e-012     
  4.4             2.4e-013        7.54e-012      
  4.3             -6e-014         -1.174e-011    
  4.2             -4e-014         -1.44e-012     
  4.1             5.8e-013        -1.046e-011    
  4               6.8e-013        2.02e-012      
  3.9             1.6e-013        2.62e-012      
  3.8             -2.4e-013       5.16e-012      
  3.7             6e-014          5.7e-012       
  3.6             7.6e-013        1.36e-012      
  3.5             4.2e-013        5.22e-012      
  3.4             -1e-013         -1.88e-012     
  3.3             -3e-013         -7.28e-012     
  3.2             3e-013          -1.06e-011     
  3.1             6e-013          5.3e-012       
  3               3.8e-013        4.74e-012      
  2.9             -6e-014         3.18e-012      
  2.8             -3.8e-013       1.78e-012      
  2.7             3e-013          4.44e-012      
  2.6             4.2e-013        6.26e-012      
  2.5             1.6e-013        2.51e-011      
  2.4             -2.2e-013       3.12e-012      
  2.3             -1.4e-013       -9.88e-012     
  2.2             4.8e-013        4.1e-012       
  2.1             5.2e-013        6.46e-012      
  2               0               1.5e-012       
  1.9             -3.4e-013       2.4e-013       
  1.8             8e-014          1.54e-012      
  1.7             3.8e-013        1.098e-011     
  1.6             4.2e-013        -3.12e-012     
  1.5             -1.2e-013       5.44e-012      
  1.4             -3e-013         -3.36e-012     
  1.3             1.6e-013        6.4e-012       
  1.2             5.2e-013        -2.56e-012     
  1.1             4.4e-013        9.58e-012      
  1               -1.8e-013       7e-012         
  0.9             -3.8e-013       7.1e-012       
  0.8             1.4e-013        1.7e-011       
  0.7             5e-013          8.32e-012      
  0.6             1e-013          8.64e-012      
  0.5             -3.4e-013       5.94e-012      
  0.4             -2e-013         1.714e-011     
  0.3             2.8e-013        1.478e-011     
  0.2             5.4e-013        1.206e-011     
  0.1             1.8e-013        6.28e-012      
  0               -1.6e-013       1.952e-011     
END_DB

