! VERSION = 6.00
BEGIN_HEADER
 ICCAP_INPUTS
  vc         V  cathode GROUND SMU1 0.1 CON        0
  va         V  anode GROUND SMU2 0.1 LIN        1    15         0          151  -0.1      
 ICCAP_OUTPUTS
  ia         I  anode GROUND SMU2 B
  ic         I  cathode GROUND SMU1 B
 ICCAP_VALUES
  DataOrigin "Measure"
  ___CONTEXT ""
  Date "Jan 11 Tue 12:42:40 2022"
  Version "WaferPro.2016.01"
  Bench "B1500_B2200"
  Temperature "-40"
  Lot "M135205"
  Reticle "M135205"
  Wafer "01D2"
  Die "X-3-Y0"
  DieList "TargetDie"
  Block "WholeDie"
  Subsite "diod1-5V"
  Routine "DIODE_EXTR_Measure"
  MeasCond "Set1"
  Device "2"
  DeviceName "ndiode_Dn5_A032B32"
  DevTechno "DIO"
  DevPolarity "N"
  Setup "iv_rev"
  Type "1"
  ___SPICE_INSTANCE ""
  A "3.2E-007"
  B "3.2E-006"
  ___TECHNO_INSTANCE ""
  ___CALIBRATION ""
END_HEADER

BEGIN_DB
 ICCAP_VAR vc         0              

 #va              ia              ic             
  15              0.0010084       -0.0010398     
  14.9            0.00093794      -0.00094988    
  14.8            0.00088676      -0.00089194    
  14.7            0.00083478      -0.00084048    
  14.6            0.0007894       -0.00079136    
  14.5            0.0007446       -0.00074632    
  14.4            0.0006987       -0.00070166    
  14.3            0.00065092      -0.000654      
  14.2            0.0006071       -0.0006081     
  14.1            0.00056442      -0.00056586    
  14              0.0005198       -0.00052074    
  13.9            0.00047484      -0.00047632    
  13.8            0.00043082      -0.00043194    
  13.7            0.0003865       -0.00038818    
  13.6            0.00034214      -0.00034362    
  13.5            0.00029774      -0.00029782    
  13.4            0.00025408      -0.00025538    
  13.3            0.00020834      -0.00020982    
  13.2            0.00016336      -0.00016334    
  13.1            0.00011868      -0.00011914    
  13              6.859e-005      -7.0158e-005   
  12.9            6.814e-006      -9.016e-006    
  12.8            3.4514e-008     -4.088e-008    
  12.7            5.65e-009       -6.1584e-009   
  12.6            2.3336e-009     -2.3822e-009   
  12.5            1.376e-009      -1.3798e-009   
  12.4            8.4894e-010     -9.254e-010    
  12.3            6.1762e-010     -6.196e-010    
  12.2            4.6498e-010     -4.8748e-010   
  12.1            3.7384e-010     -3.8134e-010   
  12              2.9908e-010     -2.9226e-010   
  11.9            2.4146e-010     -2.2406e-010   
  11.8            1.9954e-010     -2.0122e-010   
  11.7            1.6506e-010     -1.6508e-010   
  11.6            1.4388e-010     -1.408e-010    
  11.5            1.2404e-010     -1.243e-010    
  11.4            1.0774e-010     -1.158e-010    
  11.3            9.18e-011       -9.08e-011     
  11.2            8.238e-011      -8.354e-011    
  11.1            7.374e-011      -7.902e-011    
  11              6.422e-011      -5.808e-011    
  10.9            5.656e-011      -5.328e-011    
  10.8            5.15e-011       -5.76e-011     
  10.7            4.598e-011      -4.548e-011    
  10.6            4.088e-011      -3.828e-011    
  10.5            3.574e-011      -2.778e-011    
  10.4            3.264e-011      -3.814e-011    
  10.3            3e-011          -5.58e-011     
  10.2            2.726e-011      -2.062e-011    
  10.1            2.434e-011      -2.396e-011    
  10              2.146e-011      -1.768e-011    
  9.9             1.97e-011       -1.544e-011    
  9.8             1.846e-011      -2.238e-011    
  9.7             1.72e-011       -1.31e-011     
  9.6             1.528e-011      -7.82e-012     
  9.5             1.344e-011      -2.056e-011    
  9.4             1.272e-011      -2.61e-011     
  9.3             1.224e-011      -1.206e-011    
  9.2             1.106e-011      -1.194e-011    
  9.1             9.66e-012       -8.2e-012      
  9               8.64e-012       -1.01e-011     
  8.9             8.38e-012       -1.064e-011    
  8.8             8.36e-012       -9.24e-012     
  8.7             7.46e-012       -2.1e-012      
  8.6             6.48e-012       -8.96e-012     
  8.5             5.68e-012       -9.04e-012     
  8.4             5.76e-012       -1.336e-011    
  8.3             5.86e-012       -4.96e-012     
  8.2             5.16e-012       2.6e-012       
  8.1             4.3e-012        -1.038e-011    
  8               4.06e-012       -2.58e-012     
  7.9             4.22e-012       5.62e-012      
  7.8             4.24e-012       -3.16e-012     
  7.7             3.62e-012       -1.5e-012      
  7.6             2.64e-012       -5.42e-012     
  7.5             2.7e-012        -3.88e-012     
  7.4             3.12e-012       2.96e-012      
  7.3             3.2e-012        1.4e-012       
  7.2             2.44e-012       -8.74e-012     
  7.1             1.78e-012       -3.5e-012      
  7               2.08e-012       -2e-014        
  6.9             2.6e-012        6.7e-012       
  6.8             2.4e-012        2.1e-012       
  6.7             1.5e-012        -6.06e-012     
  6.6             1.1e-012        -7.64e-012     
  6.5             1.62e-012       7.66e-012      
  6.4             2.06e-012       -4.68e-012     
  6.3             1.7e-012        -1.1e-012      
  6.2             8.2e-013        -5.32e-012     
  6.1             7.8e-013        -1.128e-011    
  6               1.4e-012        1.498e-011     
  5.9             1.78e-012       6.4e-013       
  5.8             1.1e-012        -7.96e-012     
  5.7             4e-013          5.36e-012      
  5.6             5.8e-013        -1.74e-012     
  5.5             1.2e-012        2.5e-012       
  5.4             1.28e-012       -2.36e-012     
  5.3             6e-013          -5.78e-012     
  5.2             6e-014          7.66e-012      
  5.1             4.8e-013        7.12e-012      
  5               1.06e-012       4.94e-012      
  4.9             1.02e-012       -4.04e-012     
  4.8             2.8e-013        -1.88e-012     
  4.7             -1e-013         2.64e-012      
  4.6             4.8e-013        8.92e-012      
  4.5             1.04e-012       -2.14e-012     
  4.4             7.2e-013        -1.178e-011    
  4.3             0               4.72e-012      
  4.2             -2e-013         8.1e-012       
  4.1             5e-013          1.82e-012      
  4               9.4e-013        -7.4e-012      
  3.9             5.4e-013        4e-012         
  3.8             -5e-013         7.34e-012      
  3.7             -2e-013         -1.62e-012     
  3.6             5.4e-013        -1.184e-011    
  3.5             8.8e-013        -5.28e-012     
  3.4             3e-013          2.96e-012      
  3.3             -4.6e-013       1.54e-012      
  3.2             -1.4e-013       7.66e-012      
  3.1             6.6e-013        -5.48e-012     
  3               7e-013          2.74e-012      
  2.9             0               1.78e-012      
  2.8             -4.6e-013       1.016e-011     
  2.7             -2e-014         -1.76e-012     
  2.6             6.8e-013        -1.668e-011    
  2.5             5e-013          -1.84e-012     
  2.4             -2.2e-013       2.9e-012       
  2.3             -5.6e-013       -1.2e-012      
  2.2             6e-014          -9.4e-013      
  2.1             7e-013          -2.78e-012     
  2               3.4e-013        8.62e-012      
  1.9             -3.8e-013       1.478e-011     
  1.8             -5.6e-013       -5.54e-012     
  1.7             2.8e-013        1.38e-012      
  1.6             6.4e-013        3.9e-012       
  1.5             1.4e-013        -1e-013        
  1.4             -4.8e-013       1.7e-012       
  1.3             -4.6e-013       1.82e-012      
  1.2             3e-013          -2.92e-012     
  1.1             6.4e-013        1.438e-011     
  1               1e-013          2.352e-011     
  0.9             -5.2e-013       -6.2e-012      
  0.8             -3.2e-013       1.058e-011     
  0.7             4.6e-013        3.46e-012      
  0.6             5e-013          1.514e-011     
  0.5             -1.6e-013       3.2e-013       
  0.4             -6.2e-013       3.52e-012      
  0.3             -1.4e-013       8e-013         
  0.2             5.4e-013        1.446e-011     
  0.1             5e-013          1.966e-011     
  0               -2.6e-013       1.086e-011     
END_DB

