! VERSION = 6.00
BEGIN_HEADER
 ICCAP_INPUTS
  vc         V  cathode GROUND SMU1 0.1 CON        0
  va         V  anode GROUND SMU2 0.1 LIN        1    15         0          151  -0.1      
 ICCAP_OUTPUTS
  ia         I  anode GROUND SMU2 B
  ic         I  cathode GROUND SMU1 B
 ICCAP_VALUES
  DataOrigin "Measure"
  ___CONTEXT ""
  Date "Jan 11 Tue 12:50:25 2022"
  Version "WaferPro.2016.01"
  Bench "B1500_B2200"
  Temperature "-40"
  Lot "M135205"
  Reticle "M135205"
  Wafer "01D2"
  Die "X-3-Y0"
  DieList "TargetDie"
  Block "WholeDie"
  Subsite "diod1-5V"
  Routine "DIODE_EXTR_Measure"
  MeasCond "Set1"
  Device "6"
  DeviceName "ndiode_Dn5_A320B320"
  DevTechno "DIO"
  DevPolarity "N"
  Setup "iv_rev"
  Type "1"
  ___SPICE_INSTANCE ""
  A "3.2E-005"
  B "3.2E-005"
  ___TECHNO_INSTANCE ""
  ___CALIBRATION ""
END_HEADER

BEGIN_DB
 ICCAP_VAR vc         0              

 #va              ia              ic             
  15              0.041502        -0.041776      
  14.9            0.040124        -0.040176      
  14.8            0.03882         -0.03884       
  14.7            0.037532        -0.037538      
  14.6            0.036254        -0.036252      
  14.5            0.034954        -0.034946      
  14.4            0.03364         -0.03363       
  14.3            0.032316        -0.032306      
  14.2            0.030966        -0.030954      
  14.1            0.029598        -0.029584      
  14              0.028196        -0.028182      
  13.9            0.026772        -0.026756      
  13.8            0.02533         -0.025314      
  13.7            0.02385         -0.023834      
  13.6            0.022354        -0.022338      
  13.5            0.020816        -0.0208        
  13.4            0.019248        -0.01923       
  13.3            0.017658        -0.017642      
  13.2            0.016024        -0.016008      
  13.1            0.014368        -0.014352      
  13              0.012666        -0.01265       
  12.9            0.010924        -0.010908      
  12.8            0.0091564       -0.0091492     
  12.7            0.007342        -0.0073338     
  12.6            0.0054932       -0.0054854     
  12.5            0.003621        -0.0036134     
  12.4            0.0016976       -0.0016906     
  12.3            1.1812e-008     -1.2608e-008   
  12.2            5.3914e-009     -5.5916e-009   
  12.1            3.6308e-009     -3.6688e-009   
  12              2.668e-009      -2.686e-009    
  11.9            2.0618e-009     -2.0872e-009   
  11.8            1.6396e-009     -1.6386e-009   
  11.7            1.3306e-009     -1.3362e-009   
  11.6            1.097e-009      -1.0974e-009   
  11.5            9.1e-010        -9.162e-010    
  11.4            7.7108e-010     -7.7e-010      
  11.3            6.5674e-010     -6.538e-010    
  11.2            5.6028e-010     -5.7278e-010   
  11.1            4.8252e-010     -4.8362e-010   
  11              4.2134e-010     -4.2334e-010   
  10.9            3.6632e-010     -3.6664e-010   
  10.8            3.2176e-010     -3.244e-010    
  10.7            2.841e-010      -2.886e-010    
  10.6            2.5122e-010     -2.459e-010    
  10.5            2.2316e-010     -2.175e-010    
  10.4            1.9834e-010     -1.926e-010    
  10.3            1.756e-010      -1.8586e-010   
  10.2            1.563e-010      -1.6258e-010   
  10.1            1.3912e-010     -1.368e-010    
  10              1.2422e-010     -1.2346e-010   
  9.9             1.1072e-010     -1.1644e-010   
  9.8             9.94e-011       -6.778e-011    
  9.7             8.876e-011      -7.994e-011    
  9.6             8.008e-011      -7.652e-011    
  9.5             7.19e-011       -7.016e-011    
  9.4             6.482e-011      -6.726e-011    
  9.3             5.816e-011      -5.898e-011    
  9.2             5.186e-011      -4.64e-011     
  9.1             4.662e-011      -4.724e-011    
  9               4.188e-011      -5.486e-011    
  8.9             3.782e-011      -3.722e-011    
  8.8             3.388e-011      -2.99e-011     
  8.7             3.104e-011      -2.27e-011     
  8.6             2.768e-011      -2.884e-011    
  8.5             2.538e-011      -2.782e-011    
  8.4             2.272e-011      -1.242e-011    
  8.3             2.032e-011      -1.898e-011    
  8.2             1.854e-011      -1.462e-011    
  8.1             1.654e-011      -2.53e-011     
  8               1.492e-011      -1.356e-011    
  7.9             1.338e-011      -1.538e-011    
  7.8             1.22e-011       -7.28e-012     
  7.7             1.112e-011      -1.104e-011    
  7.6             1.016e-011      -9.42e-012     
  7.5             9.18e-012       -8.62e-012     
  7.4             7.98e-012       -6.34e-012     
  7.3             7.74e-012       4.3e-012       
  7.2             6.72e-012       -2.39e-011     
  7.1             6.22e-012       -1.164e-011    
  7               5.16e-012       -5.06e-012     
  6.9             4.62e-012       8.2e-012       
  6.8             4.48e-012       -5.42e-012     
  6.7             4.54e-012       -9.56e-012     
  6.6             3.84e-012       3.52e-012      
  6.5             3.52e-012       1.92e-012      
  6.4             3.3e-012        -6.1e-012      
  6.3             2.88e-012       -9.22e-012     
  6.2             2.92e-012       -3.3e-012      
  6.1             2.1e-012        -5.7e-012      
  6               1.98e-012       -1.56e-012     
  5.9             1.42e-012       8.84e-012      
  5.8             1.84e-012       -8.8e-012      
  5.7             1.7e-012        -3.24e-012     
  5.6             1.86e-012       9.9e-012       
  5.5             1.6e-012        7.4e-013       
  5.4             1.18e-012       6e-014         
  5.3             1.6e-012        -4.22e-012     
  5.2             8.6e-013        -1.56e-012     
  5.1             1.24e-012       5.96e-012      
  5               4.4e-013        -8.6e-013      
  4.9             8.4e-013        -7.1e-012      
  4.8             6e-013          -3.6e-013      
  4.7             1.06e-012       1.074e-011     
  4.6             7.2e-013        5.22e-012      
  4.5             6.2e-013        -7.74e-012     
  4.4             8.8e-013        -3.1e-012      
  4.3             2.8e-013        1.9e-012       
  4.2             7e-013          2.08e-012      
  4.1             4e-014          -5.72e-012     
  4               4.2e-013        -2.86e-012     
  3.9             6e-014          -5.58e-012     
  3.8             5.2e-013        2.2e-012       
  3.7             1.6e-013        6.36e-012      
  3.6             6.6e-013        -2.72e-012     
  3.5             6.6e-013        7.4e-013       
  3.4             5.6e-013        6.94e-012      
  3.3             5.8e-013        -5.3e-012      
  3.2             -3.4e-013       1.62e-012      
  3.1             2.2e-013        -3.68e-012     
  3               -3e-013         -3.238e-011    
  2.9             5.6e-013        1.876e-011     
  2.8             1.4e-013        -2.4e-013      
  2.7             4.8e-013        -2.04e-012     
  2.6             1.2e-013        -3.72e-012     
  2.5             3.6e-013        4.38e-012      
  2.4             5.6e-013        -3.06e-012     
  2.3             -1.2e-013       5.94e-012      
  2.2             2.6e-013        -5.92e-012     
  2.1             -5.6e-013       -7.14e-012     
  2               4.8e-013        1.394e-011     
  1.9             -2.8e-013       5.58e-012      
  1.8             3.8e-013        6.9e-012       
  1.7             -1.8e-013       -2.68e-012     
  1.6             4.6e-013        4.82e-012      
  1.5             6.2e-013        2.272e-011     
  1.4             1e-013          -8.38e-012     
  1.3             4.8e-013        -1.258e-011    
  1.2             -8e-013         -2.6e-013      
  1.1             2.6e-013        1.306e-011     
  1               -5.4e-013       -2.24e-012     
  0.9             3e-013          -1.32e-012     
  0.8             0               9.74e-012      
  0.7             4e-013          1.386e-011     
  0.6             4.4e-013        -6.32e-012     
  0.5             2.6e-013        3.06e-012      
  0.4             4.8e-013        1.244e-011     
  0.3             -2.4e-013       -9.64e-012     
  0.2             3.2e-013        2.94e-012      
  0.1             -7e-013         1.022e-011     
  0               2.2e-013        9.26e-012      
END_DB

