! VERSION = 6.00
BEGIN_HEADER
 ICCAP_INPUTS
  vc         V  cathode GROUND SMU1 0.1 CON        0
  va         V  anode GROUND SMU2 0.1 LIN        1    15         0          151  -0.1      
 ICCAP_OUTPUTS
  ia         I  anode GROUND SMU2 B
  ic         I  cathode GROUND SMU1 B
 ICCAP_VALUES
  DataOrigin "Measure"
  ___CONTEXT ""
  Date "Jan 11 Tue 12:52:19 2022"
  Version "WaferPro.2016.01"
  Bench "B1500_B2200"
  Temperature "-40"
  Lot "M135205"
  Reticle "M135205"
  Wafer "01D2"
  Die "X-3-Y0"
  DieList "TargetDie"
  Block "WholeDie"
  Subsite "diod1-5V"
  Routine "DIODE_EXTR_Measure"
  MeasCond "Set1"
  Device "7"
  DeviceName "ndiode_Dn5_A032B640"
  DevTechno "DIO"
  DevPolarity "N"
  Setup "iv_rev"
  Type "1"
  ___SPICE_INSTANCE ""
  A "3.2E-007"
  B "6.4E-005"
  ___TECHNO_INSTANCE ""
  ___CALIBRATION ""
END_HEADER

BEGIN_DB
 ICCAP_VAR vc         0              

 #va              ia              ic             
  15              0.015474        -0.016032      
  14.9            0.014482        -0.014654      
  14.8            0.013692        -0.01379       
  14.7            0.01298         -0.01304       
  14.6            0.012294        -0.012344      
  14.5            0.011632        -0.01167       
  14.4            0.010976        -0.011008      
  14.3            0.010322        -0.010354      
  14.2            0.0096516       -0.0096862     
  14.1            0.0090112       -0.0090326     
  14              0.0083582       -0.0083794     
  13.9            0.007709        -0.0077264     
  13.8            0.007065        -0.0070792     
  13.7            0.0064048       -0.0064198     
  13.6            0.005748        -0.0057616     
  13.5            0.0050844       -0.005093      
  13.4            0.004414        -0.0044234     
  13.3            0.0037422       -0.0037518     
  13.2            0.0030522       -0.0030656     
  13.1            0.0023616       -0.002372      
  13              0.0016506       -0.00166       
  12.9            0.00088726      -0.00090342    
  12.8            7.5636e-005     -8.512e-005    
  12.7            3.2126e-007     -3.6586e-007   
  12.6            5.4546e-008     -5.8916e-008   
  12.5            2.4184e-008     -2.4882e-008   
  12.4            1.432e-008      -1.461e-008    
  12.3            9.56e-009       -9.884e-009    
  12.2            6.7068e-009     -6.896e-009    
  12.1            5.1332e-009     -5.1756e-009   
  12              4.0142e-009     -4.0502e-009   
  11.9            3.2498e-009     -3.2802e-009   
  11.8            2.6832e-009     -2.6924e-009   
  11.7            2.253e-009      -2.2596e-009   
  11.6            1.9114e-009     -1.9126e-009   
  11.5            1.6408e-009     -1.6328e-009   
  11.4            1.4192e-009     -1.4202e-009   
  11.3            1.2354e-009     -1.2326e-009   
  11.2            1.0842e-009     -1.0744e-009   
  11.1            9.4878e-010     -9.502e-010    
  11              8.4032e-010     -8.426e-010    
  10.9            7.471e-010      -7.348e-010    
  10.8            6.665e-010      -6.572e-010    
  10.7            5.9314e-010     -5.746e-010    
  10.6            5.3142e-010     -5.305e-010    
  10.5            4.8066e-010     -4.8668e-010   
  10.4            4.3386e-010     -4.2628e-010   
  10.3            3.9466e-010     -3.8578e-010   
  10.2            3.5708e-010     -3.471e-010    
  10.1            3.2564e-010     -3.2998e-010   
  10              2.9866e-010     -2.9154e-010   
  9.9             2.7326e-010     -2.5504e-010   
  9.8             2.4986e-010     -2.516e-010    
  9.7             2.2922e-010     -2.2804e-010   
  9.6             2.1036e-010     -2.0864e-010   
  9.5             1.9318e-010     -1.8754e-010   
  9.4             1.773e-010      -1.7082e-010   
  9.3             1.6364e-010     -1.4866e-010   
  9.2             1.5018e-010     -1.4772e-010   
  9.1             1.3924e-010     -1.321e-010    
  9               1.2846e-010     -1.165e-010    
  8.9             1.195e-010      -1.127e-010    
  8.8             1.1038e-010     -1.135e-010    
  8.7             1.0208e-010     -8.774e-011    
  8.6             9.44e-011       -8.704e-011    
  8.5             8.782e-011      -7.818e-011    
  8.4             8.238e-011      -5.808e-011    
  8.3             7.566e-011      -7.064e-011    
  8.2             7.036e-011      -6.734e-011    
  8.1             6.572e-011      -6.274e-011    
  8               6.172e-011      -4.236e-011    
  7.9             5.728e-011      -5.278e-011    
  7.8             5.342e-011      -5.266e-011    
  7.7             4.932e-011      -5.686e-011    
  7.6             4.638e-011      -3.342e-011    
  7.5             4.34e-011       -3.518e-011    
  7.4             4.048e-011      -3.72e-011     
  7.3             3.774e-011      -2.97e-011     
  7.2             3.504e-011      -2.682e-011    
  7.1             3.346e-011      -1.982e-011    
  7               3.134e-011      -3.648e-011    
  6.9             2.92e-011       -2.656e-011    
  6.8             2.708e-011      -2.746e-011    
  6.7             2.526e-011      -2.02e-011     
  6.6             2.402e-011      -1.416e-011    
  6.5             2.258e-011      -2.48e-011     
  6.4             2.106e-011      -1.708e-011    
  6.3             1.94e-011       -9.7e-012      
  6.2             1.862e-011      -5.26e-012     
  6.1             1.75e-011       -1.2e-011      
  6               1.672e-011      -1.654e-011    
  5.9             1.51e-011       -1.438e-011    
  5.8             1.408e-011      -1.84e-012     
  5.7             1.338e-011      -1.778e-011    
  5.6             1.266e-011      -1.688e-011    
  5.5             1.202e-011      -4.02e-012     
  5.4             1.086e-011      -3.68e-012     
  5.3             1.034e-011      3.32e-012      
  5.2             9.8e-012        -4.46e-012     
  5.1             9.74e-012       -4.6e-012      
  5               8.64e-012       2.5e-012       
  4.9             7.86e-012       4.9e-012       
  4.8             7.4e-012        -1.37e-011     
  4.7             7.02e-012       -1.96e-012     
  4.6             6.98e-012       -1.34e-011     
  4.5             6.18e-012       4.28e-012      
  4.4             5.62e-012       7.16e-012      
  4.3             5.3e-012        -6.26e-012     
  4.2             5.58e-012       6.46e-012      
  4.1             5.14e-012       8.56e-012      
  4               4.7e-012        2.46e-012      
  3.9             3.92e-012       1e-013         
  3.8             3.74e-012       -8.68e-012     
  3.7             3.94e-012       -4e-012        
  3.6             3.64e-012       1.2e-011       
  3.5             3.3e-012        8.44e-012      
  3.4             2.8e-012        -4.5e-012      
  3.3             2.94e-012       3.26e-012      
  3.2             3e-012          9.9e-012       
  3.1             2.78e-012       1.036e-011     
  3               2.16e-012       -1.98e-012     
  2.9             1.74e-012       -8.44e-012     
  2.8             2.02e-012       4.98e-012      
  2.7             1.78e-012       1.072e-011     
  2.6             1.86e-012       6.02e-012      
  2.5             1.28e-012       1.192e-011     
  2.4             1.16e-012       4.72e-012      
  2.3             1.58e-012       7.28e-012      
  2.2             1.54e-012       2.246e-011     
  2.1             1.26e-012       3.34e-012      
  2               7.6e-013        1.54e-012      
  1.9             7.4e-013        6.86e-012      
  1.8             9e-013          1.794e-011     
  1.7             8.6e-013        1.27e-011      
  1.6             4e-013          3.8e-012       
  1.5             2.6e-013        8.6e-012       
  1.4             5e-013          2.242e-011     
  1.3             7.6e-013        1.722e-011     
  1.2             7e-013          7.06e-012      
  1.1             3.4e-013        1.552e-011     
  1               1e-013          1.78e-012      
  0.9             1e-013          1.634e-011     
  0.8             4.6e-013        1.814e-011     
  0.7             -2e-014         5.7e-012       
  0.6             2e-014          1.14e-011      
  0.5             8e-014          2.186e-011     
  0.4             2e-013          3.304e-011     
  0.3             8.2e-013        1.65e-011      
  0.2             0               4.28e-012      
  0.1             -2e-014         1.762e-011     
  0               -4e-013         2.374e-011     
END_DB

