! VERSION = 6.00
BEGIN_HEADER
 ICCAP_INPUTS
  vc         V  cathode GROUND SMU1 0.1 CON        0
  va         V  anode GROUND SMU2 0.1 LIN        1    15         0          151  -0.1      
 ICCAP_OUTPUTS
  ia         I  anode GROUND SMU2 B
  ic         I  cathode GROUND SMU1 B
 ICCAP_VALUES
  DataOrigin "Measure"
  ___CONTEXT ""
  Date "Jan 11 Tue 12:54:14 2022"
  Version "WaferPro.2016.01"
  Bench "B1500_B2200"
  Temperature "-40"
  Lot "M135205"
  Reticle "M135205"
  Wafer "01D2"
  Die "X-3-Y0"
  DieList "TargetDie"
  Block "WholeDie"
  Subsite "diod1-5V"
  Routine "DIODE_EXTR_Measure"
  MeasCond "Set1"
  Device "8"
  DeviceName "ndiode_Dn5_A064B640"
  DevTechno "DIO"
  DevPolarity "N"
  Setup "iv_rev"
  Type "1"
  ___SPICE_INSTANCE ""
  A "6.4E-007"
  B "6.4E-005"
  ___TECHNO_INSTANCE ""
  ___CALIBRATION ""
END_HEADER

BEGIN_DB
 ICCAP_VAR vc         0              

 #va              ia              ic             
  15              0.019668        -0.020142      
  14.9            0.018656        -0.018792      
  14.8            0.017814        -0.017886      
  14.7            0.017024        -0.017076      
  14.6            0.016268        -0.016302      
  14.5            0.015514        -0.01554       
  14.4            0.014766        -0.014784      
  14.3            0.01402         -0.014036      
  14.2            0.01327         -0.01328       
  14.1            0.012516        -0.012526      
  14              0.011754        -0.011756      
  13.9            0.010982        -0.010984      
  13.8            0.01021         -0.010212      
  13.7            0.0094078       -0.009415      
  13.6            0.0086202       -0.0086272     
  13.5            0.0078136       -0.0078186     
  13.4            0.0069964       -0.0069996     
  13.3            0.006178        -0.0061794     
  13.2            0.0053454       -0.0053466     
  13.1            0.0045024       -0.0045044     
  13              0.0036438       -0.003644      
  12.9            0.0027674       -0.0027698     
  12.8            0.001885        -0.0018852     
  12.7            0.00092384      -0.00092984    
  12.6            4.7674e-006     -5.1834e-006   
  12.5            7.0336e-008     -7.7678e-008   
  12.4            2.1954e-008     -2.2776e-008   
  12.3            1.1904e-008     -1.2212e-008   
  12.2            7.4198e-009     -7.7302e-009   
  12.1            5.3292e-009     -5.385e-009    
  12              4.0528e-009     -4.103e-009    
  11.9            3.1884e-009     -3.2218e-009   
  11.8            2.5694e-009     -2.589e-009    
  11.7            2.1176e-009     -2.1278e-009   
  11.6            1.769e-009      -1.7872e-009   
  11.5            1.503e-009      -1.5098e-009   
  11.4            1.2922e-009     -1.2812e-009   
  11.3            1.116e-009      -1.1246e-009   
  11.2            9.69e-010       -9.698e-010    
  11.1            8.4288e-010     -8.336e-010    
  11              7.411e-010      -7.35e-010     
  10.9            6.5648e-010     -6.582e-010    
  10.8            5.8364e-010     -5.742e-010    
  10.7            5.2044e-010     -5.3004e-010   
  10.6            4.661e-010      -4.678e-010    
  10.5            4.1816e-010     -4.0764e-010   
  10.4            3.7726e-010     -3.7064e-010   
  10.3            3.414e-010      -3.381e-010    
  10.2            3.0862e-010     -3.126e-010    
  10.1            2.7924e-010     -2.8396e-010   
  10              2.5412e-010     -2.5278e-010   
  9.9             2.2982e-010     -2.2062e-010   
  9.8             2.0776e-010     -2.0352e-010   
  9.7             1.882e-010      -1.8556e-010   
  9.6             1.7134e-010     -1.8036e-010   
  9.5             1.571e-010      -1.5872e-010   
  9.4             1.4326e-010     -1.489e-010    
  9.3             1.3182e-010     -1.2068e-010   
  9.2             1.2146e-010     -1.314e-010    
  9.1             1.1146e-010     -1.0824e-010   
  9               1.0232e-010     -9.342e-011    
  8.9             9.394e-011      -9.82e-011     
  8.8             8.662e-011      -9.806e-011    
  8.7             8.026e-011      -8.152e-011    
  8.6             7.416e-011      -7.042e-011    
  8.5             6.844e-011      -5.594e-011    
  8.4             6.358e-011      -6.746e-011    
  8.3             5.896e-011      -5.112e-011    
  8.2             5.486e-011      -4.804e-011    
  8.1             5.082e-011      -3.69e-011     
  8               4.656e-011      -5.104e-011    
  7.9             4.356e-011      -3.974e-011    
  7.8             4.044e-011      -3.756e-011    
  7.7             3.776e-011      -3.226e-011    
  7.6             3.552e-011      -2.174e-011    
  7.5             3.29e-011       -2.772e-011    
  7.4             2.994e-011      -1.604e-011    
  7.3             2.81e-011       -2.552e-011    
  7.2             2.64e-011       -2.566e-011    
  7.1             2.46e-011       -1.858e-011    
  7               2.25e-011       -5.34e-012     
  6.9             2.092e-011      -3.198e-011    
  6.8             1.512e-011      -1.454e-011    
  6.7             1.784e-011      -2.016e-011    
  6.6             1.686e-011      -1.604e-011    
  6.5             1.614e-011      -2.828e-011    
  6.4             1.512e-011      -9.18e-012     
  6.3             1.356e-011      -1.152e-011    
  6.2             1.276e-011      -8.36e-012     
  6.1             1.23e-011       -2.388e-011    
  6               1.16e-011       -9.54e-012     
  5.9             1.03e-011       -1.782e-011    
  5.8             1.004e-011      -1.38e-011     
  5.7             9.44e-012       -4.84e-012     
  5.6             8.72e-012       -4.46e-012     
  5.5             7.66e-012       -2.54e-012     
  5.4             7.64e-012       -1.14e-011     
  5.3             5.86e-012       -8.38e-012     
  5.2             6.28e-012       -1.158e-011    
  5.1             5.98e-012       -1.338e-011    
  5               5.84e-012       -6.32e-012     
  4.9             4.88e-012       -2.7e-012      
  4.8             5.04e-012       2.7e-012       
  4.7             4.68e-012       -7.44e-012     
  4.6             4.32e-012       9.84e-012      
  4.5             3.6e-012        -1.062e-011    
  4.4             3.68e-012       -7.2e-012      
  4.3             3.58e-012       7.2e-013       
  4.2             3.22e-012       3.6e-013       
  4.1             2.78e-012       4.46e-012      
  4               3.32e-012       -4.78e-012     
  3.9             2.58e-012       -4.14e-012     
  3.8             1.62e-012       8.46e-012      
  3.7             1.86e-012       2.02e-012      
  3.6             2.28e-012       -7.64e-012     
  3.5             1.8e-012        8.96e-012      
  3.4             2.84e-012       3.56e-012      
  3.3             1.32e-012       4.2e-013       
  3.2             1.72e-012       -2.42e-012     
  3.1             1.3e-012        -1.12e-012     
  3               6.8e-013        3.78e-012      
  2.9             1.06e-012       -2.2e-012      
  2.8             1.28e-012       -1.18e-012     
  2.7             9e-013          2.09e-011      
  2.6             2.6e-013        8.88e-012      
  2.5             7.4e-013        -9.4e-012      
  2.4             9.6e-013        5.1e-012       
  2.3             3e-013          -1.42e-012     
  2.2             -4e-014         -4.4e-013      
  2.1             3.8e-013        2.3e-012       
  2               4.6e-013        1.096e-011     
  1.9             7.8e-013        8.06e-012      
  1.8             0               -8.5e-012      
  1.7             -8e-014         -5.34e-012     
  1.6             -4e-014         6.48e-012      
  1.5             0               8.9e-012       
  1.4             -1.6e-013       1.74e-012      
  1.3             4.2e-013        1.646e-011     
  1.2             -7.8e-013       1.616e-011     
  1.1             -6e-014         6.48e-012      
  1               -8e-014         -8.2e-013      
  0.9             -4.8e-013       1.286e-011     
  0.8             -8.6e-013       1.432e-011     
  0.7             1.4e-013        3.92e-012      
  0.6             -2.6e-013       1.314e-011     
  0.5             -7.6e-013       2.024e-011     
  0.4             -1.4e-012       4.06e-012      
  0.3             -3.6e-013       9.94e-012      
  0.2             8e-014          1.484e-011     
  0.1             -1.18e-012      1.664e-011     
  0               -9.4e-013       1.804e-011     
END_DB

