! VERSION = 6.00
BEGIN_HEADER
 ICCAP_INPUTS
  vc         V  cathode GROUND SMU1 0.1 CON        0
  va         V  anode GROUND SMU2 0.1 LIN        1    15         0          151  -0.1      
 ICCAP_OUTPUTS
  ia         I  anode GROUND SMU2 B
  ic         I  cathode GROUND SMU1 B
 ICCAP_VALUES
  DataOrigin "Measure"
  ___CONTEXT ""
  Date "Jan 11 Tue 12:48:29 2022"
  Version "WaferPro.2016.01"
  Bench "B1500_B2200"
  Temperature "-40"
  Lot "M135205"
  Reticle "M135205"
  Wafer "01D2"
  Die "X-3-Y0"
  DieList "TargetDie"
  Block "WholeDie"
  Subsite "diod1-5V"
  Routine "DIODE_EXTR_Measure"
  MeasCond "Set1"
  Device "5"
  DeviceName "ndiode_Dn5_A32B320"
  DevTechno "DIO"
  DevPolarity "N"
  Setup "iv_rev"
  Type "1"
  ___SPICE_INSTANCE ""
  A "3.2E-006"
  B "3.2E-005"
  ___TECHNO_INSTANCE ""
  ___CALIBRATION ""
END_HEADER

BEGIN_DB
 ICCAP_VAR vc         0              

 #va              ia              ic             
  15              0.016914        -0.017066      
  14.9            0.016292        -0.016326      
  14.8            0.015714        -0.015728      
  14.7            0.015148        -0.015154      
  14.6            0.014586        -0.014588      
  14.5            0.01402         -0.014018      
  14.4            0.013446        -0.013444      
  14.3            0.012872        -0.012866      
  14.2            0.012286        -0.01228       
  14.1            0.011692        -0.011684      
  14              0.011084        -0.011078      
  13.9            0.010466        -0.010458      
  13.8            0.0098352       -0.0098348     
  13.7            0.0091954       -0.0091946     
  13.6            0.0085504       -0.0085494     
  13.5            0.00789         -0.0078882     
  13.4            0.0072188       -0.0072162     
  13.3            0.0065396       -0.006538      
  13.2            0.0058456       -0.0058434     
  13.1            0.0051464       -0.0051442     
  13              0.004433        -0.0044306     
  12.9            0.0037096       -0.003708      
  12.8            0.0029862       -0.0029838     
  12.7            0.0022528       -0.0022508     
  12.6            0.0015204       -0.0015184     
  12.5            0.00079728      -0.00079638    
  12.4            9.784e-008      -1.1158e-007   
  12.3            4.6672e-009     -4.9416e-009   
  12.2            2.9356e-009     -2.9784e-009   
  12.1            2.1288e-009     -2.1658e-009   
  12              1.6264e-009     -1.6366e-009   
  11.9            1.2866e-009     -1.3068e-009   
  11.8            1.0466e-009     -1.0442e-009   
  11.7            8.5524e-010     -8.736e-010    
  11.6            7.1632e-010     -7.14e-010     
  11.5            6.0622e-010     -6.034e-010    
  11.4            5.1086e-010     -5.1612e-010   
  11.3            4.4258e-010     -4.3748e-010   
  11.2            3.8256e-010     -3.7614e-010   
  11.1            3.335e-010      -3.3256e-010   
  11              2.92e-010       -2.9546e-010   
  10.9            2.5734e-010     -2.5264e-010   
  10.8            2.274e-010      -2.2034e-010   
  10.7            1.996e-010      -2.0348e-010   
  10.6            1.7714e-010     -1.8738e-010   
  10.5            1.5802e-010     -1.6388e-010   
  10.4            1.419e-010      -1.445e-010    
  10.3            1.2658e-010     -1.193e-010    
  10.2            1.1296e-010     -1.0734e-010   
  10.1            1.013e-010      -1.1178e-010   
  10              9.142e-011      -8.464e-011    
  9.9             8.256e-011      -7.316e-011    
  9.8             7.426e-011      -6.734e-011    
  9.7             6.67e-011       -7.23e-011     
  9.6             6.01e-011       -6.336e-011    
  9.5             5.488e-011      -5.136e-011    
  9.4             4.964e-011      -4.332e-011    
  9.3             4.484e-011      -4.222e-011    
  9.2             4.026e-011      -4.454e-011    
  9.1             3.684e-011      -2.458e-011    
  9               3.38e-011       -2.638e-011    
  8.9             3.064e-011      -2.504e-011    
  8.8             2.738e-011      -2.682e-011    
  8.7             2.494e-011      -1.438e-011    
  8.6             2.304e-011      -1.998e-011    
  8.5             2.122e-011      -1.61e-011     
  8.4             1.91e-011       -9.72e-012     
  8.3             1.706e-011      -1.698e-011    
  8.2             1.576e-011      -1.792e-011    
  8.1             1.466e-011      3.98e-012      
  8               1.376e-011      9.92e-012      
  7.9             1.208e-011      -1.698e-011    
  7.8             1.072e-011      -1.478e-011    
  7.7             1.004e-011      -2.44e-012     
  7.6             9.4e-012        -5.56e-012     
  7.5             8.76e-012       -1.044e-011    
  7.4             7.5e-012        -7.94e-012     
  7.3             6.84e-012       -3.7e-012      
  7.2             6.52e-012       2.36e-012      
  7.1             6.32e-012       1.188e-011     
  7               5.86e-012       1.26e-012      
  6.9             4.8e-012        -8.14e-012     
  6.8             4.42e-012       -3.34e-012     
  6.7             4.1e-012        1.524e-011     
  6.6             4.24e-012       -3.88e-012     
  6.5             3.62e-012       -8.04e-012     
  6.4             3.12e-012       1.41e-011      
  6.3             2.86e-012       2.54e-012      
  6.2             2.92e-012       1.94e-012      
  6.1             3.02e-012       4.62e-012      
  6               2.64e-012       9.3e-012       
  5.9             2.06e-012       4.28e-012      
  5.8             1.82e-012       6.1e-012       
  5.7             1.96e-012       -1.6e-012      
  5.6             1.78e-012       -4e-012        
  5.5             1.56e-012       -4.6e-013      
  5.4             1.16e-012       7.34e-012      
  5.3             1.26e-012       1.446e-011     
  5.2             1.66e-012       1.1e-012       
  5.1             1.36e-012       6.3e-012       
  5               1.14e-012       1.35e-011      
  4.9             8e-013          -6.18e-012     
  4.8             9.2e-013        5.22e-012      
  4.7             8.8e-013        4.76e-012      
  4.6             7.8e-013        6.64e-012      
  4.5             5.6e-013        9.12e-012      
  4.4             6e-013          9.34e-012      
  4.3             7.6e-013        2.48e-012      
  4.2             8.4e-013        2.58e-012      
  4.1             7.6e-013        1.492e-011     
  4               4e-013          9.12e-012      
  3.9             4e-013          6.42e-012      
  3.8             3.8e-013        -4.94e-012     
  3.7             4.2e-013        8.84e-012      
  3.6             2e-014          1.028e-011     
  3.5             1.4e-013        -4.14e-012     
  3.4             1.6e-013        1.326e-011     
  3.3             4.6e-013        -2.4e-012      
  3.2             6e-013          1.046e-011     
  3.1             1.6e-013        1.48e-011      
  3               1.4e-013        1.28e-011      
  2.9             8e-014          -1.12e-012     
  2.8             3.6e-013        8.58e-012      
  2.7             4e-014          7.88e-012      
  2.6             -1.6e-013       1.334e-011     
  2.5             -1.4e-013       4.76e-012      
  2.4             1.2e-013        4.5e-012       
  2.3             6e-013          2.934e-011     
  2.2             4.4e-013        -1.4e-013      
  2.1             6e-014          2.16e-012      
  2               -8e-014         5.98e-012      
  1.9             2e-014          1.494e-011     
  1.8             4e-014          6.4e-012       
  1.7             -2e-014         1.79e-011      
  1.6             -3e-013         1.13e-011      
  1.5             -1.2e-013       1.84e-012      
  1.4             2e-014          2.03e-011      
  1.3             6e-014          2.104e-011     
  1.2             3e-013          2.046e-011     
  1.1             -1.6e-013       3.34e-012      
  1               1.4e-013        1.094e-011     
  0.9             -1.4e-013       1.898e-011     
  0.8             1.6e-013        1.86e-012      
  0.7             -2.2e-013       1.146e-011     
  0.6             -2.2e-013       1.302e-011     
  0.5             -1.4e-013       2.302e-011     
  0.4             -4e-014         2.888e-011     
  0.3             3.8e-013        2.408e-011     
  0.2             -8e-014         9.48e-012      
  0.1             3.6e-013        2.484e-011     
  0               -3e-013         2.88e-011      
END_DB

