! VERSION = 6.00
BEGIN_HEADER
 ICCAP_INPUTS
  vc         V  cathode GROUND SMU1 0.1 CON        0
  va         V  anode GROUND SMU2 0.1 LIN        1    15         0          151  -0.1      
 ICCAP_OUTPUTS
  ia         I  anode GROUND SMU2 B
  ic         I  cathode GROUND SMU1 B
 ICCAP_VALUES
  DataOrigin "Measure"
  ___CONTEXT ""
  Date "Jan 11 Tue 12:46:31 2022"
  Version "WaferPro.2016.01"
  Bench "B1500_B2200"
  Temperature "-40"
  Lot "M135205"
  Reticle "M135205"
  Wafer "01D2"
  Die "X-3-Y0"
  DieList "TargetDie"
  Block "WholeDie"
  Subsite "diod1-5V"
  Routine "DIODE_EXTR_Measure"
  MeasCond "Set1"
  Device "4"
  DeviceName "ndiode_Dn5_A32B32"
  DevTechno "DIO"
  DevPolarity "N"
  Setup "iv_rev"
  Type "1"
  ___SPICE_INSTANCE ""
  A "3.2E-006"
  B "3.2E-006"
  ___TECHNO_INSTANCE ""
  ___CALIBRATION ""
END_HEADER

BEGIN_DB
 ICCAP_VAR vc         0              

 #va              ia              ic             
  15              0.0031276       -0.0031604     
  14.9            0.0030012       -0.0030092     
  14.8            0.0028826       -0.0028872     
  14.7            0.0027666       -0.00277       
  14.6            0.0026536       -0.0026562     
  14.5            0.0025402       -0.0025422     
  14.4            0.0024262       -0.0024274     
  14.3            0.0023122       -0.002313      
  14.2            0.0021962       -0.0021954     
  14.1            0.0020806       -0.00208       
  14              0.001964        -0.001963      
  13.9            0.0018448       -0.0018444     
  13.8            0.001725        -0.001725      
  13.7            0.0016038       -0.001603      
  13.6            0.0014814       -0.0014816     
  13.5            0.0013568       -0.0013558     
  13.4            0.0012314       -0.00123       
  13.3            0.0011054       -0.001105      
  13.2            0.00097628      -0.0009764     
  13.1            0.00084832      -0.00084818    
  13              0.00071856      -0.00071866    
  12.9            0.00058872      -0.00058882    
  12.8            0.00046026      -0.00046008    
  12.7            0.00033186      -0.00033208    
  12.6            0.00020652      -0.00020632    
  12.5            8.1596e-005     -8.2216e-005   
  12.4            4.4372e-009     -4.9812e-009   
  12.3            1.558e-009      -1.585e-009    
  12.2            9.5958e-010     -1.0032e-009   
  12.1            6.9188e-010     -6.99e-010     
  12              5.2648e-010     -5.294e-010    
  11.9            4.0358e-010     -4.1348e-010   
  11.8            3.2796e-010     -3.501e-010    
  11.7            2.6914e-010     -2.6222e-010   
  11.6            2.2606e-010     -2.2082e-010   
  11.5            1.9444e-010     -1.9746e-010   
  11.4            1.6466e-010     -1.6498e-010   
  11.3            1.4132e-010     -1.4008e-010   
  11.2            1.2142e-010     -1.2722e-010   
  11.1            1.0624e-010     -9.992e-011    
  11              9.302e-011      -8.436e-011    
  10.9            8.126e-011      -9.972e-011    
  10.8            7.288e-011      -7.604e-011    
  10.7            6.446e-011      -5.762e-011    
  10.6            5.734e-011      -5.798e-011    
  10.5            5.132e-011      -4.932e-011    
  10.4            4.56e-011       -4.304e-011    
  10.3            4.118e-011      -2.856e-011    
  10.2            3.728e-011      -3.318e-011    
  10.1            3.34e-011       -4.404e-011    
  10              3.016e-011      -3.228e-011    
  9.9             2.704e-011      -3.362e-011    
  9.8             2.48e-011       -1.182e-011    
  9.7             2.244e-011      -2.664e-011    
  9.6             2.056e-011      -2.166e-011    
  9.5             1.826e-011      -1.894e-011    
  9.4             1.69e-011       6.24e-012      
  9.3             1.558e-011      -1.826e-011    
  9.2             1.452e-011      -6.78e-012     
  9.1             1.304e-011      -1.726e-011    
  9               1.154e-011      -1.5e-011      
  8.9             1.076e-011      9.2e-013       
  8.8             9.92e-012       -1.22e-011     
  8.7             9.14e-012       -1.676e-011    
  8.6             8.02e-012       -5.54e-012     
  8.5             7.62e-012       1.32e-012      
  8.4             6.88e-012       -8.04e-012     
  8.3             6.7e-012        -1.24e-012     
  8.2             6.04e-012       -2.356e-011    
  8.1             5.28e-012       -2.54e-012     
  8               5.02e-012       -4.66e-012     
  7.9             4.5e-012        -1.042e-011    
  7.8             4.44e-012       -9.4e-012      
  7.7             3.76e-012       -4.46e-012     
  7.6             3.6e-012        7.12e-012      
  7.5             3.3e-012        4.4e-012       
  7.4             3.48e-012       -6.96e-012     
  7.3             2.98e-012       -8e-013        
  7.2             2.76e-012       2.36e-012      
  7.1             2.6e-012        -9.24e-012     
  7               2.22e-012       -4.02e-012     
  6.9             2.42e-012       -2.16e-012     
  6.8             1.8e-012        -1.62e-011     
  6.7             1.74e-012       4.78e-012      
  6.6             1.46e-012       1.22e-012      
  6.5             1.86e-012       3.56e-012      
  6.4             1.68e-012       -8.3e-012      
  6.3             1.46e-012       -5.08e-012     
  6.2             1.26e-012       2.52e-012      
  6.1             1.02e-012       2.52e-012      
  6               1.42e-012       -1.714e-011    
  5.9             9.6e-013        -3.68e-012     
  5.8             8.4e-013        5.14e-012      
  5.7             6.6e-013        -4.28e-012     
  5.6             8.8e-013        2.6e-012       
  5.5             8.8e-013        -5.96e-012     
  5.4             9.4e-013        1.6e-012       
  5.3             6e-013          -4.7e-012      
  5.2             5e-013          6.44e-012      
  5.1             7.4e-013        -7.24e-012     
  5               5.8e-013        2.56e-012      
  4.9             5.2e-013        -4.98e-012     
  4.8             6e-014          5e-012         
  4.7             3.8e-013        3.34e-012      
  4.6             2.8e-013        -1.154e-011    
  4.5             6.4e-013        4.78e-012      
  4.4             3.8e-013        6.8e-012       
  4.3             3.6e-013        4.44e-012      
  4.2             3e-013          -6.96e-012     
  4.1             3.6e-013        -2.28e-012     
  4               4.8e-013        -3.42e-012     
  3.9             4e-014          1.026e-011     
  3.8             2e-014          -8.62e-012     
  3.7             -1e-013         -2.1e-012      
  3.6             4e-013          7.98e-012      
  3.5             3.2e-013        5.96e-012      
  3.4             3.8e-013        5.74e-012      
  3.3             1.2e-013        -3.7e-012      
  3.2             2.4e-013        1.8e-013       
  3.1             3e-013          6e-014         
  3               4e-014          2.72e-012      
  2.9             0               -7.54e-012     
  2.8             -1.6e-013       -1.72e-012     
  2.7             3e-013          3.16e-012      
  2.6             -1e-013         9.86e-012      
  2.5             3e-013          4.4e-012       
  2.4             0               -8.8e-013      
  2.3             2.4e-013        9.48e-012      
  2.2             3.4e-013        5.84e-012      
  2.1             4e-014          8.6e-013       
  2               8e-014          3.94e-012      
  1.9             -3.6e-013       -8.04e-012     
  1.8             -8e-014         7.04e-012      
  1.7             -4e-014         1.83e-011      
  1.6             6e-014          7.22e-012      
  1.5             0               -5.78e-012     
  1.4             1.8e-013        9.36e-012      
  1.3             1.8e-013        9.52e-012      
  1.2             2.6e-013        1.416e-011     
  1.1             1.4e-013        -1.8e-012      
  1               -3.4e-013       1.4e-012       
  0.9             -1.2e-013       1.466e-011     
  0.8             -4e-014         7.68e-012      
  0.7             1.8e-013        1.744e-011     
  0.6             6e-014          7.86e-012      
  0.5             0               1.298e-011     
  0.4             -2e-014         1.2e-011       
  0.3             2.2e-013        1.93e-011      
  0.2             2e-013          1.284e-011     
  0.1             -1.8e-013       8.64e-012      
  0               -1.6e-013       8.06e-012      
END_DB

