! VERSION = 6.00
BEGIN_HEADER
 ICCAP_INPUTS
  vc         V  cathode GROUND SMU1 0.1 CON        0
  va         V  anode GROUND SMU2 0.1 LIN        1    15         0          151  -0.1      
 ICCAP_OUTPUTS
  ia         I  anode GROUND SMU2 B
  ic         I  cathode GROUND SMU1 B
 ICCAP_VALUES
  DataOrigin "Measure"
  ___CONTEXT ""
  Date "Jan 11 Tue 12:44:34 2022"
  Version "WaferPro.2016.01"
  Bench "B1500_B2200"
  Temperature "-40"
  Lot "M135205"
  Reticle "M135205"
  Wafer "01D2"
  Die "X-3-Y0"
  DieList "TargetDie"
  Block "WholeDie"
  Subsite "diod1-5V"
  Routine "DIODE_EXTR_Measure"
  MeasCond "Set1"
  Device "3"
  DeviceName "ndiode_Dn5_A032B320"
  DevTechno "DIO"
  DevPolarity "N"
  Setup "iv_rev"
  Type "1"
  ___SPICE_INSTANCE ""
  A "3.2E-007"
  B "3.2E-005"
  ___TECHNO_INSTANCE ""
  ___CALIBRATION ""
END_HEADER

BEGIN_DB
 ICCAP_VAR vc         0              

 #va              ia              ic             
  15              0.0080334       -0.008273      
  14.9            0.0075456       -0.0076238     
  14.8            0.007136        -0.0071812     
  14.7            0.0067542       -0.0067932     
  14.6            0.0063972       -0.0064226     
  14.5            0.0060414       -0.0060672     
  14.4            0.0056872       -0.005706      
  14.3            0.0053364       -0.0053538     
  14.2            0.0049912       -0.0050042     
  14.1            0.0046422       -0.0046568     
  14              0.0042924       -0.0043038     
  13.9            0.0039424       -0.003953      
  13.8            0.0035964       -0.0036026     
  13.7            0.0032476       -0.0032532     
  13.6            0.002894        -0.0029002     
  13.5            0.0025372       -0.0025426     
  13.4            0.0021776       -0.0021826     
  13.3            0.0018164       -0.0018206     
  13.2            0.0014466       -0.0014502     
  13.1            0.0010752       -0.0010794     
  13              0.00068286      -0.00069178    
  12.9            0.00024526      -0.00025514    
  12.8            6.9452e-007     -7.739e-007    
  12.7            4.9392e-008     -5.3632e-008   
  12.6            1.6524e-008     -1.723e-008    
  12.5            8.4412e-009     -9.076e-009    
  12.4            5.186e-009      -5.2868e-009   
  12.3            3.6322e-009     -3.6826e-009   
  12.2            2.7172e-009     -2.7632e-009   
  12.1            2.1268e-009     -2.135e-009    
  12              1.6942e-009     -1.6996e-009   
  11.9            1.3802e-009     -1.4152e-009   
  11.8            1.1506e-009     -1.1538e-009   
  11.7            9.5764e-010     -9.714e-010    
  11.6            8.1294e-010     -8.016e-010    
  11.5            6.9524e-010     -6.996e-010    
  11.4            6.0272e-010     -6.034e-010    
  11.3            5.2404e-010     -5.3164e-010   
  11.2            4.6092e-010     -4.5804e-010   
  11.1            4.105e-010      -4.1094e-010   
  11              3.6304e-010     -3.636e-010    
  10.9            3.2312e-010     -3.2558e-010   
  10.8            2.8788e-010     -2.9468e-010   
  10.7            2.59e-010       -2.6222e-010   
  10.6            2.3372e-010     -2.311e-010    
  10.5            2.099e-010      -2.0482e-010   
  10.4            1.891e-010      -1.9436e-010   
  10.3            1.7114e-010     -1.7184e-010   
  10.2            1.5662e-010     -1.4834e-010   
  10.1            1.4256e-010     -1.4e-010      
  10              1.291e-010      -1.258e-010    
  9.9             1.1744e-010     -1.2084e-010   
  9.8             1.0812e-010     -1.0488e-010   
  9.7             9.934e-011      -1.089e-010    
  9.6             9.114e-011      -8.12e-011     
  9.5             8.262e-011      -8.602e-011    
  9.4             7.598e-011      -7.738e-011    
  9.3             7.026e-011      -5.798e-011    
  9.2             6.61e-011       -6.052e-011    
  9.1             6.106e-011      -6.386e-011    
  9               5.496e-011      -6.428e-011    
  8.9             5.07e-011       -4.578e-011    
  8.8             4.756e-011      -4.692e-011    
  8.7             4.49e-011       -4.83e-011     
  8.6             4.076e-011      -4.29e-011     
  8.5             3.706e-011      -3.6e-011      
  8.4             3.446e-011      -2.924e-011    
  8.3             3.336e-011      -3.006e-011    
  8.2             3.128e-011      -2.704e-011    
  8.1             2.852e-011      -3.36e-011     
  8               2.56e-011       -2.112e-011    
  7.9             2.422e-011      -2.37e-011     
  7.8             2.364e-011      -2.196e-011    
  7.7             2.174e-011      -2.478e-011    
  7.6             1.984e-011      -2.432e-011    
  7.5             1.774e-011      -1.432e-011    
  7.4             1.754e-011      -7.54e-012     
  7.3             1.708e-011      -1.902e-011    
  7.2             1.594e-011      -1.844e-011    
  7.1             1.376e-011      -1.336e-011    
  7               1.274e-011      -9.6e-012      
  6.9             1.274e-011      -1.252e-011    
  6.8             1.23e-011       -1.87e-011     
  6.7             1.142e-011      -1.33e-011     
  6.6             9.36e-012       -1.184e-011    
  6.5             9.18e-012       -8e-013        
  6.4             9.26e-012       -3.78e-011     
  6.3             9.44e-012       -8.4e-013      
  6.2             8.06e-012       -1.71e-011     
  6.1             6.96e-012       5.7e-012       
  6               6.66e-012       -6.34e-012     
  5.9             7.04e-012       -1.742e-011    
  5.8             6.98e-012       -1.516e-011    
  5.7             5.24e-012       1.42e-012      
  5.6             4.58e-012       5.26e-012      
  5.5             4.62e-012       -8.64e-012     
  5.4             5.66e-012       -4.54e-012     
  5.3             5.2e-012        -1.44e-012     
  5.2             3.92e-012       6.28e-012      
  5.1             3.18e-012       -9e-012        
  5               3.66e-012       -4.98e-012     
  4.9             4.32e-012       -2.4e-012      
  4.8             3.3e-012        -1.694e-011    
  4.7             2.36e-012       4.94e-012      
  4.6             1.86e-012       3.46e-012      
  4.5             2.84e-012       -7.16e-012     
  4.4             3.44e-012       3.98e-012      
  4.3             2.62e-012       -6.6e-013      
  4.2             1.42e-012       3.46e-012      
  4.1             1.48e-012       -9.26e-012     
  4               2.36e-012       -2.28e-012     
  3.9             2.58e-012       -3.32e-012     
  3.8             1.6e-012        7.94e-012      
  3.7             2.8e-013        -1.512e-011    
  3.6             8.2e-013        -4.06e-012     
  3.5             1.78e-012       4.02e-012      
  3.4             2.2e-012        4.88e-012      
  3.3             9.8e-013        2.82e-012      
  3.2             2.4e-013        -5.04e-012     
  3.1             8e-013          1.46e-012      
  3               1.8e-012        -1.18e-012     
  2.9             1.44e-012       -8.58e-012     
  2.8             0               -1.44e-012     
  2.7             -3.6e-013       -3.02e-012     
  2.6             4.6e-013        -5.42e-012     
  2.5             1.56e-012       1.238e-011     
  2.4             1.1e-012        5.6e-012       
  2.3             -4e-014         -8.12e-012     
  2.2             -1.4e-013       -4.42e-012     
  2.1             7.2e-013        6.14e-012      
  2               1.3e-012        -1.352e-011    
  1.9             3.8e-013        -2.4e-013      
  1.8             -6.4e-013       -6.42e-012     
  1.7             -4.4e-013       5.66e-012      
  1.6             6.6e-013        8.06e-012      
  1.5             1.1e-012        4.72e-012      
  1.4             1.8e-013        1.772e-011     
  1.3             -6.8e-013       4.18e-012      
  1.2             -2.6e-013       1.06e-011      
  1.1             1e-012          1.888e-011     
  1               8e-013          4.54e-012      
  0.9             -4.4e-013       -9.62e-012     
  0.8             -1.14e-012      1.508e-011     
  0.7             -2e-013         1.578e-011     
  0.6             9.2e-013        1.11e-011      
  0.5             7.4e-013        1.284e-011     
  0.4             -3.4e-013       1.906e-011     
  0.3             -8.8e-013       1.936e-011     
  0.2             2.6e-013        1.422e-011     
  0.1             9.6e-013        8.56e-012      
  0               2.2e-013        1.366e-011     
END_DB

