! VERSION = 6.00
BEGIN_HEADER
 ICCAP_INPUTS
  vc         V  cathode GROUND SMU1 0.1 CON        0
  va         V  anode GROUND SMU2 0.1 LIN        1    15         0          151  -0.1      
 ICCAP_OUTPUTS
  ia         I  anode GROUND SMU2 B
  ic         I  cathode GROUND SMU1 B
 ICCAP_VALUES
  DataOrigin "Measure"
  ___CONTEXT ""
  Date "Jan 11 Tue 13:00:09 2022"
  Version "WaferPro.2016.01"
  Bench "B1500_B2200"
  Temperature "-40"
  Lot "M135205"
  Reticle "M135205"
  Wafer "01D2"
  Die "X-3-Y0"
  DieList "TargetDie"
  Block "WholeDie"
  Subsite "diod1-5V"
  Routine "DIODE_EXTR_Measure"
  MeasCond "Set1"
  Device "11"
  DeviceName "ndiode_Dn5_A320B640"
  DevTechno "DIO"
  DevPolarity "N"
  Setup "iv_rev"
  Type "1"
  ___SPICE_INSTANCE ""
  A "3.2E-005"
  B "6.4E-005"
  ___TECHNO_INSTANCE ""
  ___CALIBRATION ""
END_HEADER

BEGIN_DB
 ICCAP_VAR vc         0              

 #va              ia              ic             
  15              0.057984        -0.05842       
  14.9            0.055972        -0.056056      
  14.8            0.054088        -0.054118      
  14.7            0.052228        -0.052238      
  14.6            0.050386        -0.050384      
  14.5            0.048514        -0.048506      
  14.4            0.046626        -0.046612      
  14.3            0.044728        -0.044714      
  14.2            0.042796        -0.042778      
  14.1            0.040842        -0.040824      
  14              0.038846        -0.038826      
  13.9            0.036816        -0.036794      
  13.8            0.034772        -0.034748      
  13.7            0.032674        -0.032652      
  13.6            0.030562        -0.030538      
  13.5            0.028396        -0.028372      
  13.4            0.026192        -0.026168      
  13.3            0.023966        -0.023944      
  13.2            0.021688        -0.021666      
  13.1            0.019388        -0.019366      
  13              0.017034        -0.017012      
  12.9            0.014638        -0.014618      
  12.8            0.012228        -0.012206      
  12.7            0.0097576       -0.009746      
  12.6            0.0072522       -0.0072394     
  12.5            0.00472         -0.0047074     
  12.4            0.0021218       -0.002109      
  12.3            5.1474e-008     -5.5692e-008   
  12.2            1.411e-008      -1.4408e-008   
  12.1            7.7642e-009     -8.0688e-009   
  12              5.224e-009      -5.2956e-009   
  11.9            3.8284e-009     -3.8502e-009   
  11.8            2.9536e-009     -2.9814e-009   
  11.7            2.341e-009      -2.3522e-009   
  11.6            1.9006e-009     -1.9094e-009   
  11.5            1.5664e-009     -1.5682e-009   
  11.4            1.3098e-009     -1.3236e-009   
  11.3            1.1026e-009     -1.103e-009    
  11.2            9.3198e-010     -9.374e-010    
  11.1            7.9802e-010     -8.096e-010    
  11              6.8732e-010     -6.912e-010    
  10.9            5.9108e-010     -5.9896e-010   
  10.8            5.1448e-010     -5.273e-010    
  10.7            4.522e-010      -4.4802e-010   
  10.6            3.9744e-010     -3.976e-010    
  10.5            3.4912e-010     -3.6016e-010   
  10.4            3.0644e-010     -3.0452e-010   
  10.3            2.694e-010      -2.6088e-010   
  10.2            2.3982e-010     -2.4018e-010   
  10.1            2.1462e-010     -2.099e-010    
  10              1.9064e-010     -1.94e-010     
  9.9             1.6764e-010     -1.6562e-010   
  9.8             1.489e-010      -1.1242e-010   
  9.7             1.3408e-010     -1.3856e-010   
  9.6             1.2146e-010     -1.3478e-010   
  9.5             1.089e-010      -1.0548e-010   
  9.4             9.626e-011      -9.012e-011    
  9.3             8.464e-011      -7.642e-011    
  9.2             7.622e-011      -7.924e-011    
  9.1             6.964e-011      -6.462e-011    
  9               6.296e-011      -5.768e-011    
  8.9             5.604e-011      -5.884e-011    
  8.8             4.876e-011      -4.188e-011    
  8.7             4.422e-011      -4.764e-011    
  8.6             4.084e-011      -4.808e-011    
  8.5             3.822e-011      -3.032e-011    
  8.4             3.39e-011       -2.542e-011    
  8.3             2.908e-011      -4.136e-011    
  8.2             2.582e-011      -1.79e-011     
  8.1             2.38e-011       -1.56e-011     
  8               2.318e-011      -1.648e-011    
  7.9             2.008e-011      -2.686e-011    
  7.8             1.744e-011      -2.672e-011    
  7.7             1.446e-011      -1.316e-011    
  7.6             1.436e-011      -1.198e-011    
  7.5             1.43e-011       -1.388e-011    
  7.4             1.31e-011       -1.438e-011    
  7.3             1.056e-011      -8.68e-012     
  7.2             8.08e-012       3e-013         
  7.1             8.18e-012       -4.7e-012      
  7               8.42e-012       -2.68e-012     
  6.9             8.6e-012        -8.82e-012     
  6.8             6.2e-012        -9.46e-012     
  6.7             5.16e-012       -9.02e-012     
  6.6             4.58e-012       1.44e-012      
  6.5             5.78e-012       -4.76e-012     
  6.4             5.8e-012        -1.514e-011    
  6.3             4.18e-012       7e-012         
  6.2             2.72e-012       7.82e-012      
  6.1             1.86e-012       -1.58e-012     
  6               3.72e-012       -8.08e-012     
  5.9             3.58e-012       -4.04e-012     
  5.8             3.52e-012       5.32e-012      
  5.7             1.46e-012       2.572e-011     
  5.6             1.08e-012       -1.716e-011    
  5.5             1.94e-012       1.58e-012      
  5.4             2.92e-012       1.3e-012       
  5.3             2.64e-012       -1.66e-012     
  5.2             7.2e-013        1.4e-012       
  5.1             2.4e-013        3.34e-012      
  5               6.6e-013        -9.94e-012     
  4.9             2.3e-012        -2.3e-012      
  4.8             2.02e-012       1.102e-011     
  4.7             9.6e-013        -1.174e-011    
  4.6             -1.8e-013       -5.56e-012     
  4.5             3e-013          4.14e-012      
  4.4             1.64e-012       8.86e-012      
  4.3             1.82e-012       -3.08e-012     
  4.2             8.6e-013        -3.48e-012     
  4.1             -8.4e-013       1.264e-011     
  4               -1e-013         -3.2e-012      
  3.9             7.8e-013        -2.14e-012     
  3.8             2.16e-012       -1.088e-011    
  3.7             1.14e-012       2.54e-012      
  3.6             -2.6e-013       -4.7e-012      
  3.5             -4e-013         9.7e-012       
  3.4             3.8e-013        -2.78e-012     
  3.3             1.62e-012       1.38e-012      
  3.2             9e-013          5.6e-012       
  3.1             -4e-013         6.8e-013       
  3               -1.08e-012      9.58e-012      
  2.9             1.6e-013        -1.154e-011    
  2.8             1.44e-012       -4.52e-012     
  2.7             1.42e-012       2.12e-012      
  2.6             2.4e-013        1.24e-011      
  2.5             -1.14e-012      -4.92e-012     
  2.4             -4.2e-013       -8.6e-012      
  2.3             6.8e-013        7.12e-012      
  2.2             1.18e-012       4.1e-012       
  2.1             2.8e-013        -1.24e-012     
  2               -9.6e-013       -1.106e-011    
  1.9             -8e-013         4.02e-012      
  1.8             6e-013          -1.18e-012     
  1.7             1.42e-012       -4.62e-012     
  1.6             4.6e-013        3.178e-011     
  1.5             -5.4e-013       -5.88e-012     
  1.4             -1.1e-012       8e-012         
  1.3             2.4e-013        1.51e-011      
  1.2             1.14e-012       -6e-012        
  1.1             6e-013          -3.52e-012     
  1               -6.2e-013       -6.02e-012     
  0.9             -1.2e-012       2.38e-012      
  0.8             2.4e-013        -1.2e-012      
  0.7             1.4e-012        -8.78e-012     
  0.6             1.3e-012        -1.06e-012     
  0.5             -4e-013         2.44e-012      
  0.4             -1.08e-012      1.37e-011      
  0.3             -4.8e-013       -3.2e-012      
  0.2             8.2e-013        -4.18e-012     
  0.1             1.06e-012       -4.46e-012     
  0               -3e-013         8.2e-012       
END_DB

