! VERSION = 6.00
BEGIN_HEADER
 ICCAP_INPUTS
  vc         V  cathode GROUND SMU1 0.1 CON        0
  va         V  anode GROUND SMU2 0.1 LIN        1    15         0          151  -0.1      
 ICCAP_OUTPUTS
  ia         I  anode GROUND SMU2 B
  ic         I  cathode GROUND SMU1 B
 ICCAP_VALUES
  DataOrigin "Measure"
  ___CONTEXT ""
  Date "Jan 11 Tue 12:58:14 2022"
  Version "WaferPro.2016.01"
  Bench "B1500_B2200"
  Temperature "-40"
  Lot "M135205"
  Reticle "M135205"
  Wafer "01D2"
  Die "X-3-Y0"
  DieList "TargetDie"
  Block "WholeDie"
  Subsite "diod1-5V"
  Routine "DIODE_EXTR_Measure"
  MeasCond "Set1"
  Device "10"
  DeviceName "ndiode_Dn5_A32B640"
  DevTechno "DIO"
  DevPolarity "N"
  Setup "iv_rev"
  Type "1"
  ___SPICE_INSTANCE ""
  A "3.2E-006"
  B "6.4E-005"
  ___TECHNO_INSTANCE ""
  ___CALIBRATION ""
END_HEADER

BEGIN_DB
 ICCAP_VAR vc         0              

 #va              ia              ic             
  15              0.029022        -0.02931       
  14.9            0.027936        -0.028008      
  14.8            0.026946        -0.02698       
  14.7            0.025976        -0.025994      
  14.6            0.025018        -0.025028      
  14.5            0.024046        -0.02405       
  14.4            0.023068        -0.02307       
  14.3            0.022086        -0.022084      
  14.2            0.021086        -0.02108       
  14.1            0.020072        -0.020066      
  14              0.019036        -0.01903       
  13.9            0.017984        -0.017974      
  13.8            0.01692         -0.016912      
  13.7            0.015828        -0.01582       
  13.6            0.014728        -0.014718      
  13.5            0.013598        -0.013588      
  13.4            0.01245         -0.01244       
  13.3            0.01129         -0.01128       
  13.2            0.010102        -0.010092      
  13.1            0.0088974       -0.0088946     
  13              0.0076746       -0.0076702     
  12.9            0.0064362       -0.006432      
  12.8            0.0051986       -0.0051948     
  12.7            0.003946        -0.0039418     
  12.6            0.0026938       -0.00269       
  12.5            0.0014444       -0.001441      
  12.4            1.7314e-006     -1.8764e-006   
  12.3            1.9278e-008     -2.066e-008    
  12.2            9.1292e-009     -9.622e-009    
  12.1            5.7448e-009     -5.8458e-009   
  12              4.1704e-009     -4.1896e-009   
  11.9            3.1992e-009     -3.2124e-009   
  11.8            2.531e-009      -2.5386e-009   
  11.7            2.0424e-009     -2.0466e-009   
  11.6            1.6832e-009     -1.687e-009    
  11.5            1.4004e-009     -1.409e-009    
  11.4            1.194e-009      -1.1858e-009   
  11.3            1.0232e-009     -1.0158e-009   
  11.2            8.617e-010      -8.65e-010     
  11.1            7.493e-010      -7.34e-010     
  11              6.3838e-010     -6.3248e-010   
  10.9            5.6004e-010     -5.5308e-010   
  10.8            4.8834e-010     -4.745e-010    
  10.7            4.31e-010       -4.2104e-010   
  10.6            3.8048e-010     -3.8256e-010   
  10.5            3.3824e-010     -3.3392e-010   
  10.4            2.9984e-010     -2.7758e-010   
  10.3            2.6954e-010     -2.6626e-010   
  10.2            2.3992e-010     -2.4116e-010   
  10.1            2.1438e-010     -2.2108e-010   
  10              1.9224e-010     -1.8628e-010   
  9.9             1.738e-010      -1.626e-010    
  9.8             1.5518e-010     -1.4772e-010   
  9.7             1.3766e-010     -1.3376e-010   
  9.6             1.2316e-010     -1.1736e-010   
  9.5             1.1128e-010     -9.366e-011    
  9.4             1.0148e-010     -9.364e-011    
  9.3             9.144e-011      -8.19e-011     
  9.2             8.198e-011      -8.014e-011    
  9.1             7.338e-011      -6.6e-011      
  9               6.698e-011      -4.47e-011     
  8.9             6.166e-011      -5.704e-011    
  8.8             5.634e-011      -4.484e-011    
  8.7             5.056e-011      -4.594e-011    
  8.6             4.47e-011       -3.968e-011    
  8.5             4.09e-011       -2.104e-011    
  8.4             3.796e-011      -3.536e-011    
  8.3             3.524e-011      -3.916e-011    
  8.2             3.12e-011       -2.052e-011    
  8.1             2.762e-011      -1.388e-011    
  8               2.522e-011      -2.088e-011    
  7.9             2.384e-011      -1.382e-011    
  7.8             2.254e-011      -4.64e-012     
  7.7             2.016e-011      -1.084e-011    
  7.6             1.736e-011      1.36e-012      
  7.5             1.532e-011      -1.298e-011    
  7.4             1.502e-011      -1.228e-011    
  7.3             1.406e-011      -1.94e-012     
  7.2             1.276e-011      7.8e-013       
  7.1             1.078e-011      4.32e-012      
  7               9.4e-012        -1.116e-011    
  6.9             9.74e-012       6.46e-012      
  6.8             9.34e-012       7.7e-012       
  6.7             8.82e-012       1.14e-011      
  6.6             6.94e-012       1.56e-012      
  6.5             5.82e-012       -2.94e-012     
  6.4             5.64e-012       2.5e-012       
  6.3             6.3e-012        1.378e-011     
  6.2             5.64e-012       9.82e-012      
  6.1             4.18e-012       1.3e-012       
  6               3.3e-012        1.388e-011     
  5.9             3.36e-012       1.754e-011     
  5.8             4.8e-012        2.264e-011     
  5.7             4.5e-012        5.98e-012      
  5.6             3.46e-012       4e-012         
  5.5             1.62e-012       9.96e-012      
  5.4             1.9e-012        1.026e-011     
  5.3             2.48e-012       4.26e-012      
  5.2             3.32e-012       7.46e-012      
  5.1             2.38e-012       1.586e-011     
  5               8.8e-013        1.29e-011      
  4.9             1.18e-012       2.498e-011     
  4.8             1.6e-012        1.454e-011     
  4.7             3e-012          6.54e-012      
  4.6             1.9e-012        -7.92e-012     
  4.5             7.6e-013        1.838e-011     
  4.4             -8e-014         8.74e-012      
  4.3             1.1e-012        5.4e-013       
  4.2             1.82e-012       7.3e-012       
  4.1             1.46e-012       2.348e-011     
  4               5.6e-013        2.52e-011      
  3.9             -5.2e-013       8.54e-012      
  3.8             9e-013          2.134e-011     
  3.7             1.28e-012       1.752e-011     
  3.6             1.9e-012        2.01e-011      
  3.5             1.4e-013        2.028e-011     
  3.4             -5.6e-013       7.36e-012      
  3.3             -4.6e-013       1.018e-011     
  3.2             7.8e-013        3.504e-011     
  3.1             1.24e-012       2.478e-011     
  3               -2e-014         2.186e-011     
  2.9             -1.2e-013       1.408e-011     
  2.8             -6.2e-013       1.45e-011      
  2.7             1.38e-012       2.966e-011     
  2.6             1.12e-012       6.6e-012       
  2.5             5.4e-013        1.282e-011     
  2.4             -9.4e-013       1.608e-011     
  2.3             -7.8e-013       2.074e-011     
  2.2             4e-013          2.14e-011      
  2.1             9.2e-013        2.072e-011     
  2               1.12e-012       8.1e-012       
  1.9             -7.2e-013       2.324e-011     
  1.8             -4.4e-013       3.428e-011     
  1.7             -1.6e-013       1.332e-011     
  1.6             1.18e-012       2.448e-011     
  1.5             5.2e-013        1.936e-011     
  1.4             -4.8e-013       2.684e-011     
  1.3             -1.26e-012      1.936e-011     
  1.2             -3.6e-013       2.83e-011      
  1.1             1.04e-012       1.538e-011     
  1               7.8e-013        2.048e-011     
  0.9             3.6e-013        4.926e-011     
  0.8             -1.32e-012      2.678e-011     
  0.7             -1e-013         1.968e-011     
  0.6             4.6e-013        1.29e-011      
  0.5             1.24e-012       7.3e-012       
  0.4             -1.6e-013       2.164e-011     
  0.3             -1.54e-012      1.86e-011      
  0.2             -1.2e-012       3.322e-011     
  0.1             1.8e-013        3.076e-011     
  0               1.56e-012       2.964e-011     
END_DB

