! VERSION = 6.00
BEGIN_HEADER
 ICCAP_INPUTS
  vc         V  cathode GROUND SMU1 0.1 CON        0
  va         V  anode GROUND SMU2 0.1 LIN        1    -15        0          151  0.1       
 ICCAP_OUTPUTS
  ia         I  anode GROUND SMU2 B
  ic         I  cathode GROUND SMU1 B
 ICCAP_VALUES
  DataOrigin "Measure"
  ___CONTEXT ""
  Date "Jan 13 Thu 13:59:57 2022"
  Version "WaferPro.2016.01"
  Bench "B1500_B2200"
  Temperature "27"
  Lot "M135205"
  Reticle "M135205"
  Wafer "01D2"
  Die "X-3-Y0"
  DieList "TargetDie"
  Block "WholeDie"
  Subsite "diod2-5V"
  Routine "DIODE_EXTR_Measure"
  MeasCond "Set1"
  Device "5"
  DeviceName "pdiode_Dp5_A32B320"
  DevTechno "DIO"
  DevPolarity "P"
  Setup "iv_rev"
  Type "-1"
  ___SPICE_INSTANCE ""
  A "3.2E-006"
  B "3.2E-005"
  ___TECHNO_INSTANCE ""
  ___CALIBRATION ""
END_HEADER

BEGIN_DB
 ICCAP_VAR vc         0              

 #va              ia              ic             
  -15             -0.0086838      0.0087838      
  -14.9           -0.008429       0.008457       
  -14.8           -0.008203       0.0082178      
  -14.7           -0.0079806      0.007991       
  -14.6           -0.0077572      0.0077648      
  -14.5           -0.0075326      0.007537       
  -14.4           -0.0073024      0.0073044      
  -14.3           -0.007062       0.0070646      
  -14.2           -0.0068132      0.006816       
  -14.1           -0.0065558      0.0065562      
  -14             -0.0062884      0.0062888      
  -13.9           -0.0060128      0.0060134      
  -13.8           -0.005724       0.0057246      
  -13.7           -0.0054282      0.0054286      
  -13.6           -0.0051188      0.005119       
  -13.5           -0.0048012      0.0048018      
  -13.4           -0.0044696      0.0044702      
  -13.3           -0.0041308      0.0041316      
  -13.2           -0.0037774      0.0037782      
  -13.1           -0.0034132      0.0034146      
  -13             -0.0030426      0.0030436      
  -12.9           -0.0026608      0.0026612      
  -12.8           -0.002274       0.0022746      
  -12.7           -0.0018774      0.0018788      
  -12.6           -0.0014784      0.0014788      
  -12.5           -0.0010714      0.0010716      
  -12.4           -0.00066212     0.00066144     
  -12.3           -0.00022364     0.0002231      
  -12.2           -3.601e-010     3.586e-010     
  -12.1           -1.8546e-010    1.8358e-010    
  -12             -1.3938e-010    1.3746e-010    
  -11.9           -1.1344e-010    1.0934e-010    
  -11.8           -9.606e-011     9.222e-011     
  -11.7           -8.178e-011     7.968e-011     
  -11.6           -7.162e-011     6.892e-011     
  -11.5           -6.268e-011     6.04e-011      
  -11.4           -5.704e-011     5.278e-011     
  -11.3           -5.066e-011     4.738e-011     
  -11.2           -4.552e-011     4.168e-011     
  -11.1           -4.154e-011     3.684e-011     
  -11             -3.814e-011     3.172e-011     
  -10.9           -3.516e-011     3.034e-011     
  -10.8           -3.138e-011     2.644e-011     
  -10.7           -2.906e-011     2.436e-011     
  -10.6           -2.654e-011     2.074e-011     
  -10.5           -2.56e-011      1.888e-011     
  -10.4           -2.202e-011     1.612e-011     
  -10.3           -2.154e-011     1.454e-011     
  -10.2           -2.008e-011     1.206e-011     
  -10.1           -1.984e-011     1.092e-011     
  -10             -1.732e-011     1.044e-011     
  -9.9            -1.632e-011     7.82e-012      
  -9.8            -1.488e-011     6.8e-012       
  -9.7            -1.42e-011      4.76e-012      
  -9.6            -1.366e-011     5.04e-012      
  -9.5            -1.204e-011     2.08e-012      
  -9.4            -1.24e-011      1.22e-012      
  -9.3            -1.144e-011     -1.16e-012     
  -9.2            -1.138e-011     -4e-014        
  -9.1            -9.24e-012      -1.04e-012     
  -9              -9.7e-012       -2.58e-012     
  -8.9            -8.34e-012      -3.66e-012     
  -8.8            -8.8e-012       -4.62e-012     
  -8.7            -7.32e-012      -4.52e-012     
  -8.6            -7.42e-012      -7.2e-012      
  -8.5            -7.52e-012      -7.46e-012     
  -8.4            -7.14e-012      -8.8e-012      
  -8.3            -6.7e-012       -7.3e-012      
  -8.2            -5.28e-012      -9.1e-012      
  -8.1            -5.96e-012      -9.34e-012     
  -8              -5.1e-012       -1.122e-011    
  -7.9            -5.76e-012      -1.03e-011     
  -7.8            -4.34e-012      -1.174e-011    
  -7.7            -5.06e-012      -1.33e-011     
  -7.6            -4.52e-012      -1.404e-011    
  -7.5            -4.9e-012       -1.398e-011    
  -7.4            -3.48e-012      -1.31e-011     
  -7.3            -3.54e-012      -1.5e-011      
  -7.2            -3.56e-012      -1.532e-011    
  -7.1            -3.28e-012      -1.618e-011    
  -7              -3.56e-012      -1.512e-011    
  -6.9            -2.84e-012      -1.734e-011    
  -6.8            -3.66e-012      -1.74e-011     
  -6.7            -3e-012         -1.838e-011    
  -6.6            -2.92e-012      -1.76e-011     
  -6.5            -1.94e-012      -1.836e-011    
  -6.4            -2.66e-012      -1.906e-011    
  -6.3            -2.16e-012      -1.944e-011    
  -6.2            -2.2e-012       -1.994e-011    
  -6.1            -1.88e-012      -2.032e-011    
  -6              -2.18e-012      -2.204e-011    
  -5.9            -2.58e-012      -2.134e-011    
  -5.8            -2.38e-012      -2.124e-011    
  -5.7            -1.76e-012      -2.068e-011    
  -5.6            -1.04e-012      -2.232e-011    
  -5.5            -1.8e-012       -2.264e-011    
  -5.4            -1.32e-012      -2.318e-011    
  -5.3            -1.64e-012      -2.29e-011     
  -5.2            -1.18e-012      -2.432e-011    
  -5.1            -1.58e-012      -2.528e-011    
  -5              -1.66e-012      -2.47e-011     
  -4.9            -1.34e-012      -2.46e-011     
  -4.8            -1.02e-012      -2.432e-011    
  -4.7            -1.08e-012      -2.598e-011    
  -4.6            -1.24e-012      -2.612e-011    
  -4.5            -9.8e-013       -2.65e-011     
  -4.4            -1.1e-012       -2.672e-011    
  -4.3            -9e-013         -2.804e-011    
  -4.2            -1.36e-012      -2.8e-011      
  -4.1            -9.4e-013       -2.778e-011    
  -4              -6e-013         -2.796e-011    
  -3.9            -4e-013         -2.864e-011    
  -3.8            -6.2e-013       -2.934e-011    
  -3.7            -9.8e-013       -2.938e-011    
  -3.6            -4.8e-013       -3.02e-011     
  -3.5            -8.6e-013       -3.1e-011      
  -3.4            -8e-013         -3.168e-011    
  -3.3            -9.2e-013       -3.114e-011    
  -3.2            -3.2e-013       -3.108e-011    
  -3.1            -3e-013         -3.234e-011    
  -3              -4e-013         -3.292e-011    
  -2.9            -5.8e-013       -3.354e-011    
  -2.8            -4.8e-013       -3.34e-011     
  -2.7            -4.6e-013       -3.468e-011    
  -2.6            -1e-012         -3.5e-011      
  -2.5            -7.4e-013       -3.558e-011    
  -2.4            -5.8e-013       -3.448e-011    
  -2.3            0               -3.526e-011    
  -2.2            -5.4e-013       -3.636e-011    
  -2.1            -2.2e-013       -3.698e-011    
  -2              -6.8e-013       -3.716e-011    
  -1.9            -4e-014         -3.776e-011    
  -1.8            -3.6e-013       -3.93e-011     
  -1.7            -6e-013         -3.908e-011    
  -1.6            -5.2e-013       -3.964e-011    
  -1.5            -2.8e-013       -3.828e-011    
  -1.4            2.4e-013        -4.066e-011    
  -1.3            -2e-013         -4.07e-011     
  -1.2            2e-014          -4.162e-011    
  -1.1            -5.8e-013       -4.114e-011    
  -1              2.6e-013        -4.278e-011    
  -0.9            -4.2e-013       -4.344e-011    
  -0.8            1.6e-013        -4.338e-011    
  -0.7            -2.6e-013       -4.336e-011    
  -0.6            2.6e-013        -4.31e-011     
  -0.5            1.4e-013        -4.526e-011    
  -0.4            1.6e-013        -4.456e-011    
  -0.3            3e-013          -4.578e-011    
  -0.2            -4e-014         -4.542e-011    
  -0.1            0               -4.74e-011     
  0               -4.4e-013       -4.64e-011     
END_DB

