! VERSION = 6.00
BEGIN_HEADER
 ICCAP_INPUTS
  vc         V  cathode GROUND SMU1 0.1 CON        0
  va         V  anode GROUND SMU2 0.1 LIN        1    0          1          51   0.02      
 ICCAP_OUTPUTS
  ia         I  anode GROUND SMU2 B
  ic         I  cathode GROUND SMU1 B
 ICCAP_VALUES
  DataOrigin "Measure"
  ___CONTEXT ""
  Date "Jan 13 Thu 14:07:22 2022"
  Version "WaferPro.2016.01"
  Bench "B1500_B2200"
  Temperature "27"
  Lot "M135205"
  Reticle "M135205"
  Wafer "01D2"
  Die "X-3-Y0"
  DieList "TargetDie"
  Block "WholeDie"
  Subsite "diod2-5V"
  Routine "DIODE_EXTR_Measure"
  MeasCond "Set1"
  Device "11"
  DeviceName "pdiode_Dp5_A320B640"
  DevTechno "DIO"
  DevPolarity "P"
  Setup "iv_fwd"
  Type "-1"
  ___SPICE_INSTANCE ""
  A "3.2E-005"
  B "6.4E-005"
  ___TECHNO_INSTANCE ""
  ___CALIBRATION ""
END_HEADER

BEGIN_DB
 ICCAP_VAR vc         0              

 #va              ia              ic             
  0               1.62e-012       1.342e-011     
  0.02            1.68e-012       1.358e-011     
  0.04            1.2e-012        1.354e-011     
  0.06            4.2e-013        1.216e-011     
  0.08            9.2e-013        1.25e-011      
  0.1             1.04e-012       1.242e-011     
  0.12            1.76e-012       1.114e-011     
  0.14            3.64e-012       1.042e-011     
  0.16            5.94e-012       1.014e-011     
  0.18            8.88e-012       6.44e-012      
  0.2             1.444e-011      1.88e-012      
  0.22            2.354e-011      -4.86e-012     
  0.24            3.93e-011       -1.752e-011    
  0.26            6.82e-011       -3.698e-011    
  0.28            1.1996e-010     -6.658e-011    
  0.3             2.153e-010      -1.1504e-010   
  0.32            3.958e-010      -1.9316e-010   
  0.34            7.4146e-010     -3.1772e-010   
  0.36            1.4248e-009     -5.2454e-010   
  0.38            2.7914e-009     -8.697e-010    
  0.4             5.5588e-009     -1.4588e-009   
  0.42            1.12534e-008    -2.4924e-009   
  0.44            1.7584e-008     -1.183e-008    
  0.46            3.5406e-008     -2.5294e-008   
  0.48            7.0818e-008     -6.149e-008    
  0.5             1.4692e-007     -1.281e-007    
  0.52            3.0394e-007     -2.9742e-007   
  0.54            6.3366e-007     -6.2446e-007   
  0.56            1.3252e-006     -1.3226e-006   
  0.58            2.7574e-006     -2.7508e-006   
  0.6             5.719e-006      -5.715e-006    
  0.62            1.1692e-005     -1.1685e-005   
  0.64            2.3394e-005     -2.338e-005    
  0.66            4.5198e-005     -4.5188e-005   
  0.68            8.3954e-005     -8.3948e-005   
  0.7             0.0001485       -0.00014838    
  0.72            0.0002486       -0.00024846    
  0.74            0.00039558      -0.00039544    
  0.76            0.00059712      -0.00059698    
  0.78            0.00085954      -0.0008594     
  0.8             0.0011844       -0.001183      
  0.82            0.0015654       -0.001564      
  0.84            0.0020008       -0.0019994     
  0.86            0.0024834       -0.002482      
  0.88            0.0030046       -0.003003      
  0.9             0.0035626       -0.0035606     
  0.92            0.0041478       -0.0041458     
  0.94            0.0047596       -0.0047582     
  0.96            0.0053906       -0.0053894     
  0.98            0.0060428       -0.0060416     
  1               0.0067076       -0.0067064     
END_DB

