! VERSION = 6.00
BEGIN_HEADER
 ICCAP_INPUTS
  vc         V  cathode GROUND SMU1 0.1 CON        0
  va         V  anode GROUND SMU2 0.1 LIN        1    0          1          51   0.02      
 ICCAP_OUTPUTS
  ia         I  anode GROUND SMU2 B
  ic         I  cathode GROUND SMU1 B
 ICCAP_VALUES
  DataOrigin "Measure"
  ___CONTEXT ""
  Date "Jan 13 Thu 13:57:30 2022"
  Version "WaferPro.2016.01"
  Bench "B1500_B2200"
  Temperature "27"
  Lot "M135205"
  Reticle "M135205"
  Wafer "01D2"
  Die "X-3-Y0"
  DieList "TargetDie"
  Block "WholeDie"
  Subsite "diod2-5V"
  Routine "DIODE_EXTR_Measure"
  MeasCond "Set1"
  Device "3"
  DeviceName "pdiode_Dp5_A032B320"
  DevTechno "DIO"
  DevPolarity "P"
  Setup "iv_fwd"
  Type "-1"
  ___SPICE_INSTANCE ""
  A "3.2E-007"
  B "3.2E-005"
  ___TECHNO_INSTANCE ""
  ___CALIBRATION ""
END_HEADER

BEGIN_DB
 ICCAP_VAR vc         0              

 #va              ia              ic             
  0               1.02e-012       1.78e-012      
  0.02            6e-013          2.62e-012      
  0.04            8e-014          2.6e-012       
  0.06            2.2e-013        1.94e-012      
  0.08            4.6e-013        1.38e-012      
  0.1             1.12e-012       7.8e-013       
  0.12            2.56e-012       5e-013         
  0.14            3.86e-012       -9.6e-013      
  0.16            5.2e-012        -2.2e-012      
  0.18            8.3e-012        -5.38e-012     
  0.2             1.304e-011      -1.13e-011     
  0.22            2.092e-011      -1.984e-011    
  0.24            3.452e-011      -3.192e-011    
  0.26            5.562e-011      -5.298e-011    
  0.28            8.824e-011      -8.384e-011    
  0.3             1.3938e-010     -1.337e-010    
  0.32            2.1968e-010     -2.1224e-010   
  0.34            3.4432e-010     -3.3382e-010   
  0.36            5.4064e-010     -5.2088e-010   
  0.38            8.4892e-010     -8.1088e-010   
  0.4             1.3364e-009     -1.2524e-009   
  0.42            2.1106e-009     -1.9342e-009   
  0.44            3.3486e-009     -2.9742e-009   
  0.46            5.372e-009      -4.5702e-009   
  0.48            8.716e-009      -7.0034e-009   
  0.5             1.4406e-008     -1.0746e-008   
  0.52            2.4248e-008     -1.6454e-008   
  0.54            4.1738e-008     -2.907e-008    
  0.56            7.4216e-008     -6.3148e-008   
  0.58            1.357e-007      -1.2602e-007   
  0.6             2.5526e-007     -2.4876e-007   
  0.62            4.906e-007      -4.8792e-007   
  0.64            9.6108e-007     -9.5638e-007   
  0.66            1.9016e-006     -1.901e-006    
  0.68            3.788e-006      -3.785e-006    
  0.7             7.5396e-006     -7.5356e-006   
  0.72            1.485e-005      -1.4844e-005   
  0.74            2.886e-005      -2.8846e-005   
  0.76            5.4678e-005     -5.4666e-005   
  0.78            0.00010045      -0.000100424   
  0.8             0.00017676      -0.00017664    
  0.82            0.00029432      -0.00029418    
  0.84            0.00046338      -0.00046324    
  0.86            0.00068952      -0.00068936    
  0.88            0.00097382      -0.00097358    
  0.9             0.0013194       -0.001318      
  0.92            0.0017204       -0.001719      
  0.94            0.0021788       -0.0021774     
  0.96            0.0026886       -0.0026872     
  0.98            0.0032506       -0.003249      
  1               0.003857        -0.0038556     
END_DB

