! VERSION = 6.00
BEGIN_HEADER
 ICCAP_INPUTS
  vc         V  cathode GROUND SMU1 0.1 CON        0
  va         V  anode GROUND SMU2 0.1 LIN        1    -15        0          151  0.1       
 ICCAP_OUTPUTS
  ia         I  anode GROUND SMU2 B
  ic         I  cathode GROUND SMU1 B
 ICCAP_VALUES
  DataOrigin "Measure"
  ___CONTEXT ""
  Date "Jan 13 Thu 14:02:22 2022"
  Version "WaferPro.2016.01"
  Bench "B1500_B2200"
  Temperature "27"
  Lot "M135205"
  Reticle "M135205"
  Wafer "01D2"
  Die "X-3-Y0"
  DieList "TargetDie"
  Block "WholeDie"
  Subsite "diod2-5V"
  Routine "DIODE_EXTR_Measure"
  MeasCond "Set1"
  Device "7"
  DeviceName "pdiode_Dp5_A032B640"
  DevTechno "DIO"
  DevPolarity "P"
  Setup "iv_rev"
  Type "-1"
  ___SPICE_INSTANCE ""
  A "3.2E-007"
  B "6.4E-005"
  ___TECHNO_INSTANCE ""
  ___CALIBRATION ""
END_HEADER

BEGIN_DB
 ICCAP_VAR vc         0              

 #va              ia              ic             
  -15             -0.01492        0.015364       
  -14.9           -0.014138       0.014258       
  -14.8           -0.013488       0.013562       
  -14.7           -0.012866       0.012924       
  -14.6           -0.012246       0.012292       
  -14.5           -0.011624       0.011662       
  -14.4           -0.010998       0.01103        
  -14.3           -0.01035        0.01038        
  -14.2           -0.0097004      0.0097196      
  -14.1           -0.0090212      0.0090372      
  -14             -0.0083336      0.0083486      
  -13.9           -0.007633       0.0076444      
  -13.8           -0.0069068      0.0069158      
  -13.7           -0.0061692      0.006177       
  -13.6           -0.005416       0.0054198      
  -13.5           -0.0046482      0.0046522      
  -13.4           -0.0038608      0.003862       
  -13.3           -0.0030666      0.0030626      
  -13.2           -0.0022572      0.0022532      
  -13.1           -0.0014304      0.001419       
  -13             -0.00057686     0.00055054     
  -12.9           -5.617e-008     3.816e-008     
  -12.8           -6.2764e-009    6.0226e-009    
  -12.7           -3.0034e-009    2.9068e-009    
  -12.6           -1.92e-009      1.859e-009     
  -12.5           -1.3788e-009    1.3332e-009    
  -12.4           -1.0624e-009    1.0266e-009    
  -12.3           -8.5662e-010    8.2788e-010    
  -12.2           -7.0628e-010    6.863e-010     
  -12.1           -5.9746e-010    5.8334e-010    
  -12             -5.1276e-010    5.0074e-010    
  -11.9           -4.4618e-010    4.3738e-010    
  -11.8           -3.9298e-010    3.8594e-010    
  -11.7           -3.5142e-010    3.4416e-010    
  -11.6           -3.1316e-010    3.085e-010     
  -11.5           -2.8378e-010    2.7998e-010    
  -11.4           -2.5546e-010    2.5446e-010    
  -11.3           -2.3328e-010    2.3116e-010    
  -11.2           -2.1248e-010    2.1182e-010    
  -11.1           -1.9618e-010    1.9498e-010    
  -11             -1.8048e-010    1.7982e-010    
  -10.9           -1.665e-010     1.6502e-010    
  -10.8           -1.5464e-010    1.5392e-010    
  -10.7           -1.4336e-010    1.4302e-010    
  -10.6           -1.3332e-010    1.3408e-010    
  -10.5           -1.2346e-010    1.2402e-010    
  -10.4           -1.1562e-010    1.1586e-010    
  -10.3           -1.0814e-010    1.0866e-010    
  -10.2           -1.025e-010     1.0214e-010    
  -10.1           -9.514e-011     9.476e-011     
  -10             -8.958e-011     8.882e-011     
  -9.9            -8.466e-011     8.448e-011     
  -9.8            -7.96e-011      8.018e-011     
  -9.7            -7.436e-011     7.576e-011     
  -9.6            -7.012e-011     6.98e-011      
  -9.5            -6.678e-011     6.646e-011     
  -9.4            -6.316e-011     6.278e-011     
  -9.3            -5.96e-011      5.898e-011     
  -9.2            -5.612e-011     5.484e-011     
  -9.1            -5.358e-011     5.288e-011     
  -9              -5.092e-011     5.092e-011     
  -8.9            -4.778e-011     4.79e-011      
  -8.8            -4.464e-011     4.48e-011      
  -8.7            -4.274e-011     4.148e-011     
  -8.6            -4.11e-011      4.008e-011     
  -8.5            -3.906e-011     3.778e-011     
  -8.4            -3.724e-011     3.516e-011     
  -8.3            -3.48e-011      3.336e-011     
  -8.2            -3.418e-011     3.282e-011     
  -8.1            -3.182e-011     3.096e-011     
  -8              -2.998e-011     2.878e-011     
  -7.9            -2.864e-011     2.698e-011     
  -7.8            -2.78e-011      2.522e-011     
  -7.7            -2.636e-011     2.456e-011     
  -7.6            -2.516e-011     2.196e-011     
  -7.5            -2.426e-011     2.142e-011     
  -7.4            -2.302e-011     2.016e-011     
  -7.3            -2.206e-011     1.992e-011     
  -7.2            -2.01e-011      1.8e-011       
  -7.1            -1.978e-011     1.69e-011      
  -7              -1.914e-011     1.614e-011     
  -6.9            -1.898e-011     1.5e-011       
  -6.8            -1.71e-011      1.36e-011      
  -6.7            -1.664e-011     1.168e-011     
  -6.6            -1.598e-011     1.202e-011     
  -6.5            -1.56e-011      1.152e-011     
  -6.4            -1.482e-011     1.13e-011      
  -6.3            -1.32e-011      8.18e-012      
  -6.2            -1.324e-011     8.74e-012      
  -6.1            -1.3e-011       7.3e-012       
  -6              -1.302e-011     7.12e-012      
  -5.9            -1.148e-011     5.64e-012      
  -5.8            -1.192e-011     5.28e-012      
  -5.7            -1.068e-011     5.36e-012      
  -5.6            -1.076e-011     4.68e-012      
  -5.5            -9.46e-012      3.88e-012      
  -5.4            -9.62e-012      2.08e-012      
  -5.3            -9.18e-012      2.62e-012      
  -5.2            -9.18e-012      1.08e-012      
  -5.1            -9.02e-012      9.2e-013       
  -5              -7.98e-012      -5.6e-013      
  -4.9            -8.64e-012      4e-013         
  -4.8            -7.38e-012      -7.8e-013      
  -4.7            -7.44e-012      -8.2e-013      
  -4.6            -6.32e-012      -2.98e-012     
  -4.5            -7.16e-012      -3e-012        
  -4.4            -6.52e-012      -2.98e-012     
  -4.3            -6.74e-012      -4.66e-012     
  -4.2            -5.84e-012      -5.26e-012     
  -4.1            -6.06e-012      -6.02e-012     
  -4              -5.88e-012      -4.64e-012     
  -3.9            -5.5e-012       -6.22e-012     
  -3.8            -5.1e-012       -6.38e-012     
  -3.7            -4.92e-012      -8.48e-012     
  -3.6            -5.52e-012      -7.5e-012      
  -3.5            -4.74e-012      -9.34e-012     
  -3.4            -4.96e-012      -1.014e-011    
  -3.3            -4.2e-012       -1.118e-011    
  -3.2            -4.88e-012      -1.034e-011    
  -3.1            -3.98e-012      -1.06e-011     
  -3              -3.92e-012      -1.262e-011    
  -2.9            -3.24e-012      -1.298e-011    
  -2.8            -4.24e-012      -1.412e-011    
  -2.7            -3.94e-012      -1.348e-011    
  -2.6            -3.88e-012      -1.562e-011    
  -2.5            -3.52e-012      -1.584e-011    
  -2.4            -3.2e-012       -1.698e-011    
  -2.3            -3.72e-012      -1.576e-011    
  -2.2            -2.72e-012      -1.782e-011    
  -2.1            -2.9e-012       -1.842e-011    
  -2              -2.54e-012      -2.022e-011    
  -1.9            -3.26e-012      -2.01e-011     
  -1.8            -2.42e-012      -2.132e-011    
  -1.7            -2.74e-012      -2.25e-011     
  -1.6            -2.28e-012      -2.278e-011    
  -1.5            -2.44e-012      -2.34e-011     
  -1.4            -1.78e-012      -2.326e-011    
  -1.3            -1.52e-012      -2.576e-011    
  -1.2            -1.62e-012      -2.586e-011    
  -1.1            -1.78e-012      -2.73e-011     
  -1              -1.82e-012      -2.738e-011    
  -0.9            -8.6e-013       -2.984e-011    
  -0.8            -1.24e-012      -2.944e-011    
  -0.7            -1e-012         -3.014e-011    
  -0.6            -1.06e-012      -3e-011        
  -0.5            -1.6e-013       -3.182e-011    
  -0.4            0               -3.348e-011    
  -0.3            -2.2e-013       -3.348e-011    
  -0.2            -5.6e-013       -3.428e-011    
  -0.1            -8e-014         -3.502e-011    
  0               2.8e-013        -3.718e-011    
END_DB

