! VERSION = 6.00
BEGIN_HEADER
 ICCAP_INPUTS
  vc         V  cathode GROUND SMU1 0.1 CON        0
  va         V  anode GROUND SMU2 0.1 LIN        1    0          1          51   0.02      
 ICCAP_OUTPUTS
  ia         I  anode GROUND SMU2 B
  ic         I  cathode GROUND SMU1 B
 ICCAP_VALUES
  DataOrigin "Measure"
  ___CONTEXT ""
  Date "Jan 13 Thu 13:58:43 2022"
  Version "WaferPro.2016.01"
  Bench "B1500_B2200"
  Temperature "27"
  Lot "M135205"
  Reticle "M135205"
  Wafer "01D2"
  Die "X-3-Y0"
  DieList "TargetDie"
  Block "WholeDie"
  Subsite "diod2-5V"
  Routine "DIODE_EXTR_Measure"
  MeasCond "Set1"
  Device "4"
  DeviceName "pdiode_Dp5_A32B32"
  DevTechno "DIO"
  DevPolarity "P"
  Setup "iv_fwd"
  Type "-1"
  ___SPICE_INSTANCE ""
  A "3.2E-006"
  B "3.2E-006"
  ___TECHNO_INSTANCE ""
  ___CALIBRATION ""
END_HEADER

BEGIN_DB
 ICCAP_VAR vc         0              

 #va              ia              ic             
  0               4.8e-013        3.1e-012       
  0.02            4.8e-013        2.74e-012      
  0.04            4.4e-013        2.74e-012      
  0.06            3.4e-013        2.22e-012      
  0.08            3.4e-013        2.48e-012      
  0.1             6.4e-013        2.04e-012      
  0.12            5.4e-013        1.72e-012      
  0.14            6.2e-013        2.44e-012      
  0.16            9.4e-013        2.88e-012      
  0.18            9.6e-013        2.54e-012      
  0.2             1.12e-012       2.82e-012      
  0.22            1.68e-012       1.74e-012      
  0.24            2.38e-012       8.6e-013       
  0.26            3.66e-012       -1.22e-012     
  0.28            5.94e-012       -3.24e-012     
  0.3             9.72e-012       -6.88e-012     
  0.32            1.526e-011      -1.154e-011    
  0.34            2.474e-011      -1.908e-011    
  0.36            4.078e-011      -3.128e-011    
  0.38            6.712e-011      -5.038e-011    
  0.4             1.135e-010      -7.95e-011     
  0.42            1.9628e-010     -1.2768e-010   
  0.44            3.47e-010       -2.0162e-010   
  0.46            6.3048e-010     -3.194e-010    
  0.48            1.1736e-009     -5.0526e-010   
  0.5             2.2494e-009     -8.1398e-010   
  0.52            4.388e-009      -1.3206e-009   
  0.54            8.7258e-009     -2.19e-009     
  0.56            1.7634e-008     -7.6184e-009   
  0.58            3.6324e-008     -3.028e-008    
  0.6             7.583e-008      -6.333e-008    
  0.62            1.5912e-007     -1.54e-007     
  0.64            3.3598e-007     -3.3468e-007   
  0.66            7.066e-007      -7.0492e-007   
  0.68            1.4884e-006     -1.487e-006    
  0.7             3.108e-006      -3.105e-006    
  0.72            6.3692e-006     -6.3642e-006   
  0.74            1.2738e-005     -1.2732e-005   
  0.76            2.4278e-005     -2.4264e-005   
  0.78            4.363e-005      -4.3618e-005   
  0.8             7.3048e-005     -7.3036e-005   
  0.82            0.000113584     -0.000113572   
  0.84            0.00016564      -0.00016552    
  0.86            0.00022828      -0.00022816    
  0.88            0.00030018      -0.00030004    
  0.9             0.00038078      -0.00038064    
  0.92            0.00046864      -0.0004685     
  0.94            0.00056382      -0.00056368    
  0.96            0.00066542      -0.00066526    
  0.98            0.00077422      -0.00077406    
  1               0.00088956      -0.00088938    
END_DB

