! VERSION = 6.00
BEGIN_HEADER
 ICCAP_INPUTS
  vc         V  cathode GROUND SMU1 0.1 CON        0
  va         V  anode GROUND SMU2 0.1 LIN        1    0          1          51   0.02      
 ICCAP_OUTPUTS
  ia         I  anode GROUND SMU2 B
  ic         I  cathode GROUND SMU1 B
 ICCAP_VALUES
  DataOrigin "Measure"
  ___CONTEXT ""
  Date "Jan 13 Thu 14:01:10 2022"
  Version "WaferPro.2016.01"
  Bench "B1500_B2200"
  Temperature "27"
  Lot "M135205"
  Reticle "M135205"
  Wafer "01D2"
  Die "X-3-Y0"
  DieList "TargetDie"
  Block "WholeDie"
  Subsite "diod2-5V"
  Routine "DIODE_EXTR_Measure"
  MeasCond "Set1"
  Device "6"
  DeviceName "pdiode_Dp5_A320B320"
  DevTechno "DIO"
  DevPolarity "P"
  Setup "iv_fwd"
  Type "-1"
  ___SPICE_INSTANCE ""
  A "3.2E-005"
  B "3.2E-005"
  ___TECHNO_INSTANCE ""
  ___CALIBRATION ""
END_HEADER

BEGIN_DB
 ICCAP_VAR vc         0              

 #va              ia              ic             
  0               1.2e-012        3.94e-012      
  0.02            4e-013          4.04e-012      
  0.04            7.4e-013        4.88e-012      
  0.06            1.76e-012       4.42e-012      
  0.08            1.1e-012        4.34e-012      
  0.1             8.4e-013        5.4e-012       
  0.12            1.52e-012       4.26e-012      
  0.14            1.08e-012       3.18e-012      
  0.16            1.94e-012       2.74e-012      
  0.18            3.86e-012       4.6e-013       
  0.2             6.56e-012       -2.78e-012     
  0.22            1.142e-011      -5.2e-012      
  0.24            2.04e-011       -1.136e-011    
  0.26            3.45e-011       -2.044e-011    
  0.28            6.038e-011      -3.484e-011    
  0.3             1.0836e-010     -5.862e-011    
  0.32            1.9776e-010     -9.78e-011     
  0.34            3.697e-010      -1.606e-010    
  0.36            7.126e-010      -2.6448e-010   
  0.38            1.395e-009      -4.367e-010    
  0.4             2.7896e-009     -7.3016e-010   
  0.42            5.6626e-009     -1.247e-009    
  0.44            1.0226e-008     -2.4352e-009   
  0.46            2.018e-008      -1.6818e-008   
  0.48            4.1926e-008     -3.5346e-008   
  0.5             8.7536e-008     -7.4766e-008   
  0.52            1.8336e-007     -1.738e-007    
  0.54            3.8588e-007     -3.809e-007    
  0.56            8.1536e-007     -8.0964e-007   
  0.58            1.7158e-006     -1.713e-006    
  0.6             3.6062e-006     -3.6034e-006   
  0.62            7.4894e-006     -7.4852e-006   
  0.64            1.531e-005      -1.5302e-005   
  0.66            3.026e-005      -3.0246e-005   
  0.68            5.761e-005      -5.7592e-005   
  0.7             0.000104602     -0.000104584   
  0.72            0.00018018      -0.00018006    
  0.74            0.00029564      -0.00029552    
  0.76            0.0004611       -0.00046096    
  0.78            0.00068692      -0.00068674    
  0.8             0.00097854      -0.0009784     
  0.82            0.0013368       -0.0013352     
  0.84            0.0017598       -0.0017584     
  0.86            0.0022422       -0.0022406     
  0.88            0.0027752       -0.0027736     
  0.9             0.0033562       -0.0033548     
  0.92            0.0039746       -0.003973      
  0.94            0.0046292       -0.0046276     
  0.96            0.0053098       -0.005308      
  0.98            0.0060176       -0.0060156     
  1               0.0067424       -0.0067406     
END_DB

