! VERSION = 6.00
BEGIN_HEADER
 ICCAP_INPUTS
  vc         V  cathode GROUND SMU1 0.1 CON        0
  va         V  anode GROUND SMU2 0.1 LIN        1    -15        0          151  0.1       
 ICCAP_OUTPUTS
  ia         I  anode GROUND SMU2 B
  ic         I  cathode GROUND SMU1 B
 ICCAP_VALUES
  DataOrigin "Measure"
  ___CONTEXT ""
  Date "Jan 13 Thu 13:55:04 2022"
  Version "WaferPro.2016.01"
  Bench "B1500_B2200"
  Temperature "27"
  Lot "M135205"
  Reticle "M135205"
  Wafer "01D2"
  Die "X-3-Y0"
  DieList "TargetDie"
  Block "WholeDie"
  Subsite "diod2-5V"
  Routine "DIODE_EXTR_Measure"
  MeasCond "Set1"
  Device "1"
  DeviceName "pdiode_Dp5_A032B032"
  DevTechno "DIO"
  DevPolarity "P"
  Setup "iv_rev"
  Type "-1"
  ___SPICE_INSTANCE ""
  A "3.2E-007"
  B "3.2E-007"
  ___TECHNO_INSTANCE ""
  ___CALIBRATION ""
END_HEADER

BEGIN_DB
 ICCAP_VAR vc         0              

 #va              ia              ic             
  -15             -0.00011652     0.00012196     
  -14.9           -0.0001074      0.00010888     
  -14.8           -9.8062e-005    9.8866e-005    
  -14.7           -8.8986e-005    8.9414e-005    
  -14.6           -8.0962e-005    8.1062e-005    
  -14.5           -7.1264e-005    7.2072e-005    
  -14.4           -6.1626e-005    6.1544e-005    
  -14.3           -5.219e-005     5.2526e-005    
  -14.2           -4.3448e-005    4.3426e-005    
  -14.1           -3.3692e-005    3.3838e-005    
  -14             -2.456e-005     2.4056e-005    
  -13.9           -1.024e-005     1.0556e-005    
  -13.8           -5.2444e-007    5.8426e-007    
  -13.7           -1.4638e-008    4.7578e-009    
  -13.6           -4.7126e-010    1.9928e-010    
  -13.5           -8.568e-011     4.32e-012      
  -13.4           -4.112e-011     -3.094e-011    
  -13.3           -2.528e-011     -3.902e-011    
  -13.2           -1.756e-011     -3.816e-011    
  -13.1           -1.282e-011     -3.864e-011    
  -13             -1.054e-011     -3.586e-011    
  -12.9           -9.22e-012      -3.658e-011    
  -12.8           -7.14e-012      -3.372e-011    
  -12.7           -6.12e-012      -3.254e-011    
  -12.6           -5.2e-012       -3.078e-011    
  -12.5           -4.98e-012      -3.192e-011    
  -12.4           -4.28e-012      -3.052e-011    
  -12.3           -3.5e-012       -2.938e-011    
  -12.2           -3.22e-012      -2.878e-011    
  -12.1           -3.1e-012       -2.732e-011    
  -12             -2.92e-012      -2.83e-011     
  -11.9           -2.46e-012      -2.586e-011    
  -11.8           -2.3e-012       -2.692e-011    
  -11.7           -2.34e-012      -2.576e-011    
  -11.6           -2.14e-012      -2.698e-011    
  -11.5           -1.52e-012      -2.548e-011    
  -11.4           -1.64e-012      -2.582e-011    
  -11.3           -1.48e-012      -2.544e-011    
  -11.2           -1.6e-012       -2.544e-011    
  -11.1           -1.18e-012      -2.49e-011     
  -11             -1.14e-012      -2.456e-011    
  -10.9           -1.34e-012      -2.526e-011    
  -10.8           -1.32e-012      -2.53e-011     
  -10.7           -8.8e-013       -2.576e-011    
  -10.6           -6.8e-013       -2.412e-011    
  -10.5           -7.6e-013       -2.534e-011    
  -10.4           -1.14e-012      -2.476e-011    
  -10.3           -8.8e-013       -2.51e-011     
  -10.2           -5.4e-013       -2.414e-011    
  -10.1           -7.6e-013       -2.494e-011    
  -10             -8.4e-013       -2.544e-011    
  -9.9            -7.2e-013       -2.596e-011    
  -9.8            -3e-013         -2.55e-011     
  -9.7            -2.4e-013       -2.524e-011    
  -9.6            -7.8e-013       -2.598e-011    
  -9.5            -6.4e-013       -2.55e-011     
  -9.4            -3.8e-013       -2.548e-011    
  -9.3            -2.4e-013       -2.484e-011    
  -9.2            -6.6e-013       -2.68e-011     
  -9.1            -4.8e-013       -2.7e-011      
  -9              -3.8e-013       -2.712e-011    
  -8.9            -8e-014         -2.622e-011    
  -8.8            -4e-013         -2.712e-011    
  -8.7            -4.4e-013       -2.738e-011    
  -8.6            -2e-013         -2.676e-011    
  -8.5            -2e-014         -2.666e-011    
  -8.4            -4.2e-013       -2.73e-011     
  -8.3            -4e-013         -2.814e-011    
  -8.2            -1e-013         -2.812e-011    
  -8.1            2e-014          -2.852e-011    
  -8              -1.6e-013       -2.84e-011     
  -7.9            -6.4e-013       -2.916e-011    
  -7.8            -2e-013         -2.862e-011    
  -7.7            0               -2.842e-011    
  -7.6            -1.2e-013       -2.87e-011     
  -7.5            -4.4e-013       -3.024e-011    
  -7.4            -2.6e-013       -3.044e-011    
  -7.3            1.4e-013        -2.98e-011     
  -7.2            1e-013          -3.056e-011    
  -7.1            -2.2e-013       -3.076e-011    
  -7              -2.6e-013       -3.126e-011    
  -6.9            4e-014          -3.04e-011     
  -6.8            0               -3.04e-011     
  -6.7            -2.8e-013       -3.158e-011    
  -6.6            -3.6e-013       -3.296e-011    
  -6.5            6e-014          -3.212e-011    
  -6.4            3.6e-013        -3.262e-011    
  -6.3            -4e-014         -3.216e-011    
  -6.2            -2.2e-013       -3.27e-011     
  -6.1            6e-014          -3.278e-011    
  -6              1e-013          -3.246e-011    
  -5.9            -1e-013         -3.368e-011    
  -5.8            -1.4e-013       -3.42e-011     
  -5.7            8e-014          -3.498e-011    
  -5.6            1.2e-013        -3.424e-011    
  -5.5            -1.4e-013       -3.49e-011     
  -5.4            -1.8e-013       -3.526e-011    
  -5.3            6e-014          -3.48e-011     
  -5.2            2.6e-013        -3.444e-011    
  -5.1            4e-014          -3.538e-011    
  -5              -3.8e-013       -3.668e-011    
  -4.9            -1e-013         -3.678e-011    
  -4.8            2.6e-013        -3.676e-011    
  -4.7            1.2e-013        -3.628e-011    
  -4.6            -2.2e-013       -3.772e-011    
  -4.5            -1.4e-013       -3.75e-011     
  -4.4            2e-013          -3.704e-011    
  -4.3            3.4e-013        -3.724e-011    
  -4.2            -1.4e-013       -3.846e-011    
  -4.1            -1.6e-013       -3.934e-011    
  -4              1.6e-013        -3.87e-011     
  -3.9            3.2e-013        -3.944e-011    
  -3.8            8e-014          -3.94e-011     
  -3.7            -1.2e-013       -4.068e-011    
  -3.6            8e-014          -3.938e-011    
  -3.5            1.2e-013        -4.014e-011    
  -3.4            -2e-014         -4.076e-011    
  -3.3            -1.2e-013       -4.206e-011    
  -3.2            6e-014          -4.166e-011    
  -3.1            2.4e-013        -4.18e-011     
  -3              1e-013          -4.192e-011    
  -2.9            -2e-013         -4.286e-011    
  -2.8            1.6e-013        -4.316e-011    
  -2.7            3e-013          -4.212e-011    
  -2.6            1e-013          -4.346e-011    
  -2.5            -1.2e-013       -4.414e-011    
  -2.4            4e-014          -4.544e-011    
  -2.3            3.8e-013        -4.422e-011    
  -2.2            2.8e-013        -4.512e-011    
  -2.1            0               -4.496e-011    
  -2              -1.8e-013       -4.61e-011     
  -1.9            2.2e-013        -4.476e-011    
  -1.8            2.8e-013        -4.562e-011    
  -1.7            0               -4.69e-011     
  -1.6            -3.2e-013       -4.83e-011     
  -1.5            2.4e-013        -4.784e-011    
  -1.4            4.2e-013        -4.744e-011    
  -1.3            8e-014          -4.866e-011    
  -1.2            -1.8e-013       -4.834e-011    
  -1.1            2e-014          -4.938e-011    
  -1              4e-013          -4.742e-011    
  -0.9            1.4e-013        -4.922e-011    
  -0.8            -1.2e-013       -5.004e-011    
  -0.7            -2e-014         -5.162e-011    
  -0.6            4.2e-013        -5.004e-011    
  -0.5            3.4e-013        -5.098e-011    
  -0.4            1.4e-013        -5.096e-011    
  -0.3            -4e-014         -5.158e-011    
  -0.2            3e-013          -5.15e-011     
  -0.1            2.8e-013        -5.126e-011    
  0               8e-014          -5.258e-011    
END_DB

