! VERSION = 6.00
BEGIN_HEADER
 ICCAP_INPUTS
  vc         V  cathode GROUND SMU1 0.1 CON        0
  va         V  anode GROUND SMU2 0.1 LIN        1    0          1          51   0.02      
 ICCAP_OUTPUTS
  ia         I  anode GROUND SMU2 B
  ic         I  cathode GROUND SMU1 B
 ICCAP_VALUES
  DataOrigin "Measure"
  ___CONTEXT ""
  Date "Jan 13 Thu 14:03:35 2022"
  Version "WaferPro.2016.01"
  Bench "B1500_B2200"
  Temperature "27"
  Lot "M135205"
  Reticle "M135205"
  Wafer "01D2"
  Die "X-3-Y0"
  DieList "TargetDie"
  Block "WholeDie"
  Subsite "diod2-5V"
  Routine "DIODE_EXTR_Measure"
  MeasCond "Set1"
  Device "8"
  DeviceName "pdiode_Dp5_A064B640"
  DevTechno "DIO"
  DevPolarity "P"
  Setup "iv_fwd"
  Type "-1"
  ___SPICE_INSTANCE ""
  A "6.4E-007"
  B "6.4E-005"
  ___TECHNO_INSTANCE ""
  ___CALIBRATION ""
END_HEADER

BEGIN_DB
 ICCAP_VAR vc         0              

 #va              ia              ic             
  0               1.56e-012       5.58e-012      
  0.02            -6e-013         4.36e-012      
  0.04            1.34e-012       5.04e-012      
  0.06            1.9e-012        5.08e-012      
  0.08            1.24e-012       3.44e-012      
  0.1             2.82e-012       2.94e-012      
  0.12            3.62e-012       2.68e-012      
  0.14            5.5e-012        3.8e-013       
  0.16            8.5e-012        -1.78e-012     
  0.18            1.276e-011      -5.86e-012     
  0.2             2.144e-011      -1.462e-011    
  0.22            3.38e-011       -2.816e-011    
  0.24            5.548e-011      -4.742e-011    
  0.26            8.866e-011      -7.962e-011    
  0.28            1.4164e-010     -1.3026e-010   
  0.3             2.2698e-010     -2.0806e-010   
  0.32            3.6136e-010     -3.3072e-010   
  0.34            5.8074e-010     -5.2106e-010   
  0.36            9.1884e-010     -8.1364e-010   
  0.38            1.4604e-009     -1.2668e-009   
  0.4             2.3328e-009     -1.9636e-009   
  0.42            3.7358e-009     -3.0372e-009   
  0.44            5.9744e-009     -4.685e-009    
  0.46            9.6176e-009     -7.2408e-009   
  0.48            1.5682e-008     -1.1184e-008   
  0.5             2.67e-008       -1.7346e-008   
  0.52            4.6394e-008     -3.093e-008    
  0.54            8.3452e-008     -6.1862e-008   
  0.56            1.5522e-007     -1.4086e-007   
  0.58            2.9596e-007     -2.7986e-007   
  0.6             5.7934e-007     -5.7076e-007   
  0.62            1.1526e-006     -1.14626e-006  
  0.64            2.3278e-006     -2.3218e-006   
  0.66            4.7182e-006     -4.7152e-006   
  0.68            9.5948e-006     -9.5906e-006   
  0.7             1.941e-005      -1.941e-005    
  0.72            3.8602e-005     -3.8592e-005   
  0.74            7.5306e-005     -7.529e-005    
  0.76            0.00014172      -0.00014162    
  0.78            0.00025492      -0.00025476    
  0.8             0.00043274      -0.0004326     
  0.82            0.00068852      -0.00068836    
  0.84            0.00103218      -0.001032      
  0.86            0.0014662       -0.0014648     
  0.88            0.0019846       -0.001983      
  0.9             0.002588        -0.0025866     
  0.92            0.0032662       -0.0032648     
  0.94            0.0040184       -0.0040168     
  0.96            0.0048324       -0.0048308     
  0.98            0.005709        -0.0057072     
  1               0.0066354       -0.0066336     
END_DB

