! VERSION = 6.00
BEGIN_HEADER
 ICCAP_INPUTS
  vc         V  cathode GROUND SMU1 0.1 CON        0
  va         V  anode GROUND SMU2 0.1 LIN        1    0          1          51   0.02      
 ICCAP_OUTPUTS
  ia         I  anode GROUND SMU2 B
  ic         I  cathode GROUND SMU1 B
 ICCAP_VALUES
  DataOrigin "Measure"
  ___CONTEXT ""
  Date "Jan 13 Thu 13:55:04 2022"
  Version "WaferPro.2016.01"
  Bench "B1500_B2200"
  Temperature "27"
  Lot "M135205"
  Reticle "M135205"
  Wafer "01D2"
  Die "X-3-Y0"
  DieList "TargetDie"
  Block "WholeDie"
  Subsite "diod2-5V"
  Routine "DIODE_EXTR_Measure"
  MeasCond "Set1"
  Device "1"
  DeviceName "pdiode_Dp5_A032B032"
  DevTechno "DIO"
  DevPolarity "P"
  Setup "iv_fwd"
  Type "-1"
  ___SPICE_INSTANCE ""
  A "3.2E-007"
  B "3.2E-007"
  ___TECHNO_INSTANCE ""
  ___CALIBRATION ""
END_HEADER

BEGIN_DB
 ICCAP_VAR vc         0              

 #va              ia              ic             
  0               1.4e-013        -1.2712e-010   
  0.02            3.6e-013        -7.572e-011    
  0.04            1.8e-013        -6.668e-011    
  0.06            2.8e-013        -5.864e-011    
  0.08            1.4e-013        -5.284e-011    
  0.1             -4e-014         -4.92e-011     
  0.12            -1.8e-013       -4.512e-011    
  0.14            -8e-014         -4.114e-011    
  0.16            1e-013          -3.88e-011     
  0.18            4.4e-013        -3.624e-011    
  0.2             4.4e-013        -3.324e-011    
  0.22            6.6e-013        -3.212e-011    
  0.24            7.8e-013        -3.19e-011     
  0.26            8.2e-013        -3.046e-011    
  0.28            1.26e-012       -3.036e-011    
  0.3             2.22e-012       -3.066e-011    
  0.32            3.68e-012       -3.042e-011    
  0.34            5.9e-012        -3.128e-011    
  0.36            9.66e-012       -3.396e-011    
  0.38            1.534e-011      -3.8e-011      
  0.4             2.446e-011      -4.54e-011     
  0.42            3.932e-011      -5.806e-011    
  0.44            6.414e-011      -7.736e-011    
  0.46            1.065e-010      -1.0708e-010   
  0.48            1.8038e-010     -1.5528e-010   
  0.5             3.1184e-010     -2.3132e-010   
  0.52            5.51e-010       -3.545e-010    
  0.54            9.9808e-010     -5.72e-010     
  0.56            1.8608e-009     -1.03008e-009  
  0.58            3.5354e-009     -2.6618e-009   
  0.6             6.8702e-009     -6.1008e-009   
  0.62            1.3528e-008     -1.2504e-008   
  0.64            2.6906e-008     -2.4806e-008   
  0.66            5.3486e-008     -5.16e-008     
  0.68            1.05864e-007    -1.04356e-007  
  0.7             2.0732e-007     -2.0676e-007   
  0.72            3.9602e-007     -3.9542e-007   
  0.74            7.3858e-007     -7.3822e-007   
  0.76            1.3332e-006     -1.3324e-006   
  0.78            2.3256e-006     -2.3244e-006   
  0.8             3.8968e-006     -3.8954e-006   
  0.82            6.2192e-006     -6.2174e-006   
  0.84            9.4264e-006     -9.4256e-006   
  0.86            1.3546e-005     -1.3534e-005   
  0.88            1.8472e-005     -1.846e-005    
  0.9             2.4142e-005     -2.4128e-005   
  0.92            3.038e-005      -3.0368e-005   
  0.94            3.7134e-005     -3.712e-005    
  0.96            4.4248e-005     -4.4236e-005   
  0.98            5.1702e-005     -5.1694e-005   
  1               5.94e-005       -5.9388e-005   
END_DB

