! VERSION = 6.00
BEGIN_HEADER
 ICCAP_INPUTS
  vc         V  cathode GROUND SMU1 0.1 CON        0
  va         V  anode GROUND SMU2 0.1 LIN        1    0          1          51   0.02      
 ICCAP_OUTPUTS
  ia         I  anode GROUND SMU2 B
  ic         I  cathode GROUND SMU1 B
 ICCAP_VALUES
  DataOrigin "Measure"
  ___CONTEXT ""
  Date "Jan 13 Thu 13:56:17 2022"
  Version "WaferPro.2016.01"
  Bench "B1500_B2200"
  Temperature "27"
  Lot "M135205"
  Reticle "M135205"
  Wafer "01D2"
  Die "X-3-Y0"
  DieList "TargetDie"
  Block "WholeDie"
  Subsite "diod2-5V"
  Routine "DIODE_EXTR_Measure"
  MeasCond "Set1"
  Device "2"
  DeviceName "pdiode_Dp5_A032B32"
  DevTechno "DIO"
  DevPolarity "P"
  Setup "iv_fwd"
  Type "-1"
  ___SPICE_INSTANCE ""
  A "3.2E-007"
  B "3.2E-006"
  ___TECHNO_INSTANCE ""
  ___CALIBRATION ""
END_HEADER

BEGIN_DB
 ICCAP_VAR vc         0              

 #va              ia              ic             
  0               1.8e-013        2.68e-012      
  0.02            2.2e-013        9.4e-013       
  0.04            5.4e-013        2.16e-012      
  0.06            6.4e-013        2.56e-012      
  0.08            4.2e-013        1.66e-012      
  0.1             3.6e-013        2.12e-012      
  0.12            2.2e-013        2.38e-012      
  0.14            2.4e-013        9.4e-013       
  0.16            5.2e-013        1.22e-012      
  0.18            9.8e-013        2.02e-012      
  0.2             1.68e-012       9.8e-013       
  0.22            2.48e-012       5.8e-013       
  0.24            3.94e-012       -3.4e-013      
  0.26            5.96e-012       -3.2e-012      
  0.28            9.02e-012       -7.14e-012     
  0.3             1.414e-011      -1.192e-011    
  0.32            2.276e-011      -2.152e-011    
  0.34            3.604e-011      -3.418e-011    
  0.36            5.718e-011      -5.332e-011    
  0.38            9.044e-011      -8.344e-011    
  0.4             1.4268e-010     -1.3156e-010   
  0.42            2.269e-010      -2.0452e-010   
  0.44            3.6136e-010     -3.1692e-010   
  0.46            5.8378e-010     -4.8954e-010   
  0.48            9.5188e-010     -7.5398e-010   
  0.5             1.5918e-009     -1.1582e-009   
  0.52            2.7024e-009     -1.7882e-009   
  0.54            4.7082e-009     -2.9282e-009   
  0.56            8.4672e-009     -6.0308e-009   
  0.58            1.5618e-008     -1.2974e-008   
  0.6             2.9622e-008     -2.59e-008     
  0.62            5.729e-008      -5.0528e-008   
  0.64            1.12752e-007    -1.04018e-007  
  0.66            2.2386e-007     -2.208e-007    
  0.68            4.4576e-007     -4.447e-007    
  0.7             8.8694e-007     -8.879e-007    
  0.72            1.7478e-006     -1.7472e-006   
  0.74            3.3978e-006     -3.3962e-006   
  0.76            6.458e-006      -6.461e-006    
  0.78            1.1958e-005     -1.195e-005    
  0.8             2.1272e-005     -2.1258e-005   
  0.82            3.5936e-005     -3.5916e-005   
  0.84            5.741e-005      -5.7392e-005   
  0.86            8.6452e-005     -8.6438e-005   
  0.88            0.00012314      -0.00012302    
  0.9             0.0001675       -0.00016736    
  0.92            0.00021896      -0.00021882    
  0.94            0.00027772      -0.00027758    
  0.96            0.00034324      -0.0003431     
  0.98            0.00041622      -0.00041606    
  1               0.00049638      -0.00049622    
END_DB

