! VERSION = 6.00
BEGIN_HEADER
 ICCAP_INPUTS
  vc         V  cathode GROUND SMU1 0.1 CON        0
  va         V  anode GROUND SMU2 0.1 LIN        1    -15        0          151  0.1       
 ICCAP_OUTPUTS
  ia         I  anode GROUND SMU2 B
  ic         I  cathode GROUND SMU1 B
 ICCAP_VALUES
  DataOrigin "Measure"
  ___CONTEXT ""
  Date "Jan 13 Thu 14:04:56 2022"
  Version "WaferPro.2016.01"
  Bench "B1500_B2200"
  Temperature "27"
  Lot "M135205"
  Reticle "M135205"
  Wafer "01D2"
  Die "X-3-Y0"
  DieList "TargetDie"
  Block "WholeDie"
  Subsite "diod2-5V"
  Routine "DIODE_EXTR_Measure"
  MeasCond "Set1"
  Device "9"
  DeviceName "pdiode_Dp5_A128B640"
  DevTechno "DIO"
  DevPolarity "P"
  Setup "iv_rev"
  Type "-1"
  ___SPICE_INSTANCE ""
  A "1.28E-006"
  B "6.4E-005"
  ___TECHNO_INSTANCE ""
  ___CALIBRATION ""
END_HEADER

BEGIN_DB
 ICCAP_VAR vc         0              

 #va              ia              ic             
  -15             -0.016276       0.016532       
  -14.9           -0.015726       0.015792       
  -14.8           -0.015252       0.015292       
  -14.7           -0.01479        0.014816       
  -14.6           -0.014334       0.014354       
  -14.5           -0.013866       0.013884       
  -14.4           -0.013392       0.013408       
  -14.3           -0.012902       0.012916       
  -14.2           -0.012402       0.012414       
  -14.1           -0.011882       0.011894       
  -14             -0.011348       0.01136        
  -13.9           -0.010802       0.010812       
  -13.8           -0.010236       0.010246       
  -13.7           -0.0096654      0.0096658      
  -13.6           -0.0090648      0.009066       
  -13.5           -0.0084526      0.0084528      
  -13.4           -0.0078192      0.00782        
  -13.3           -0.007175       0.0071738      
  -13.2           -0.0065096      0.0065084      
  -13.1           -0.0058284      0.0058278      
  -13             -0.0051374      0.0051364      
  -12.9           -0.0044266      0.0044262      
  -12.8           -0.0037076      0.0037074      
  -12.7           -0.0029696      0.002969       
  -12.6           -0.0022242      0.0022238      
  -12.5           -0.001459       0.0014586      
  -12.4           -0.00063352     0.00063148     
  -12.3           -5.3496e-009    7.884e-009     
  -12.2           -1.1046e-009    1.0174e-009    
  -12.1           -5.9942e-010    5.5724e-010    
  -12             -4.1464e-010    3.7782e-010    
  -11.9           -3.1272e-010    2.8918e-010    
  -11.8           -2.4808e-010    2.3216e-010    
  -11.7           -2.0452e-010    1.9376e-010    
  -11.6           -1.7264e-010    1.6604e-010    
  -11.5           -1.487e-010     1.4478e-010    
  -11.4           -1.2908e-010    1.2758e-010    
  -11.3           -1.1388e-010    1.13e-010      
  -11.2           -1.0228e-010    1.02e-010      
  -11.1           -9.274e-011     9.286e-011     
  -11             -8.388e-011     8.436e-011     
  -10.9           -7.596e-011     7.6e-011       
  -10.8           -6.976e-011     7.048e-011     
  -10.7           -6.414e-011     6.562e-011     
  -10.6           -5.92e-011      6.132e-011     
  -10.5           -5.396e-011     5.646e-011     
  -10.4           -4.986e-011     5.094e-011     
  -10.3           -4.656e-011     4.822e-011     
  -10.2           -4.404e-011     4.498e-011     
  -10.1           -4.09e-011      4.252e-011     
  -10             -3.76e-011      3.874e-011     
  -9.9            -3.548e-011     3.734e-011     
  -9.8            -3.31e-011      3.534e-011     
  -9.7            -3.126e-011     3.362e-011     
  -9.6            -2.832e-011     3.05e-011      
  -9.5            -2.716e-011     2.83e-011      
  -9.4            -2.562e-011     2.728e-011     
  -9.3            -2.496e-011     2.546e-011     
  -9.2            -2.254e-011     2.394e-011     
  -9.1            -2.128e-011     2.202e-011     
  -9              -2.026e-011     2.246e-011     
  -8.9            -1.932e-011     2.07e-011      
  -8.8            -1.772e-011     2.038e-011     
  -8.7            -1.66e-011      1.776e-011     
  -8.6            -1.644e-011     1.75e-011      
  -8.5            -1.552e-011     1.638e-011     
  -8.4            -1.51e-011      1.58e-011      
  -8.3            -1.302e-011     1.418e-011     
  -8.2            -1.312e-011     1.462e-011     
  -8.1            -1.222e-011     1.386e-011     
  -8              -1.178e-011     1.336e-011     
  -7.9            -1.026e-011     1.196e-011     
  -7.8            -1.058e-011     1.084e-011     
  -7.7            -1.022e-011     1.126e-011     
  -7.6            -9.98e-012      9.8e-012       
  -7.5            -8.92e-012      1.004e-011     
  -7.4            -8.28e-012      8.52e-012      
  -7.3            -8.46e-012      1.006e-011     
  -7.2            -7.72e-012      8.42e-012      
  -7.1            -7.2e-012       8.38e-012      
  -7              -6.24e-012      6.4e-012       
  -6.9            -7.38e-012      7.54e-012      
  -6.8            -7.14e-012      7.1e-012       
  -6.7            -6.9e-012       6.7e-012       
  -6.6            -5.42e-012      5.66e-012      
  -6.5            -5.5e-012       5.9e-012       
  -6.4            -5.48e-012      7.1e-012       
  -6.3            -5.22e-012      5.02e-012      
  -6.2            -4.68e-012      4.94e-012      
  -6.1            -4.46e-012      3.28e-012      
  -6              -4.98e-012      4.54e-012      
  -5.9            -4.48e-012      3.44e-012      
  -5.8            -4.42e-012      4.06e-012      
  -5.7            -3.58e-012      3.04e-012      
  -5.6            -4.16e-012      4.1e-012       
  -5.5            -3.54e-012      3.42e-012      
  -5.4            -3.42e-012      2.2e-012       
  -5.3            -2.84e-012      1.9e-012       
  -5.2            -3.52e-012      1.5e-012       
  -5.1            -3.26e-012      1.84e-012      
  -5              -2.72e-012      4.8e-013       
  -4.9            -2.54e-012      1.08e-012      
  -4.8            -2.68e-012      3.8e-013       
  -4.7            -2.82e-012      1.72e-012      
  -4.6            -2.1e-012       -3.8e-013      
  -4.5            -2.12e-012      -1.2e-012      
  -4.4            -2.12e-012      -1.26e-012     
  -4.3            -2.94e-012      -8.8e-013      
  -4.2            -2.12e-012      -1.34e-012     
  -4.1            -1.94e-012      -2.06e-012     
  -4              -1.6e-012       -2.54e-012     
  -3.9            -2.1e-012       -2.12e-012     
  -3.8            -1.8e-012       -2.1e-012      
  -3.7            -1.58e-012      -4.3e-012      
  -3.6            -1.6e-012       -4.26e-012     
  -3.5            -1.76e-012      -4.8e-012      
  -3.4            -1.9e-012       -4.46e-012     
  -3.3            -1.32e-012      -5.96e-012     
  -3.2            -1.32e-012      -6e-012        
  -3.1            -1.28e-012      -6.04e-012     
  -3              -1.44e-012      -6.6e-012      
  -2.9            -1e-012         -7.92e-012     
  -2.8            -1.2e-012       -9.16e-012     
  -2.7            -1.24e-012      -9.4e-012      
  -2.6            -1.56e-012      -9.46e-012     
  -2.5            -1.12e-012      -1.02e-011     
  -2.4            -7.4e-013       -1.12e-011     
  -2.3            -1.14e-012      -1.098e-011    
  -2.2            -1.1e-012       -1.174e-011    
  -2.1            -8e-013         -1.286e-011    
  -2              -6.6e-013       -1.482e-011    
  -1.9            -8.6e-013       -1.508e-011    
  -1.8            -1.06e-012      -1.55e-011     
  -1.7            -1e-012         -1.648e-011    
  -1.6            -4.8e-013       -1.752e-011    
  -1.5            -5.6e-013       -1.79e-011     
  -1.4            -8.6e-013       -1.784e-011    
  -1.3            -5.6e-013       -1.982e-011    
  -1.2            -1.8e-013       -2.142e-011    
  -1.1            -2.4e-013       -2.24e-011     
  -1              -7.6e-013       -2.244e-011    
  -0.9            -3.6e-013       -2.39e-011     
  -0.8            0               -2.52e-011     
  -0.7            1.6e-013        -2.612e-011    
  -0.6            -1.4e-013       -2.556e-011    
  -0.5            -8e-014         -2.644e-011    
  -0.4            1.8e-013        -2.904e-011    
  -0.3            2.4e-013        -2.97e-011     
  -0.2            4e-014          -3.066e-011    
  -0.1            -1e-013         -3.058e-011    
  0               3e-013          -3.21e-011     
END_DB

