! VERSION = 6.00
BEGIN_HEADER
 ICCAP_INPUTS
  vc         V  cathode GROUND SMU1 0.1 CON        0
  va         V  anode GROUND SMU2 0.1 LIN        1    -15        0          151  0.1       
 ICCAP_OUTPUTS
  ia         I  anode GROUND SMU2 B
  ic         I  cathode GROUND SMU1 B
 ICCAP_VALUES
  DataOrigin "Measure"
  ___CONTEXT ""
  Date "Jan 13 Thu 13:57:30 2022"
  Version "WaferPro.2016.01"
  Bench "B1500_B2200"
  Temperature "27"
  Lot "M135205"
  Reticle "M135205"
  Wafer "01D2"
  Die "X-3-Y0"
  DieList "TargetDie"
  Block "WholeDie"
  Subsite "diod2-5V"
  Routine "DIODE_EXTR_Measure"
  MeasCond "Set1"
  Device "3"
  DeviceName "pdiode_Dp5_A032B320"
  DevTechno "DIO"
  DevPolarity "P"
  Setup "iv_rev"
  Type "-1"
  ___SPICE_INSTANCE ""
  A "3.2E-007"
  B "3.2E-005"
  ___TECHNO_INSTANCE ""
  ___CALIBRATION ""
END_HEADER

BEGIN_DB
 ICCAP_VAR vc         0              

 #va              ia              ic             
  -15             -0.0079122      0.008074       
  -14.9           -0.007541       0.00759        
  -14.8           -0.0072108      0.007242       
  -14.7           -0.0068894      0.006912       
  -14.6           -0.0065704      0.0065872      
  -14.5           -0.0062436      0.006258       
  -14.4           -0.0059164      0.0059272      
  -14.3           -0.0055722      0.0055846      
  -14.2           -0.0052304      0.0052388      
  -14.1           -0.0048724      0.0048812      
  -14             -0.004508       0.0045154      
  -13.9           -0.004137       0.0041434      
  -13.8           -0.003749       0.003757       
  -13.7           -0.0033604      0.003364       
  -13.6           -0.0029584      0.0029588      
  -13.5           -0.0025522      0.0025536      
  -13.4           -0.0021332      0.0021348      
  -13.3           -0.0017106      0.0017092      
  -13.2           -0.0012772      0.0012746      
  -13.1           -0.00084558     0.00084082     
  -13             -0.00039352     0.00038174     
  -12.9           -1.9836e-007    5.255e-008     
  -12.8           -4.0708e-009    3.522e-009     
  -12.7           -1.6734e-009    1.4368e-009    
  -12.6           -1.037e-009     8.6244e-010    
  -12.5           -7.3994e-010    5.8538e-010    
  -12.4           -5.6946e-010    4.411e-010     
  -12.3           -4.5784e-010    3.4402e-010    
  -12.2           -3.7926e-010    2.7238e-010    
  -12.1           -3.2156e-010    2.2168e-010    
  -12             -2.7794e-010    1.8266e-010    
  -11.9           -2.4256e-010    1.5348e-010    
  -11.8           -2.1316e-010    1.2962e-010    
  -11.7           -1.902e-010     1.1032e-010    
  -11.6           -1.7148e-010    9.266e-011     
  -11.5           -1.5534e-010    8.118e-011     
  -11.4           -1.3944e-010    6.932e-011     
  -11.3           -1.269e-010     5.868e-011     
  -11.2           -1.1652e-010    4.866e-011     
  -11.1           -1.0856e-010    4.112e-011     
  -11             -9.922e-011     3.482e-011     
  -10.9           -9.12e-011      2.902e-011     
  -10.8           -8.472e-011     2.394e-011     
  -10.7           -7.908e-011     1.764e-011     
  -10.6           -7.32e-011      1.434e-011     
  -10.5           -6.768e-011     1.01e-011      
  -10.4           -6.298e-011     6.78e-012      
  -10.3           -5.982e-011     1.76e-012      
  -10.2           -5.718e-011     -8.4e-013      
  -10.1           -5.248e-011     -3.36e-012     
  -10             -4.868e-011     -5.38e-012     
  -9.9            -4.556e-011     -9.18e-012     
  -9.8            -4.408e-011     -1.072e-011    
  -9.7            -4.114e-011     -1.226e-011    
  -9.6            -3.818e-011     -1.434e-011    
  -9.5            -3.574e-011     -1.662e-011    
  -9.4            -3.482e-011     -1.914e-011    
  -9.3            -3.37e-011      -1.976e-011    
  -9.2            -3.104e-011     -2.098e-011    
  -9.1            -2.868e-011     -2.168e-011    
  -9              -2.75e-011      -2.372e-011    
  -8.9            -2.674e-011     -2.522e-011    
  -8.8            -2.5e-011       -2.572e-011    
  -8.7            -2.314e-011     -2.738e-011    
  -8.6            -2.186e-011     -2.914e-011    
  -8.5            -2.162e-011     -3.06e-011     
  -8.4            -2.092e-011     -3.102e-011    
  -8.3            -1.93e-011      -3.076e-011    
  -8.2            -1.77e-011      -3.136e-011    
  -8.1            -1.7e-011       -3.326e-011    
  -8              -1.71e-011      -3.368e-011    
  -7.9            -1.584e-011     -3.432e-011    
  -7.8            -1.452e-011     -3.476e-011    
  -7.7            -1.384e-011     -3.616e-011    
  -7.6            -1.424e-011     -3.698e-011    
  -7.5            -1.38e-011      -3.71e-011     
  -7.4            -1.228e-011     -3.724e-011    
  -7.3            -1.088e-011     -3.712e-011    
  -7.2            -1.116e-011     -3.91e-011     
  -7.1            -1.148e-011     -3.88e-011     
  -7              -1.066e-011     -3.938e-011    
  -6.9            -9.6e-012       -3.976e-011    
  -6.8            -8.94e-012      -4.108e-011    
  -6.7            -9.78e-012      -4.138e-011    
  -6.6            -9.22e-012      -4.108e-011    
  -6.5            -8.2e-012       -4.044e-011    
  -6.4            -7e-012         -4.092e-011    
  -6.3            -7.48e-012      -4.286e-011    
  -6.2            -7.94e-012      -4.29e-011     
  -6.1            -7.36e-012      -4.322e-011    
  -6              -6.46e-012      -4.274e-011    
  -5.9            -6.16e-012      -4.424e-011    
  -5.8            -6.76e-012      -4.48e-011     
  -5.7            -6.4e-012       -4.438e-011    
  -5.6            -5.6e-012       -4.324e-011    
  -5.5            -4.48e-012      -4.438e-011    
  -5.4            -5.38e-012      -4.578e-011    
  -5.3            -5.36e-012      -4.654e-011    
  -5.2            -5.48e-012      -4.582e-011    
  -5.1            -4.18e-012      -4.6e-011      
  -5              -4.28e-012      -4.652e-011    
  -4.9            -4.76e-012      -4.638e-011    
  -4.8            -4.7e-012       -4.704e-011    
  -4.7            -3.62e-012      -4.59e-011     
  -4.6            -2.98e-012      -4.748e-011    
  -4.5            -3.86e-012      -4.77e-011     
  -4.4            -4.14e-012      -4.914e-011    
  -4.3            -3.94e-012      -4.816e-011    
  -4.2            -2.6e-012       -4.872e-011    
  -4.1            -3.08e-012      -4.848e-011    
  -4              -3.34e-012      -4.946e-011    
  -3.9            -3.58e-012      -4.912e-011    
  -3.8            -2.28e-012      -4.888e-011    
  -3.7            -2.24e-012      -5.032e-011    
  -3.6            -2.7e-012       -5.074e-011    
  -3.5            -3.44e-012      -5.148e-011    
  -3.4            -2.94e-012      -4.984e-011    
  -3.3            -1.86e-012      -5.098e-011    
  -3.2            -1.96e-012      -5.068e-011    
  -3.1            -2.54e-012      -5.234e-011    
  -3              -2.74e-012      -5.102e-011    
  -2.9            -1.58e-012      -5.154e-011    
  -2.8            -1.78e-012      -5.234e-011    
  -2.7            -1.92e-012      -5.346e-011    
  -2.6            -2.94e-012      -5.332e-011    
  -2.5            -1.86e-012      -5.226e-011    
  -2.4            -1.36e-012      -5.256e-011    
  -2.3            -1.26e-012      -5.292e-011    
  -2.2            -1.94e-012      -5.432e-011    
  -2.1            -1.72e-012      -5.334e-011    
  -2              -1.1e-012       -5.418e-011    
  -1.9            -1.04e-012      -5.402e-011    
  -1.8            -1.52e-012      -5.57e-011     
  -1.7            -2.14e-012      -5.524e-011    
  -1.6            -1.08e-012      -5.48e-011     
  -1.5            -6.6e-013       -5.4e-011      
  -1.4            -5.6e-013       -5.512e-011    
  -1.3            -1.64e-012      -5.566e-011    
  -1.2            -1.12e-012      -5.562e-011    
  -1.1            -8e-013         -5.598e-011    
  -1              0               -5.656e-011    
  -0.9            -9.4e-013       -5.728e-011    
  -0.8            -1.26e-012      -5.61e-011     
  -0.7            -6.6e-013       -5.638e-011    
  -0.6            3.4e-013        -5.522e-011    
  -0.5            3e-013          -5.768e-011    
  -0.4            -6e-013         -5.746e-011    
  -0.3            -4.8e-013       -5.802e-011    
  -0.2            -4e-014         -5.672e-011    
  -0.1            7e-013          -5.822e-011    
  0               0               -5.83e-011     
END_DB

