! VERSION = 6.00
BEGIN_HEADER
 ICCAP_INPUTS
  vc         V  cathode GROUND SMU1 0.1 CON        0
  va         V  anode GROUND SMU2 0.1 LIN        1    -15        0          151  0.1       
 ICCAP_OUTPUTS
  ia         I  anode GROUND SMU2 B
  ic         I  cathode GROUND SMU1 B
 ICCAP_VALUES
  DataOrigin "Measure"
  ___CONTEXT ""
  Date "Jan 13 Thu 13:56:17 2022"
  Version "WaferPro.2016.01"
  Bench "B1500_B2200"
  Temperature "27"
  Lot "M135205"
  Reticle "M135205"
  Wafer "01D2"
  Die "X-3-Y0"
  DieList "TargetDie"
  Block "WholeDie"
  Subsite "diod2-5V"
  Routine "DIODE_EXTR_Measure"
  MeasCond "Set1"
  Device "2"
  DeviceName "pdiode_Dp5_A032B32"
  DevTechno "DIO"
  DevPolarity "P"
  Setup "iv_rev"
  Type "-1"
  ___SPICE_INSTANCE ""
  A "3.2E-007"
  B "3.2E-006"
  ___TECHNO_INSTANCE ""
  ___CALIBRATION ""
END_HEADER

BEGIN_DB
 ICCAP_VAR vc         0              

 #va              ia              ic             
  -15             -0.00093618     0.00095764     
  -14.9           -0.0008899      0.0008955      
  -14.8           -0.00084782     0.00085102     
  -14.7           -0.00080552     0.00080898     
  -14.6           -0.0007661      0.0007675      
  -14.5           -0.00072458     0.0007266      
  -14.4           -0.00068154     0.00068364     
  -14.3           -0.00063942     0.0006396      
  -14.2           -0.00059494     0.00059578     
  -14.1           -0.00054978     0.00055048     
  -14             -0.00050336     0.00050334     
  -13.9           -0.00045812     0.00045724     
  -13.8           -0.00041042     0.00041178     
  -13.7           -0.00036292     0.00036286     
  -13.6           -0.00031344     0.00031384     
  -13.5           -0.00026618     0.00026518     
  -13.4           -0.00021366     0.00021374     
  -13.3           -0.0001636      0.00016376     
  -13.2           -0.00011316     0.00011186     
  -13.1           -6.3134e-005    6.1866e-005    
  -13             -3.5104e-008    1.4622e-008    
  -12.9           -5.5476e-010    1.4524e-010    
  -12.8           -2.0874e-010    -9.62e-012     
  -12.7           -1.2316e-010    -5.158e-011    
  -12.6           -8.718e-011     -6.544e-011    
  -12.5           -6.734e-011     -6.552e-011    
  -12.4           -5.284e-011     -6.608e-011    
  -12.3           -4.422e-011     -6.47e-011     
  -12.2           -3.828e-011     -6.392e-011    
  -12.1           -3.304e-011     -6.158e-011    
  -12             -2.774e-011     -6.03e-011     
  -11.9           -2.52e-011      -5.838e-011    
  -11.8           -2.274e-011     -5.686e-011    
  -11.7           -2.042e-011     -5.648e-011    
  -11.6           -1.814e-011     -5.424e-011    
  -11.5           -1.648e-011     -5.496e-011    
  -11.4           -1.556e-011     -5.318e-011    
  -11.3           -1.424e-011     -5.288e-011    
  -11.2           -1.268e-011     -5.126e-011    
  -11.1           -1.156e-011     -5.076e-011    
  -11             -1.12e-011      -4.986e-011    
  -10.9           -1.04e-011      -5.05e-011     
  -10.8           -9.38e-012      -4.91e-011     
  -10.7           -8.46e-012      -4.83e-011     
  -10.6           -8.36e-012      -4.904e-011    
  -10.5           -7.96e-012      -4.8e-011      
  -10.4           -7.2e-012       -4.774e-011    
  -10.3           -6.42e-012      -4.588e-011    
  -10.2           -6.3e-012       -4.72e-011     
  -10.1           -6.2e-012       -4.618e-011    
  -10             -5.84e-012      -4.698e-011    
  -9.9            -5.06e-012      -4.54e-011     
  -9.8            -4.66e-012      -4.628e-011    
  -9.7            -4.98e-012      -4.58e-011     
  -9.6            -4.66e-012      -4.57e-011     
  -9.5            -4.14e-012      -4.438e-011    
  -9.4            -3.54e-012      -4.444e-011    
  -9.3            -3.78e-012      -4.484e-011    
  -9.2            -4.12e-012      -4.43e-011     
  -9.1            -3.3e-012       -4.532e-011    
  -9              -2.78e-012      -4.386e-011    
  -8.9            -3.02e-012      -4.544e-011    
  -8.8            -3.1e-012       -4.434e-011    
  -8.7            -2.74e-012      -4.422e-011    
  -8.6            -2.22e-012      -4.268e-011    
  -8.5            -2.2e-012       -4.386e-011    
  -8.4            -2.52e-012      -4.364e-011    
  -8.3            -2.1e-012       -4.41e-011     
  -8.2            -1.78e-012      -4.396e-011    
  -8.1            -1.7e-012       -4.366e-011    
  -8              -2.16e-012      -4.456e-011    
  -7.9            -1.94e-012      -4.332e-011    
  -7.8            -1.44e-012      -4.326e-011    
  -7.7            -1.34e-012      -4.268e-011    
  -7.6            -1.76e-012      -4.406e-011    
  -7.5            -1.66e-012      -4.284e-011    
  -7.4            -1.2e-012       -4.344e-011    
  -7.3            -1e-012         -4.326e-011    
  -7.2            -1.38e-012      -4.432e-011    
  -7.1            -1.56e-012      -4.422e-011    
  -7              -1e-012         -4.312e-011    
  -6.9            -7.4e-013       -4.256e-011    
  -6.8            -9e-013         -4.358e-011    
  -6.7            -1.28e-012      -4.448e-011    
  -6.6            -8.8e-013       -4.352e-011    
  -6.5            -5.4e-013       -4.416e-011    
  -6.4            -7.6e-013       -4.416e-011    
  -6.3            -1.2e-012       -4.526e-011    
  -6.2            -1e-012         -4.394e-011    
  -6.1            -4.2e-013       -4.362e-011    
  -6              -4.4e-013       -4.33e-011     
  -5.9            -7.8e-013       -4.494e-011    
  -5.8            -9e-013         -4.514e-011    
  -5.7            -4e-013         -4.464e-011    
  -5.6            -3.4e-013       -4.52e-011     
  -5.5            -6.4e-013       -4.552e-011    
  -5.4            -8.6e-013       -4.552e-011    
  -5.3            -4.8e-013       -4.46e-011     
  -5.2            -1e-013         -4.502e-011    
  -5.1            -6.6e-013       -4.552e-011    
  -5              -7.4e-013       -4.666e-011    
  -4.9            -4.8e-013       -4.612e-011    
  -4.8            -2.6e-013       -4.634e-011    
  -4.7            -3.6e-013       -4.74e-011     
  -4.6            -6e-013         -4.768e-011    
  -4.5            -4.8e-013       -4.734e-011    
  -4.4            -2e-014         -4.656e-011    
  -4.3            -1.4e-013       -4.728e-011    
  -4.2            -5.4e-013       -4.802e-011    
  -4.1            -5.2e-013       -4.876e-011    
  -4              4e-014          -4.774e-011    
  -3.9            -6e-014         -4.852e-011    
  -3.8            -4.8e-013       -4.922e-011    
  -3.7            -4.2e-013       -4.938e-011    
  -3.6            4e-014          -4.814e-011    
  -3.5            1.4e-013        -4.884e-011    
  -3.4            -2.2e-013       -4.98e-011     
  -3.3            -4.4e-013       -5.034e-011    
  -3.2            -8e-014         -5.038e-011    
  -3.1            1e-013          -4.978e-011    
  -3              -1.8e-013       -5.126e-011    
  -2.9            -5.8e-013       -5.09e-011     
  -2.8            -2.4e-013       -5.052e-011    
  -2.7            1.2e-013        -4.994e-011    
  -2.6            8e-014          -5.092e-011    
  -2.5            -3.8e-013       -5.172e-011    
  -2.4            -2.2e-013       -5.202e-011    
  -2.3            1.2e-013        -5.168e-011    
  -2.2            6e-014          -5.182e-011    
  -2.1            -2.2e-013       -5.244e-011    
  -2              -2.4e-013       -5.176e-011    
  -1.9            1.8e-013        -5.186e-011    
  -1.8            1e-013          -5.15e-011     
  -1.7            -1.6e-013       -5.284e-011    
  -1.6            -1.4e-013       -5.248e-011    
  -1.5            2e-013          -5.276e-011    
  -1.4            2.6e-013        -5.306e-011    
  -1.3            -1.8e-013       -5.374e-011    
  -1.2            -3e-013         -5.416e-011    
  -1.1            1e-013          -5.248e-011    
  -1              2e-013          -5.324e-011    
  -0.9            -4e-014         -5.398e-011    
  -0.8            -2.4e-013       -5.5e-011      
  -0.7            8e-014          -5.36e-011     
  -0.6            3.8e-013        -5.45e-011     
  -0.5            1.2e-013        -5.444e-011    
  -0.4            -8e-014         -5.6e-011      
  -0.3            4e-014          -5.514e-011    
  -0.2            4.6e-013        -5.482e-011    
  -0.1            3.4e-013        -5.502e-011    
  0               -4e-014         -5.63e-011     
END_DB

