! VERSION = 6.00
BEGIN_HEADER
 ICCAP_INPUTS
  vc         V  cathode GROUND SMU1 0.1 CON        0
  va         V  anode GROUND SMU2 0.1 LIN        1    -15        0          151  0.1       
 ICCAP_OUTPUTS
  ia         I  anode GROUND SMU2 B
  ic         I  cathode GROUND SMU1 B
 ICCAP_VALUES
  DataOrigin "Measure"
  ___CONTEXT ""
  Date "Jan 13 Thu 14:06:09 2022"
  Version "WaferPro.2016.01"
  Bench "B1500_B2200"
  Temperature "27"
  Lot "M135205"
  Reticle "M135205"
  Wafer "01D2"
  Die "X-3-Y0"
  DieList "TargetDie"
  Block "WholeDie"
  Subsite "diod2-5V"
  Routine "DIODE_EXTR_Measure"
  MeasCond "Set1"
  Device "10"
  DeviceName "pdiode_Dp5_A32B640"
  DevTechno "DIO"
  DevPolarity "P"
  Setup "iv_rev"
  Type "-1"
  ___SPICE_INSTANCE ""
  A "3.2E-006"
  B "6.4E-005"
  ___TECHNO_INSTANCE ""
  ___CALIBRATION ""
END_HEADER

BEGIN_DB
 ICCAP_VAR vc         0              

 #va              ia              ic             
  -15             -0.015762       0.016002       
  -14.9           -0.015244       0.015304       
  -14.8           -0.014802       0.014836       
  -14.7           -0.01437        0.014396       
  -14.6           -0.013944       0.013962       
  -14.5           -0.013504       0.013522       
  -14.4           -0.013058       0.013072       
  -14.3           -0.012598       0.01261        
  -14.2           -0.01213        0.012142       
  -14.1           -0.011642       0.011652       
  -14             -0.01114        0.01115        
  -13.9           -0.010626       0.010636       
  -13.8           -0.01009        0.0101         
  -13.7           -0.0095528      0.0095532      
  -13.6           -0.0089846      0.008985       
  -13.5           -0.0084052      0.0084052      
  -13.4           -0.0078052      0.0078052      
  -13.3           -0.007195       0.0071946      
  -13.2           -0.0065638      0.0065638      
  -13.1           -0.0059188      0.0059186      
  -13             -0.0052644      0.0052636      
  -12.9           -0.004592       0.0045916      
  -12.8           -0.0039132      0.0039134      
  -12.7           -0.0032192      0.0032188      
  -12.6           -0.0025228      0.0025228      
  -12.5           -0.001817       0.0018172      
  -12.4           -0.0011092      0.0011094      
  -12.3           -0.00032728     0.0003255      
  -12.2           -2.4956e-009    4.1814e-009    
  -12.1           -7.28e-010      7.1416e-010    
  -12             -4.191e-010     3.788e-010     
  -11.9           -2.8256e-010    2.541e-010     
  -11.8           -2.0882e-010    1.9054e-010    
  -11.7           -1.6412e-010    1.5088e-010    
  -11.6           -1.3578e-010    1.2554e-010    
  -11.5           -1.112e-010     1.0568e-010    
  -11.4           -9.606e-011     9.258e-011     
  -11.3           -8.302e-011     8.144e-011     
  -11.2           -7.464e-011     7.322e-011     
  -11.1           -6.476e-011     6.602e-011     
  -11             -5.814e-011     5.876e-011     
  -10.9           -5.276e-011     5.388e-011     
  -10.8           -4.916e-011     4.872e-011     
  -10.7           -4.456e-011     4.554e-011     
  -10.6           -3.974e-011     4.11e-011      
  -10.5           -3.77e-011      3.938e-011     
  -10.4           -3.538e-011     3.652e-011     
  -10.3           -3.18e-011      3.422e-011     
  -10.2           -2.734e-011     3.078e-011     
  -10.1           -2.784e-011     2.942e-011     
  -10             -2.626e-011     2.77e-011      
  -9.9            -2.59e-011      2.582e-011     
  -9.8            -2.12e-011      2.308e-011     
  -9.7            -2.112e-011     2.22e-011      
  -9.6            -2.058e-011     2.22e-011      
  -9.5            -1.97e-011      2.086e-011     
  -9.4            -1.652e-011     1.918e-011     
  -9.3            -1.534e-011     1.698e-011     
  -9.2            -1.602e-011     1.68e-011      
  -9.1            -1.556e-011     1.572e-011     
  -9              -1.392e-011     1.478e-011     
  -8.9            -1.222e-011     1.368e-011     
  -8.8            -1.27e-011      1.388e-011     
  -8.7            -1.18e-011      1.374e-011     
  -8.6            -1.056e-011     1.218e-011     
  -8.5            -8.88e-012      1.128e-011     
  -8.4            -1.004e-011     1.11e-011      
  -8.3            -1.03e-011      1.05e-011      
  -8.2            -8.76e-012      9.42e-012      
  -8.1            -8.34e-012      9.04e-012      
  -8              -8.08e-012      9.04e-012      
  -7.9            -8.74e-012      9.56e-012      
  -7.8            -7.22e-012      8.66e-012      
  -7.7            -5.56e-012      6.8e-012       
  -7.6            -6.1e-012       7.2e-012       
  -7.5            -7.12e-012      6.92e-012      
  -7.4            -6.86e-012      6.76e-012      
  -7.3            -4.36e-012      5e-012         
  -7.2            -4.96e-012      5.74e-012      
  -7.1            -5.04e-012      5.72e-012      
  -7              -5.16e-012      6.12e-012      
  -6.9            -2.9e-012       4.7e-012       
  -6.8            -4.04e-012      4.12e-012      
  -6.7            -4.32e-012      4.52e-012      
  -6.6            -5.5e-012       4.12e-012      
  -6.5            -3.4e-012       3.56e-012      
  -6.4            -3.08e-012      2.66e-012      
  -6.3            -4.46e-012      4.22e-012      
  -6.2            -4.14e-012      3.54e-012      
  -6.1            -3.2e-012       3.7e-012       
  -6              -1.8e-012       1.4e-012       
  -5.9            -3.64e-012      2.34e-012      
  -5.8            -3.7e-012       2.18e-012      
  -5.7            -3.96e-012      1.74e-012      
  -5.6            -1.42e-012      1.02e-012      
  -5.5            -2.92e-012      1.04e-012      
  -5.4            -2.28e-012      1.82e-012      
  -5.3            -2.26e-012      7e-013         
  -5.2            -6.4e-013       5e-013         
  -5.1            -1.68e-012      -6.8e-013      
  -5              -2.38e-012      -4e-014        
  -4.9            -1.84e-012      -1.62e-012     
  -4.8            -1.5e-012       -1.12e-012     
  -4.7            -1.34e-012      -1.82e-012     
  -4.6            -2.8e-012       -4e-013        
  -4.5            -1.26e-012      -1.72e-012     
  -4.4            -9.8e-013       -2.34e-012     
  -4.3            -2e-013         -2.78e-012     
  -4.2            -3.06e-012      -2.72e-012     
  -4.1            -1.94e-012      -3.12e-012     
  -4              -1.72e-012      -4.86e-012     
  -3.9            -2.8e-013       -4.48e-012     
  -3.8            -1.94e-012      -4.74e-012     
  -3.7            -2.4e-012       -3.62e-012     
  -3.6            -6.2e-013       -5.88e-012     
  -3.5            -4e-013         -5.84e-012     
  -3.4            -7.6e-013       -7.44e-012     
  -3.3            -2.4e-012       -6.54e-012     
  -3.2            -6e-013         -8.64e-012     
  -3.1            -1.18e-012      -8.42e-012     
  -3              -4.6e-013       -9.22e-012     
  -2.9            -1.42e-012      -9.02e-012     
  -2.8            2.6e-013        -9.9e-012      
  -2.7            1.8e-013        -1.172e-011    
  -2.6            -1e-013         -1.13e-011     
  -2.5            -1.96e-012      -1.256e-011    
  -2.4            -9e-013         -1.292e-011    
  -2.3            2.4e-013        -1.502e-011    
  -2.2            -1.04e-012      -1.386e-011    
  -2.1            -9.2e-013       -1.534e-011    
  -2              -1.12e-012      -1.474e-011    
  -1.9            8.6e-013        -1.778e-011    
  -1.8            -5.2e-013       -1.794e-011    
  -1.7            -6.4e-013       -1.862e-011    
  -1.6            -2.24e-012      -1.936e-011    
  -1.5            2.6e-013        -2.1e-011      
  -1.4            -5.6e-013       -2.208e-011    
  -1.3            -4.8e-013       -2.142e-011    
  -1.2            -1.42e-012      -2.254e-011    
  -1.1            5.4e-013        -2.314e-011    
  -1              6.8e-013        -2.578e-011    
  -0.9            -1.6e-013       -2.57e-011     
  -0.8            -2.4e-013       -2.724e-011    
  -0.7            -4.2e-013       -2.776e-011    
  -0.6            1.26e-012       -3e-011        
  -0.5            -4.2e-013       -2.88e-011     
  -0.4            -1.4e-013       -2.986e-011    
  -0.3            -2e-014         -3.066e-011    
  -0.2            1.84e-012       -3.234e-011    
  -0.1            -8e-014         -3.326e-011    
  0               -3.6e-013       -3.3e-011      
END_DB

