! VERSION = 6.00
BEGIN_HEADER
 ICCAP_INPUTS
  vc         V  cathode GROUND SMU1 0.1 CON        0
  va         V  anode GROUND SMU2 0.1 LIN        1    -15        0          151  0.1       
 ICCAP_OUTPUTS
  ia         I  anode GROUND SMU2 B
  ic         I  cathode GROUND SMU1 B
 ICCAP_VALUES
  DataOrigin "Measure"
  ___CONTEXT ""
  Date "Jan 13 Thu 14:07:22 2022"
  Version "WaferPro.2016.01"
  Bench "B1500_B2200"
  Temperature "27"
  Lot "M135205"
  Reticle "M135205"
  Wafer "01D2"
  Die "X-3-Y0"
  DieList "TargetDie"
  Block "WholeDie"
  Subsite "diod2-5V"
  Routine "DIODE_EXTR_Measure"
  MeasCond "Set1"
  Device "11"
  DeviceName "pdiode_Dp5_A320B640"
  DevTechno "DIO"
  DevPolarity "P"
  Setup "iv_rev"
  Type "-1"
  ___SPICE_INSTANCE ""
  A "3.2E-005"
  B "6.4E-005"
  ___TECHNO_INSTANCE ""
  ___CALIBRATION ""
END_HEADER

BEGIN_DB
 ICCAP_VAR vc         0              

 #va              ia              ic             
  -15             -0.014764       0.014992       
  -14.9           -0.01425        0.014312       
  -14.8           -0.01381        0.013848       
  -14.7           -0.013394       0.01342        
  -14.6           -0.012972       0.012992       
  -14.5           -0.012542       0.01256        
  -14.4           -0.012112       0.012124       
  -14.3           -0.011664       0.011676       
  -14.2           -0.011214       0.011224       
  -14.1           -0.010742       0.010754       
  -14             -0.010256       0.010266       
  -13.9           -0.0097924      0.0097746      
  -13.8           -0.0092818      0.0092824      
  -13.7           -0.008758       0.0087608      
  -13.6           -0.0082234      0.0082236      
  -13.5           -0.0076748      0.0076748      
  -13.4           -0.0071116      0.007112       
  -13.3           -0.0065386      0.0065386      
  -13.2           -0.0059506      0.005952       
  -13.1           -0.0053526      0.0053512      
  -13             -0.0047448      0.0047464      
  -12.9           -0.0041248      0.0041276      
  -12.8           -0.0035058      0.0035048      
  -12.7           -0.002872       0.0028722      
  -12.6           -0.002238       0.0022372      
  -12.5           -0.0015984      0.0016002      
  -12.4           -0.00096036     0.00096582     
  -12.3           -3.0576e-006    5.106e-005     
  -12.2           -5.868e-009     5.807e-009     
  -12.1           -7.749e-010     7.78e-010      
  -12             -3.8874e-010    3.916e-010     
  -11.9           -2.6478e-010    2.6864e-010    
  -11.8           -2.0292e-010    2.0376e-010    
  -11.7           -1.6368e-010    1.669e-010     
  -11.6           -1.3684e-010    1.3858e-010    
  -11.5           -1.1688e-010    1.1838e-010    
  -11.4           -1.0248e-010    1.0422e-010    
  -11.3           -8.956e-011     9.26e-011      
  -11.2           -7.954e-011     8.268e-011     
  -11.1           -7.174e-011     7.284e-011     
  -11             -6.448e-011     6.64e-011      
  -10.9           -5.802e-011     6.01e-011      
  -10.8           -5.2e-011       5.52e-011      
  -10.7           -4.824e-011     4.922e-011     
  -10.6           -4.42e-011      4.584e-011     
  -10.5           -4.058e-011     4.276e-011     
  -10.4           -3.668e-011     3.99e-011      
  -10.3           -3.46e-011      3.604e-011     
  -10.2           -3.228e-011     3.344e-011     
  -10.1           -2.97e-011      3.164e-011     
  -10             -2.692e-011     2.904e-011     
  -9.9            -2.52e-011      2.676e-011     
  -9.8            -2.378e-011     2.494e-011     
  -9.7            -2.192e-011     2.46e-011      
  -9.6            -2.032e-011     2.288e-011     
  -9.5            -1.916e-011     2.122e-011     
  -9.4            -1.874e-011     1.924e-011     
  -9.3            -1.708e-011     1.9e-011       
  -9.2            -1.54e-011      1.756e-011     
  -9.1            -1.464e-011     1.596e-011     
  -9              -1.432e-011     1.524e-011     
  -8.9            -1.316e-011     1.486e-011     
  -8.8            -1.186e-011     1.46e-011      
  -8.7            -1.162e-011     1.306e-011     
  -8.6            -1.146e-011     1.262e-011     
  -8.5            -1.082e-011     1.188e-011     
  -8.4            -9.34e-012      1.156e-011     
  -8.3            -9.08e-012      1e-011         
  -8.2            -9.02e-012      9.42e-012      
  -8.1            -8.62e-012      9.76e-012      
  -8              -7.46e-012      9.8e-012       
  -7.9            -7.24e-012      9e-012         
  -7.8            -7.68e-012      8.02e-012      
  -7.7            -6.92e-012      8.36e-012      
  -7.6            -6.18e-012      7.8e-012       
  -7.5            -5.26e-012      7.58e-012      
  -7.4            -6e-012         5.36e-012      
  -7.3            -5.74e-012      6.32e-012      
  -7.2            -4.92e-012      7.12e-012      
  -7.1            -4.3e-012       6.54e-012      
  -7              -5.26e-012      5.26e-012      
  -6.9            -5.12e-012      4.96e-012      
  -6.8            -4.08e-012      4.94e-012      
  -6.7            -3.6e-012       4.24e-012      
  -6.6            -3.72e-012      4.66e-012      
  -6.5            -4.04e-012      3.52e-012      
  -6.4            -3.16e-012      5.06e-012      
  -6.3            -3.16e-012      4.2e-012       
  -6.2            -3.12e-012      4.1e-012       
  -6.1            -3.86e-012      3.02e-012      
  -6              -2.66e-012      3.86e-012      
  -5.9            -2.44e-012      2.8e-012       
  -5.8            -2.38e-012      1.78e-012      
  -5.7            -3.02e-012      2.24e-012      
  -5.6            -2e-012         2.36e-012      
  -5.5            -1.86e-012      3.6e-012       
  -5.4            -2.04e-012      1.72e-012      
  -5.3            -2.6e-012       1.92e-012      
  -5.2            -2.52e-012      1.24e-012      
  -5.1            -1.32e-012      1.96e-012      
  -5              -1.9e-012       -6e-014        
  -4.9            -1.86e-012      6.4e-013       
  -4.8            -2.32e-012      3.4e-013       
  -4.7            -9.6e-013       1.2e-012       
  -4.6            -1.62e-012      3.2e-013       
  -4.5            -1.7e-012       -3.2e-013      
  -4.4            -1.92e-012      -1.8e-013      
  -4.3            -1.02e-012      -9.4e-013      
  -4.2            -1.1e-012       -9.4e-013      
  -4.1            -1.48e-012      -2.66e-012     
  -4              -1.34e-012      -9.2e-013      
  -3.9            -9.6e-013       -1.78e-012     
  -3.8            -7e-013         -1.6e-012      
  -3.7            -2e-012         -3.4e-012      
  -3.6            -1.26e-012      -2.58e-012     
  -3.5            -9.4e-013       -3.12e-012     
  -3.4            -4e-014         -3.32e-012     
  -3.3            -1.08e-012      -4.6e-012      
  -3.2            -1.18e-012      -4.6e-012      
  -3.1            -7.8e-013       -3.64e-012     
  -3              -2.8e-013       -4.94e-012     
  -2.9            -1.02e-012      -5.4e-012      
  -2.8            -1.42e-012      -6.48e-012     
  -2.7            -6e-013         -6.3e-012      
  -2.6            -4.6e-013       -7.66e-012     
  -2.5            -6e-013         -8.12e-012     
  -2.4            -1.28e-012      -9.12e-012     
  -2.3            -3.4e-013       -7.58e-012     
  -2.2            -4e-013         -8.12e-012     
  -2.1            -4e-013         -9.78e-012     
  -2              -1.62e-012      -1.102e-011    
  -1.9            -7.4e-013       -1.108e-011    
  -1.8            0               -1.14e-011     
  -1.7            -2e-014         -1.32e-011     
  -1.6            -8.6e-013       -1.318e-011    
  -1.5            -7.4e-013       -1.416e-011    
  -1.4            4e-014          -1.322e-011    
  -1.3            -2e-013         -1.504e-011    
  -1.2            -5.8e-013       -1.602e-011    
  -1.1            -8.8e-013       -1.728e-011    
  -1              5.2e-013        -1.722e-011    
  -0.9            8e-014          -1.912e-011    
  -0.8            -8e-014         -1.966e-011    
  -0.7            -6.2e-013       -1.996e-011    
  -0.6            3.8e-013        -2.06e-011     
  -0.5            6e-014          -2.156e-011    
  -0.4            -5.2e-013       -2.328e-011    
  -0.3            -2e-013         -2.334e-011    
  -0.2            2.8e-013        -2.44e-011     
  -0.1            8.8e-013        -2.49e-011     
  0               1e-013          -2.734e-011    
END_DB

