! VERSION = 6.00
BEGIN_HEADER
 ICCAP_INPUTS
  vc         V  cathode GROUND SMU1 0.1 CON        0
  va         V  anode GROUND SMU2 0.1 LIN        1    0          1          51   0.02      
 ICCAP_OUTPUTS
  ia         I  anode GROUND SMU2 B
  ic         I  cathode GROUND SMU1 B
 ICCAP_VALUES
  DataOrigin "Measure"
  ___CONTEXT ""
  Date "Jan 13 Thu 14:06:09 2022"
  Version "WaferPro.2016.01"
  Bench "B1500_B2200"
  Temperature "27"
  Lot "M135205"
  Reticle "M135205"
  Wafer "01D2"
  Die "X-3-Y0"
  DieList "TargetDie"
  Block "WholeDie"
  Subsite "diod2-5V"
  Routine "DIODE_EXTR_Measure"
  MeasCond "Set1"
  Device "10"
  DeviceName "pdiode_Dp5_A32B640"
  DevTechno "DIO"
  DevPolarity "P"
  Setup "iv_fwd"
  Type "-1"
  ___SPICE_INSTANCE ""
  A "3.2E-006"
  B "6.4E-005"
  ___TECHNO_INSTANCE ""
  ___CALIBRATION ""
END_HEADER

BEGIN_DB
 ICCAP_VAR vc         0              

 #va              ia              ic             
  0               1.2e-013        1.232e-011     
  0.02            2e-014          1.18e-011      
  0.04            5.6e-013        1.134e-011     
  0.06            6.8e-013        1.098e-011     
  0.08            1.86e-012       1.042e-011     
  0.1             2.54e-012       9.78e-012      
  0.12            2.18e-012       9.92e-012      
  0.14            3.54e-012       9.28e-012      
  0.16            5.02e-012       7.94e-012      
  0.18            6.36e-012       5.62e-012      
  0.2             1.126e-011      1.8e-012       
  0.22            1.862e-011      -5.3e-012      
  0.24            3.028e-011      -1.652e-011    
  0.26            4.81e-011       -3.288e-011    
  0.28            7.822e-011      -6.008e-011    
  0.3             1.248e-010      -1.005e-010    
  0.32            2.0288e-010     -1.6454e-010   
  0.34            3.3356e-010     -2.6512e-010   
  0.36            5.5506e-010     -4.2222e-010   
  0.38            9.3822e-010     -6.6618e-010   
  0.4             1.6144e-009     -1.04874e-009  
  0.42            2.8292e-009     -1.6508e-009   
  0.44            5.0734e-009     -2.6012e-009   
  0.46            9.3342e-009     -4.1334e-009   
  0.48            1.7556e-008     -6.6128e-009   
  0.5             3.3174e-008     -1.957e-008    
  0.52            6.4868e-008     -4.9038e-008   
  0.54            1.312e-007      -1.1954e-007   
  0.56            2.6958e-007     -2.5136e-007   
  0.58            5.5898e-007     -5.4894e-007   
  0.6             1.1718e-006     -1.1664e-006   
  0.62            2.4584e-006     -2.4522e-006   
  0.64            5.174e-006      -5.1644e-006   
  0.66            1.08152e-005    -1.0812e-005   
  0.68            2.244e-005      -2.2442e-005   
  0.7             4.56e-005       -4.559e-005    
  0.72            8.931e-005      -8.929e-005    
  0.74            0.00016682      -0.00016672    
  0.76            0.00029152      -0.00029136    
  0.78            0.00047538      -0.00047522    
  0.8             0.0007239       -0.00072376    
  0.82            0.00103596      -0.00103582    
  0.84            0.0014108       -0.0014094     
  0.86            0.0018406       -0.0018392     
  0.88            0.0023174       -0.002316      
  0.9             0.0028398       -0.0028382     
  0.92            0.0033982       -0.0033966     
  0.94            0.0039912       -0.00399       
  0.96            0.0046116       -0.0046106     
  0.98            0.0052606       -0.0052586     
  1               0.0059288       -0.0059272     
END_DB

