! VERSION = 6.00
BEGIN_HEADER
 ICCAP_INPUTS
  vc         V  cathode GROUND SMU1 0.1 CON        0
  va         V  anode GROUND SMU2 0.1 LIN        1    0          1          51   0.02      
 ICCAP_OUTPUTS
  ia         I  anode GROUND SMU2 B
  ic         I  cathode GROUND SMU1 B
 ICCAP_VALUES
  DataOrigin "Measure"
  ___CONTEXT ""
  Date "Jan 13 Thu 13:59:57 2022"
  Version "WaferPro.2016.01"
  Bench "B1500_B2200"
  Temperature "27"
  Lot "M135205"
  Reticle "M135205"
  Wafer "01D2"
  Die "X-3-Y0"
  DieList "TargetDie"
  Block "WholeDie"
  Subsite "diod2-5V"
  Routine "DIODE_EXTR_Measure"
  MeasCond "Set1"
  Device "5"
  DeviceName "pdiode_Dp5_A32B320"
  DevTechno "DIO"
  DevPolarity "P"
  Setup "iv_fwd"
  Type "-1"
  ___SPICE_INSTANCE ""
  A "3.2E-006"
  B "3.2E-005"
  ___TECHNO_INSTANCE ""
  ___CALIBRATION ""
END_HEADER

BEGIN_DB
 ICCAP_VAR vc         0              

 #va              ia              ic             
  0               6.6e-013        4.44e-012      
  0.02            8.6e-013        3.72e-012      
  0.04            3.8e-013        3.88e-012      
  0.06            7.2e-013        4.6e-012       
  0.08            1.12e-012       3.32e-012      
  0.1             7.2e-013        3.76e-012      
  0.12            9.4e-013        4.34e-012      
  0.14            1.98e-012       2.46e-012      
  0.16            2.52e-012       1.78e-012      
  0.18            4.06e-012       6e-013         
  0.2             7.06e-012       -2.52e-012     
  0.22            1.092e-011      -6.92e-012     
  0.24            1.728e-011      -1.104e-011    
  0.26            2.804e-011      -2.138e-011    
  0.28            4.422e-011      -3.632e-011    
  0.3             7.094e-011      -5.95e-011     
  0.32            1.148e-010      -9.736e-011    
  0.34            1.867e-010      -1.5674e-010   
  0.36            3.0654e-010     -2.472e-010    
  0.38            5.1192e-010     -3.8832e-010   
  0.4             8.6752e-010     -6.0802e-010   
  0.42            1.5092e-009     -9.503e-010    
  0.44            2.6856e-009     -1.4898e-009   
  0.46            4.9236e-009     -2.3462e-009   
  0.48            9.2378e-009     -3.7262e-009   
  0.5             1.7752e-008     -6.0112e-009   
  0.52            3.4264e-008     -2.0188e-008   
  0.54            6.87e-008       -5.9458e-008   
  0.56            1.4086e-007     -1.2878e-007   
  0.58            2.9158e-007     -2.8492e-007   
  0.6             6.1102e-007     -6.0958e-007   
  0.62            1.2858e-006     -1.2834e-006   
  0.64            2.7162e-006     -2.7138e-006   
  0.66            5.7198e-006     -5.7158e-006   
  0.68            1.2022e-005     -1.2008e-005   
  0.7             2.4918e-005     -2.4906e-005   
  0.72            5.0306e-005     -5.0294e-005   
  0.74            9.8082e-005     -9.8048e-005   
  0.76            0.0001808       -0.0001807     
  0.78            0.00031242      -0.00031228    
  0.8             0.00050366      -0.0005035     
  0.82            0.00075944      -0.0007593     
  0.84            0.00108372      -0.00108356    
  0.86            0.0014758       -0.0014744     
  0.88            0.0019294       -0.001928      
  0.9             0.0024454       -0.002444      
  0.92            0.003016        -0.0030146     
  0.94            0.0036416       -0.00364       
  0.96            0.0043134       -0.0043116     
  0.98            0.0050324       -0.0050306     
  1               0.0057888       -0.005787      
END_DB

