! VERSION = 6.00
BEGIN_HEADER
 ICCAP_INPUTS
  vc         V  cathode GROUND SMU1 0.1 CON        0
  va         V  anode GROUND SMU2 0.1 LIN        1    -15        0          151  0.1       
 ICCAP_OUTPUTS
  ia         I  anode GROUND SMU2 B
  ic         I  cathode GROUND SMU1 B
 ICCAP_VALUES
  DataOrigin "Measure"
  ___CONTEXT ""
  Date "Jan 13 Thu 13:58:43 2022"
  Version "WaferPro.2016.01"
  Bench "B1500_B2200"
  Temperature "27"
  Lot "M135205"
  Reticle "M135205"
  Wafer "01D2"
  Die "X-3-Y0"
  DieList "TargetDie"
  Block "WholeDie"
  Subsite "diod2-5V"
  Routine "DIODE_EXTR_Measure"
  MeasCond "Set1"
  Device "4"
  DeviceName "pdiode_Dp5_A32B32"
  DevTechno "DIO"
  DevPolarity "P"
  Setup "iv_rev"
  Type "-1"
  ___SPICE_INSTANCE ""
  A "3.2E-006"
  B "3.2E-006"
  ___TECHNO_INSTANCE ""
  ___CALIBRATION ""
END_HEADER

BEGIN_DB
 ICCAP_VAR vc         0              

 #va              ia              ic             
  -15             -0.0011052      0.0011196      
  -14.9           -0.0010722      0.0010768      
  -14.8           -0.0010424      0.001046       
  -14.7           -0.0010136      0.001016       
  -14.6           -0.00098578     0.00098658     
  -14.5           -0.0009576      0.00095766     
  -14.4           -0.0009273      0.00092834     
  -14.3           -0.00089648     0.000897       
  -14.2           -0.00086494     0.00086502     
  -14.1           -0.0008317      0.000832       
  -14             -0.00079716     0.00079732     
  -13.9           -0.00076208     0.00076188     
  -13.8           -0.00072462     0.00072498     
  -13.7           -0.0006868      0.00068656     
  -13.6           -0.00064692     0.00064706     
  -13.5           -0.0006058      0.0006061      
  -13.4           -0.00056324     0.00056326     
  -13.3           -0.00051932     0.00051936     
  -13.2           -0.00047384     0.0004738      
  -13.1           -0.00042704     0.00042698     
  -13             -0.00037926     0.00037936     
  -12.9           -0.00032992     0.00032998     
  -12.8           -0.00027996     0.00028012     
  -12.7           -0.00022884     0.000229       
  -12.6           -0.00017732     0.0001774      
  -12.5           -0.000125       0.00012504     
  -12.4           -7.1124e-005    7.0874e-005    
  -12.3           -1.5856e-009    1.5856e-009    
  -12.2           -5.78e-011      4.902e-011     
  -12.1           -3.388e-011     2.728e-011     
  -12             -2.456e-011     1.836e-011     
  -11.9           -2.028e-011     1.342e-011     
  -11.8           -1.652e-011     1.026e-011     
  -11.7           -1.5e-011       8.92e-012      
  -11.6           -1.22e-011      7.52e-012      
  -11.5           -1.098e-011     5.36e-012      
  -11.4           -9.76e-012      5e-012         
  -11.3           -8.56e-012      3.96e-012      
  -11.2           -7.5e-012       5.22e-012      
  -11.1           -6.48e-012      2.62e-012      
  -11             -6.44e-012      2.26e-012      
  -10.9           -5.64e-012      9.2e-013       
  -10.8           -5.48e-012      1.66e-012      
  -10.7           -4.4e-012       7.2e-013       
  -10.6           -4.72e-012      2.6e-013       
  -10.5           -3.94e-012      8e-014         
  -10.4           -3.8e-012       1.08e-012      
  -10.3           -2.62e-012      5e-013         
  -10.2           -2.94e-012      -7.4e-013      
  -10.1           -2.96e-012      -7e-013        
  -10             -2.98e-012      -1.02e-012     
  -9.9            -2.62e-012      -4e-014        
  -9.8            -2.14e-012      -1.52e-012     
  -9.7            -2.28e-012      -7.6e-013      
  -9.6            -1.76e-012      -1.24e-012     
  -9.5            -1.7e-012       -5.4e-013      
  -9.4            -1.16e-012      -1.42e-012     
  -9.3            -1.82e-012      -2.2e-012      
  -9.2            -1.54e-012      -2.18e-012     
  -9.1            -1.66e-012      -1.8e-012      
  -9              -1.34e-012      -1.92e-012     
  -8.9            -1.34e-012      -2.7e-012      
  -8.8            -1.1e-012       -1.7e-012      
  -8.7            -7e-013         -2.24e-012     
  -8.6            -6.6e-013       -2.04e-012     
  -8.5            -7.2e-013       -3.24e-012     
  -8.4            -1.22e-012      -2.88e-012     
  -8.3            -9.6e-013       -3.06e-012     
  -8.2            -8.8e-013       -2.94e-012     
  -8.1            -5.8e-013       -3.72e-012     
  -8              -9.2e-013       -3.38e-012     
  -7.9            -7e-013         -2.48e-012     
  -7.8            -4.8e-013       -3.14e-012     
  -7.7            -4e-014         -4.14e-012     
  -7.6            -4.6e-013       -5.2e-012      
  -7.5            -9.2e-013       -4.98e-012     
  -7.4            -4.4e-013       -4.52e-012     
  -7.3            -5.6e-013       -4.62e-012     
  -7.2            -3e-013         -5.78e-012     
  -7.1            -5.2e-013       -5.04e-012     
  -7              -2.8e-013       -4.84e-012     
  -6.9            -2.6e-013       -5.3e-012      
  -6.8            1.4e-013        -6.4e-012      
  -6.7            -5.2e-013       -7.1e-012      
  -6.6            -5e-013         -6.88e-012     
  -6.5            -3.2e-013       -6.88e-012     
  -6.4            -2e-013         -6.88e-012     
  -6.3            -2e-013         -7.8e-012      
  -6.2            -1.4e-013       -7.38e-012     
  -6.1            -4e-014         -7.5e-012      
  -6              -2e-014         -8.6e-012      
  -5.9            -8e-014         -9.44e-012     
  -5.8            -5.6e-013       -9.4e-012      
  -5.7            -1.4e-013       -9.32e-012     
  -5.6            -8e-014         -9.5e-012      
  -5.5            2e-014          -9.96e-012     
  -5.4            -2e-014         -1.028e-011    
  -5.3            0               -9.74e-012     
  -5.2            1e-013          -1.106e-011    
  -5.1            4e-014          -1.2e-011      
  -5              -2e-013         -1.272e-011    
  -4.9            -4e-013         -1.188e-011    
  -4.8            -6e-014         -1.192e-011    
  -4.7            -2e-014         -1.268e-011    
  -4.6            2e-014          -1.33e-011     
  -4.5            -2e-014         -1.342e-011    
  -4.4            1.4e-013        -1.342e-011    
  -4.3            1.6e-013        -1.522e-011    
  -4.2            -1.6e-013       -1.558e-011    
  -4.1            -3e-013         -1.59e-011     
  -4              -3.8e-013       -1.5e-011      
  -3.9            1.8e-013        -1.61e-011     
  -3.8            -2e-014         -1.632e-011    
  -3.7            0               -1.734e-011    
  -3.6            -1e-013         -1.698e-011    
  -3.5            3.6e-013        -1.796e-011    
  -3.4            0               -1.97e-011     
  -3.3            6e-014          -2.032e-011    
  -3.2            -3.6e-013       -1.978e-011    
  -3.1            1.2e-013        -1.954e-011    
  -3              2.4e-013        -2.14e-011     
  -2.9            2.6e-013        -2.172e-011    
  -2.8            2e-014          -2.286e-011    
  -2.7            6e-014          -2.204e-011    
  -2.6            2.6e-013        -2.396e-011    
  -2.5            -3e-013         -2.48e-011     
  -2.4            -6e-014         -2.586e-011    
  -2.3            -3.4e-013       -2.482e-011    
  -2.2            2.4e-013        -2.574e-011    
  -2.1            1.2e-013        -2.714e-011    
  -2              2.6e-013        -2.772e-011    
  -1.9            0               -2.88e-011     
  -1.8            2e-013          -2.862e-011    
  -1.7            -4e-014         -3.114e-011    
  -1.6            -1.6e-013       -3.122e-011    
  -1.5            1.4e-013        -3.19e-011     
  -1.4            1.8e-013        -3.15e-011     
  -1.3            5e-013          -3.396e-011    
  -1.2            6e-014          -3.386e-011    
  -1.1            3.2e-013        -3.472e-011    
  -1              4e-014          -3.516e-011    
  -0.9            4.2e-013        -3.666e-011    
  -0.8            -2e-013         -3.854e-011    
  -0.7            4e-014          -3.782e-011    
  -0.6            -4e-014         -3.824e-011    
  -0.5            3.6e-013        -3.79e-011     
  -0.4            3e-013          -4.074e-011    
  -0.3            6e-014          -4.01e-011     
  -0.2            1.6e-013        -4.138e-011    
  -0.1            8e-014          -4.182e-011    
  0               4.2e-013        -4.376e-011    
END_DB

