! VERSION = 6.00
BEGIN_HEADER
 ICCAP_INPUTS
  vc         V  cathode GROUND SMU1 0.1 CON        0
  va         V  anode GROUND SMU2 0.1 LIN        1    -15        0          151  0.1       
 ICCAP_OUTPUTS
  ia         I  anode GROUND SMU2 B
  ic         I  cathode GROUND SMU1 B
 ICCAP_VALUES
  DataOrigin "Measure"
  ___CONTEXT ""
  Date "Jan 13 Thu 14:01:10 2022"
  Version "WaferPro.2016.01"
  Bench "B1500_B2200"
  Temperature "27"
  Lot "M135205"
  Reticle "M135205"
  Wafer "01D2"
  Die "X-3-Y0"
  DieList "TargetDie"
  Block "WholeDie"
  Subsite "diod2-5V"
  Routine "DIODE_EXTR_Measure"
  MeasCond "Set1"
  Device "6"
  DeviceName "pdiode_Dp5_A320B320"
  DevTechno "DIO"
  DevPolarity "P"
  Setup "iv_rev"
  Type "-1"
  ___SPICE_INSTANCE ""
  A "3.2E-005"
  B "3.2E-005"
  ___TECHNO_INSTANCE ""
  ___CALIBRATION ""
END_HEADER

BEGIN_DB
 ICCAP_VAR vc         0              

 #va              ia              ic             
  -15             -0.0082104      0.0082796      
  -14.9           -0.0079582      0.0079848      
  -14.8           -0.0077332      0.0077496      
  -14.7           -0.0075144      0.0075314      
  -14.6           -0.007303       0.0073084      
  -14.5           -0.0070774      0.0070818      
  -14.4           -0.0068504      0.006852       
  -14.3           -0.0066108      0.0066194      
  -14.2           -0.0063754      0.0063792      
  -14.1           -0.0061244      0.006126       
  -14             -0.0058652      0.005864       
  -13.9           -0.0056014      0.0055974      
  -13.8           -0.0053216      0.0053222      
  -13.7           -0.0050342      0.0050388      
  -13.6           -0.004743       0.0047418      
  -13.5           -0.004437       0.0044376      
  -13.4           -0.0041206      0.0041216      
  -13.3           -0.0038028      0.0037998      
  -13.2           -0.0034704      0.0034726      
  -13.1           -0.0031264      0.0031282      
  -13             -0.0027816      0.0027818      
  -12.9           -0.002427       0.0024262      
  -12.8           -0.0020672      0.002068       
  -12.7           -0.0017002      0.001703       
  -12.6           -0.0013302      0.0013318      
  -12.5           -0.00095772     0.00095768     
  -12.4           -0.00057962     0.00057746     
  -12.3           -5.8778e-006    4.9986e-006    
  -12.2           -5.7532e-009    5.8796e-009    
  -12.1           -5.6878e-010    5.6794e-010    
  -12             -2.6904e-010    2.7078e-010    
  -11.9           -1.8226e-010    1.838e-010     
  -11.8           -1.3962e-010    1.4016e-010    
  -11.7           -1.132e-010     1.1484e-010    
  -11.6           -9.508e-011     9.692e-011     
  -11.5           -8.044e-011     8.32e-011      
  -11.4           -7.034e-011     7.13e-011      
  -11.3           -6.314e-011     6.308e-011     
  -11.2           -5.6e-011       5.64e-011      
  -11.1           -4.95e-011      5.088e-011     
  -11             -4.46e-011      4.552e-011     
  -10.9           -4.08e-011      4.158e-011     
  -10.8           -3.602e-011     3.87e-011      
  -10.7           -3.282e-011     3.52e-011      
  -10.6           -2.964e-011     3.142e-011     
  -10.5           -2.87e-011      2.9e-011       
  -10.4           -2.68e-011      2.708e-011     
  -10.3           -2.42e-011      2.526e-011     
  -10.2           -2.198e-011     2.364e-011     
  -10.1           -2.068e-011     2.092e-011     
  -10             -1.944e-011     2.098e-011     
  -9.9            -1.722e-011     1.986e-011     
  -9.8            -1.592e-011     1.792e-011     
  -9.7            -1.494e-011     1.542e-011     
  -9.6            -1.522e-011     1.5e-011       
  -9.5            -1.37e-011      1.46e-011      
  -9.4            -1.312e-011     1.374e-011     
  -9.3            -1.174e-011     1.288e-011     
  -9.2            -1.166e-011     1.186e-011     
  -9.1            -9.76e-012      1.224e-011     
  -9              -8.78e-012      1.108e-011     
  -8.9            -9.42e-012      1.012e-011     
  -8.8            -8.86e-012      8.4e-012       
  -8.7            -8.88e-012      9.16e-012      
  -8.6            -7.1e-012       7.82e-012      
  -8.5            -7.64e-012      8.12e-012      
  -8.4            -7.14e-012      7.6e-012       
  -8.3            -7.4e-012       8.22e-012      
  -8.2            -4.74e-012      7.44e-012      
  -8.1            -5.46e-012      5.94e-012      
  -8              -5.34e-012      5.64e-012      
  -7.9            -6.02e-012      5.24e-012      
  -7.8            -5.16e-012      5.96e-012      
  -7.7            -4.6e-012       4.34e-012      
  -7.6            -4.52e-012      5e-012         
  -7.5            -3.94e-012      4.4e-012       
  -7.4            -4.16e-012      5.54e-012      
  -7.3            -2.58e-012      3.62e-012      
  -7.2            -4.64e-012      3.68e-012      
  -7.1            -3.62e-012      3.04e-012      
  -7              -4.24e-012      3.66e-012      
  -6.9            -2.82e-012      3.34e-012      
  -6.8            -3.68e-012      2.36e-012      
  -6.7            -2.76e-012      3.32e-012      
  -6.6            -2.84e-012      2.84e-012      
  -6.5            -1.42e-012      2.52e-012      
  -6.4            -1.88e-012      1.16e-012      
  -6.3            -3.24e-012      1.74e-012      
  -6.2            -2.52e-012      9.6e-013       
  -6.1            -2.86e-012      1.8e-012       
  -6              -1.56e-012      1.8e-013       
  -5.9            -3.04e-012      1.1e-012       
  -5.8            -1e-012         1.24e-012      
  -5.7            -1.78e-012      1.26e-012      
  -5.6            -5e-013         -3e-013        
  -5.5            -2.26e-012      -8.6e-013      
  -5.4            -1.62e-012      4e-014         
  -5.3            -1.88e-012      -8.2e-013      
  -5.2            -1.28e-012      -5e-013        
  -5.1            -1.82e-012      -1.96e-012     
  -5              -1.6e-012       -4e-013        
  -4.9            -1.8e-013       -1.32e-012     
  -4.8            -9.6e-013       -1.6e-012      
  -4.7            -4.2e-013       -3.58e-012     
  -4.6            -2.46e-012      -2.4e-012      
  -4.5            -6.4e-013       -3.04e-012     
  -4.4            -1.46e-012      -3.58e-012     
  -4.3            -1.8e-013       -4.52e-012     
  -4.2            -1.68e-012      -4.06e-012     
  -4.1            -4.6e-013       -2.94e-012     
  -4              -5.8e-013       -4.32e-012     
  -3.9            -3.8e-013       -5.14e-012     
  -3.8            -1.22e-012      -6.82e-012     
  -3.7            -1.06e-012      -5.42e-012     
  -3.6            -6.2e-013       -7.02e-012     
  -3.5            -1e-012         -6.9e-012      
  -3.4            -4.2e-013       -8.12e-012     
  -3.3            -1.14e-012      -7.14e-012     
  -3.2            8.8e-013        -8.54e-012     
  -3.1            -7.8e-013       -8.88e-012     
  -3              -6.6e-013       -1.078e-011    
  -2.9            -1.34e-012      -1.058e-011    
  -2.8            -2.6e-013       -1.08e-011     
  -2.7            -7.2e-013       -1.236e-011    
  -2.6            -4.8e-013       -1.228e-011    
  -2.5            -8.6e-013       -1.264e-011    
  -2.4            2.6e-013        -1.268e-011    
  -2.3            6.8e-013        -1.51e-011     
  -2.2            -5e-013         -1.544e-011    
  -2.1            -7.2e-013       -1.692e-011    
  -2              -1.18e-012      -1.616e-011    
  -1.9            -6e-014         -1.81e-011     
  -1.8            -7.2e-013       -1.866e-011    
  -1.7            2e-014          -1.944e-011    
  -1.6            -7.2e-013       -1.922e-011    
  -1.5            4.2e-013        -2.044e-011    
  -1.4            -3e-013         -2.266e-011    
  -1.3            -4e-013         -2.322e-011    
  -1.2            -6e-013         -2.43e-011     
  -1.1            2e-014          -2.406e-011    
  -1              -1.8e-013       -2.624e-011    
  -0.9            -3.2e-013       -2.63e-011     
  -0.8            0               -2.692e-011    
  -0.7            2.8e-013        -2.74e-011     
  -0.6            9.2e-013        -2.956e-011    
  -0.5            -3.6e-013       -3.064e-011    
  -0.4            -2.2e-013       -3.142e-011    
  -0.3            -3e-013         -3.16e-011     
  -0.2            6.6e-013        -3.28e-011     
  -0.1            8e-014          -3.384e-011    
  0               2.8e-013        -3.368e-011    
END_DB

