! VERSION = 6.00
BEGIN_HEADER
 ICCAP_INPUTS
  vc         V  cathode GROUND SMU1 0.1 CON        0
  va         V  anode GROUND SMU2 0.1 LIN        1    -15        0          151  0.1       
 ICCAP_OUTPUTS
  ia         I  anode GROUND SMU2 B
  ic         I  cathode GROUND SMU1 B
 ICCAP_VALUES
  DataOrigin "Measure"
  ___CONTEXT ""
  Date "Jan 13 Thu 14:03:35 2022"
  Version "WaferPro.2016.01"
  Bench "B1500_B2200"
  Temperature "27"
  Lot "M135205"
  Reticle "M135205"
  Wafer "01D2"
  Die "X-3-Y0"
  DieList "TargetDie"
  Block "WholeDie"
  Subsite "diod2-5V"
  Routine "DIODE_EXTR_Measure"
  MeasCond "Set1"
  Device "8"
  DeviceName "pdiode_Dp5_A064B640"
  DevTechno "DIO"
  DevPolarity "P"
  Setup "iv_rev"
  Type "-1"
  ___SPICE_INSTANCE ""
  A "6.4E-007"
  B "6.4E-005"
  ___TECHNO_INSTANCE ""
  ___CALIBRATION ""
END_HEADER

BEGIN_DB
 ICCAP_VAR vc         0              

 #va              ia              ic             
  -15             -0.01617        0.016464       
  -14.9           -0.015584       0.015662       
  -14.8           -0.01508        0.015132       
  -14.7           -0.014592       0.014626       
  -14.6           -0.014108       0.014134       
  -14.5           -0.01361        0.013636       
  -14.4           -0.013106       0.013128       
  -14.3           -0.012584       0.012602       
  -14.2           -0.012054       0.01207        
  -14.1           -0.0115         0.011516       
  -14             -0.010928       0.010944       
  -13.9           -0.010342       0.010356       
  -13.8           -0.0097356      0.0097404      
  -13.7           -0.009108       0.0091132      
  -13.6           -0.0084604      0.0084632      
  -13.5           -0.0077976      0.0078004      
  -13.4           -0.0071092      0.0071112      
  -13.3           -0.0064096      0.0064094      
  -13.2           -0.0056812      0.0056822      
  -13.1           -0.0049364      0.0049362      
  -13             -0.0041782      0.0041776      
  -12.9           -0.0033956      0.0033944      
  -12.8           -0.0026022      0.0026004      
  -12.7           -0.0017832      0.0017808      
  -12.6           -0.00093348     0.00092854     
  -12.5           -9.8582e-008    8.1918e-008    
  -12.4           -2.6306e-009    2.5468e-009    
  -12.3           -1.212e-009     1.1338e-009    
  -12.2           -7.721e-010     7.2542e-010    
  -12.1           -5.5526e-010    5.248e-010     
  -12             -4.3238e-010    4.116e-010     
  -11.9           -3.5302e-010    3.3654e-010    
  -11.8           -2.955e-010     2.8314e-010    
  -11.7           -2.5232e-010    2.4502e-010    
  -11.6           -2.2064e-010    2.132e-010     
  -11.5           -1.9352e-010    1.8846e-010    
  -11.4           -1.7136e-010    1.6862e-010    
  -11.3           -1.5368e-010    1.5134e-010    
  -11.2           -1.3958e-010    1.366e-010     
  -11.1           -1.2562e-010    1.2452e-010    
  -11             -1.1492e-010    1.1492e-010    
  -10.9           -1.0594e-010    1.0534e-010    
  -10.8           -9.8e-011       9.646e-011     
  -10.7           -8.962e-011     8.96e-011      
  -10.6           -8.284e-011     8.364e-011     
  -10.5           -7.71e-011      7.688e-011     
  -10.4           -7.234e-011     7.2e-011       
  -10.3           -6.758e-011     6.826e-011     
  -10.2           -6.202e-011     6.2e-011       
  -10.1           -5.848e-011     5.854e-011     
  -10             -5.354e-011     5.51e-011      
  -9.9            -5.172e-011     5.174e-011     
  -9.8            -4.848e-011     4.756e-011     
  -9.7            -4.512e-011     4.718e-011     
  -9.6            -4.18e-011      4.212e-011     
  -9.5            -4.132e-011     4.026e-011     
  -9.4            -3.676e-011     3.84e-011      
  -9.3            -3.552e-011     3.65e-011      
  -9.2            -3.346e-011     3.264e-011     
  -9.1            -3.14e-011      3.32e-011      
  -9              -2.976e-011     3.046e-011     
  -8.9            -2.944e-011     2.798e-011     
  -8.8            -2.588e-011     2.746e-011     
  -8.7            -2.502e-011     2.61e-011      
  -8.6            -2.526e-011     2.414e-011     
  -8.5            -2.286e-011     2.34e-011      
  -8.4            -2.132e-011     2.294e-011     
  -8.3            -2.07e-011      1.99e-011      
  -8.2            -1.984e-011     2.052e-011     
  -8.1            -1.794e-011     1.91e-011      
  -8              -1.812e-011     1.782e-011     
  -7.9            -1.694e-011     1.694e-011     
  -7.8            -1.6e-011       1.754e-011     
  -7.7            -1.516e-011     1.444e-011     
  -7.6            -1.492e-011     1.468e-011     
  -7.5            -1.358e-011     1.398e-011     
  -7.4            -1.384e-011     1.388e-011     
  -7.3            -1.196e-011     1.23e-011      
  -7.2            -1.202e-011     1.244e-011     
  -7.1            -1.17e-011      1.128e-011     
  -7              -1.15e-011      1.112e-011     
  -6.9            -9.5e-012       9.62e-012      
  -6.8            -1e-011         1.026e-011     
  -6.7            -9.86e-012      9.88e-012      
  -6.6            -8.66e-012      8.26e-012      
  -6.5            -8e-012         8.44e-012      
  -6.4            -1.284e-011     8.06e-012      
  -6.3            -7.92e-012      7.12e-012      
  -6.2            -7e-012         6.76e-012      
  -6.1            -7e-012         7.36e-012      
  -6              -7.62e-012      5.32e-012      
  -5.9            -6.02e-012      6e-012         
  -5.8            -5.48e-012      5.5e-012       
  -5.7            -6.16e-012      4.42e-012      
  -5.6            -6.24e-012      3.96e-012      
  -5.5            -6.06e-012      4.72e-012      
  -5.4            -5.26e-012      3.3e-012       
  -5.3            -5.36e-012      3.38e-012      
  -5.2            -4.58e-012      3.74e-012      
  -5.1            -4.4e-012       2.06e-012      
  -5              -4.68e-012      1.62e-012      
  -4.9            -4.1e-012       2.46e-012      
  -4.8            -3.84e-012      1.68e-012      
  -4.7            -3.78e-012      1e-013         
  -4.6            -3.7e-012       1.26e-012      
  -4.5            -3.34e-012      3.2e-013       
  -4.4            -3.66e-012      -5.6e-013      
  -4.3            -2.86e-012      -4e-013        
  -4.2            -3.24e-012      -3.2e-013      
  -4.1            -3.42e-012      -2.18e-012     
  -4              -2.74e-012      -2.22e-012     
  -3.9            -2.32e-012      -2.18e-012     
  -3.8            -3.38e-012      -2.9e-012      
  -3.7            -2.94e-012      -3.28e-012     
  -3.6            -1.52e-012      -3.9e-012      
  -3.5            -2.74e-012      -3.42e-012     
  -3.4            -2.96e-012      -5.12e-012     
  -3.3            -2.48e-012      -5e-012        
  -3.2            -1.52e-012      -5.46e-012     
  -3.1            -3.2e-012       -5.32e-012     
  -3              3.62e-012       -7.94e-012     
  -2.9            -2.18e-012      -6.34e-012     
  -2.8            -1.26e-012      -7.32e-012     
  -2.7            -1.58e-012      -8.72e-012     
  -2.6            -1.18e-012      -8.72e-012     
  -2.5            -1.36e-012      -8.38e-012     
  -2.4            -1.8e-012       -1.034e-011    
  -2.3            -1.76e-012      -9.44e-012     
  -2.2            -7.8e-013       -1.088e-011    
  -2.1            -1.5e-012       -1.106e-011    
  -2              -1.32e-012      -1.198e-011    
  -1.9            -1.28e-012      -1.152e-011    
  -1.8            -4.4e-013       -1.312e-011    
  -1.7            -1.24e-012      -1.322e-011    
  -1.6            -5.8e-013       -1.308e-011    
  -1.5            -1.8e-013       -1.504e-011    
  -1.4            -6.6e-013       -1.504e-011    
  -1.3            -9.8e-013       -1.438e-011    
  -1.2            -8.8e-013       -1.576e-011    
  -1.1            4e-014          -1.726e-011    
  -1              -4.8e-013       -1.558e-011    
  -0.9            -4.8e-013       -1.84e-011     
  -0.8            -3e-013         -1.798e-011    
  -0.7            8.2e-013        -1.81e-011     
  -0.6            -8e-014         -1.862e-011    
  -0.5            -1.4e-013       -2.064e-011    
  -0.4            4.2e-013        -1.846e-011    
  -0.3            1.08e-012       -2.088e-011    
  -0.2            -2e-014         -2.086e-011    
  -0.1            7.8e-013        -2.036e-011    
  0               1e-012          -2.122e-011    
END_DB

