! VERSION = 6.00
BEGIN_HEADER
 ICCAP_INPUTS
  vc         V  cathode GROUND SMU1 0.1 CON        0
  va         V  anode GROUND SMU2 0.1 LIN        1    0          1          51   0.02      
 ICCAP_OUTPUTS
  ia         I  anode GROUND SMU2 B
  ic         I  cathode GROUND SMU1 B
 ICCAP_VALUES
  DataOrigin "Measure"
  ___CONTEXT ""
  Date "Jan 13 Thu 14:02:22 2022"
  Version "WaferPro.2016.01"
  Bench "B1500_B2200"
  Temperature "27"
  Lot "M135205"
  Reticle "M135205"
  Wafer "01D2"
  Die "X-3-Y0"
  DieList "TargetDie"
  Block "WholeDie"
  Subsite "diod2-5V"
  Routine "DIODE_EXTR_Measure"
  MeasCond "Set1"
  Device "7"
  DeviceName "pdiode_Dp5_A032B640"
  DevTechno "DIO"
  DevPolarity "P"
  Setup "iv_fwd"
  Type "-1"
  ___SPICE_INSTANCE ""
  A "3.2E-007"
  B "6.4E-005"
  ___TECHNO_INSTANCE ""
  ___CALIBRATION ""
END_HEADER

BEGIN_DB
 ICCAP_VAR vc         0              

 #va              ia              ic             
  0               7.8e-013        4.84e-012      
  0.02            9.4e-013        5.82e-012      
  0.04            7.4e-013        5.22e-012      
  0.06            1.22e-012       5.02e-012      
  0.08            2.06e-012       3.36e-012      
  0.1             2.86e-012       2.68e-012      
  0.12            4.12e-012       9.4e-013       
  0.14            6.82e-012       -1.36e-012     
  0.16            1.088e-011      -5.74e-012     
  0.18            1.742e-011      -1.132e-011    
  0.2             2.844e-011      -2.22e-011     
  0.22            4.682e-011      -4.014e-011    
  0.24            7.536e-011      -6.73e-011     
  0.26            1.2136e-010     -1.1022e-010   
  0.28            1.9466e-010     -1.779e-010    
  0.3             3.1104e-010     -2.837e-010    
  0.32            4.956e-010      -4.4778e-010   
  0.34            7.8776e-010     -7.0264e-010   
  0.36            1.2444e-009     -1.099e-009    
  0.38            1.9654e-009     -1.707e-009    
  0.4             3.0858e-009     -2.6364e-009   
  0.42            4.8248e-009     -4.0694e-009   
  0.44            7.4874e-009     -6.2512e-009   
  0.46            1.1484e-008     -9.5948e-009   
  0.48            1.8298e-008     -1.469e-008    
  0.5             2.9896e-008     -2.2474e-008   
  0.52            4.9746e-008     -3.4422e-008   
  0.54            8.52e-008       -6.8644e-008   
  0.56            1.5074e-007     -1.3766e-007   
  0.58            2.7374e-007     -2.5528e-007   
  0.6             5.1242e-007     -5.053e-007    
  0.62            9.7998e-007     -9.7446e-007   
  0.64            1.913e-006      -1.91e-006     
  0.66            3.7672e-006     -3.7638e-006   
  0.68            7.4774e-006     -7.4738e-006   
  0.7             1.4834e-005     -1.483e-005    
  0.72            2.904e-005      -2.9028e-005   
  0.74            5.6036e-005     -5.6024e-005   
  0.76            0.000105058     -0.000105038   
  0.78            0.00019022      -0.0001901     
  0.8             0.0003283       -0.00032816    
  0.82            0.00053504      -0.00053488    
  0.84            0.00082418      -0.00082406    
  0.86            0.0012028       -0.0012014     
  0.88            0.0016686       -0.001667      
  0.9             0.0022238       -0.0022224     
  0.92            0.0028606       -0.0028592     
  0.94            0.0035784       -0.0035766     
  0.96            0.0043664       -0.0043646     
  0.98            0.0052242       -0.0052226     
  1               0.0061398       -0.006138      
END_DB

