! VERSION = 6.00
BEGIN_HEADER
 ICCAP_INPUTS
  vc         V  cathode GROUND SMU1 0.1 CON        0
  va         V  anode GROUND SMU2 0.1 LIN        1    0          1          51   0.02      
 ICCAP_OUTPUTS
  ia         I  anode GROUND SMU2 B
  ic         I  cathode GROUND SMU1 B
 ICCAP_VALUES
  DataOrigin "Measure"
  ___CONTEXT ""
  Date "Jan 13 Thu 14:04:56 2022"
  Version "WaferPro.2016.01"
  Bench "B1500_B2200"
  Temperature "27"
  Lot "M135205"
  Reticle "M135205"
  Wafer "01D2"
  Die "X-3-Y0"
  DieList "TargetDie"
  Block "WholeDie"
  Subsite "diod2-5V"
  Routine "DIODE_EXTR_Measure"
  MeasCond "Set1"
  Device "9"
  DeviceName "pdiode_Dp5_A128B640"
  DevTechno "DIO"
  DevPolarity "P"
  Setup "iv_fwd"
  Type "-1"
  ___SPICE_INSTANCE ""
  A "1.28E-006"
  B "6.4E-005"
  ___TECHNO_INSTANCE ""
  ___CALIBRATION ""
END_HEADER

BEGIN_DB
 ICCAP_VAR vc         0              

 #va              ia              ic             
  0               1.22e-012       8.42e-012      
  0.02            1.16e-012       8.86e-012      
  0.04            1.22e-012       8.94e-012      
  0.06            1.28e-012       9.72e-012      
  0.08            1.56e-012       8.54e-012      
  0.1             1.5e-012        8.86e-012      
  0.12            2.26e-012       8.64e-012      
  0.14            3.74e-012       6.12e-012      
  0.16            5.6e-012        3.58e-012      
  0.18            9.28e-012       8.8e-013       
  0.2             1.514e-011      -5.64e-012     
  0.22            2.394e-011      -1.448e-011    
  0.24            3.838e-011      -2.646e-011    
  0.26            6.202e-011      -4.818e-011    
  0.28            9.958e-011      -8.18e-011     
  0.3             1.614e-010      -1.338e-010    
  0.32            2.6304e-010     -2.1766e-010   
  0.34            4.2742e-010     -3.4676e-010   
  0.36            6.9992e-010     -5.463e-010    
  0.38            1.1412e-009     -8.569e-010    
  0.4             1.8506e-009     -1.3358e-009   
  0.42            3.0286e-009     -2.0854e-009   
  0.44            4.9332e-009     -3.2472e-009   
  0.46            8.1484e-009     -5.0726e-009   
  0.48            1.3944e-008     -7.935e-009    
  0.5             2.4976e-008     -1.2546e-008   
  0.52            4.5934e-008     -2.9598e-008   
  0.54            8.7108e-008     -6.3824e-008   
  0.56            1.7066e-007     -1.5484e-007   
  0.58            3.4062e-007     -3.288e-007    
  0.6             6.9316e-007     -6.8234e-007   
  0.62            1.4236e-006     -1.4208e-006   
  0.64            2.9502e-006     -2.9384e-006   
  0.66            6.1008e-006     -6.0998e-006   
  0.68            1.2618e-005     -1.2624e-005   
  0.7             2.5818e-005     -2.5804e-005   
  0.72            5.1618e-005     -5.161e-005    
  0.74            0.000100174     -0.000100158   
  0.76            0.00018494      -0.00018482    
  0.78            0.00032146      -0.00032134    
  0.8             0.00052188      -0.00052174    
  0.82            0.00079108      -0.00079094    
  0.84            0.0011312       -0.00113104    
  0.86            0.001539        -0.0015376     
  0.88            0.002005        -0.0020034     
  0.9             0.0025276       -0.0025264     
  0.92            0.0030968       -0.0030952     
  0.94            0.0037118       -0.00371       
  0.96            0.0043622       -0.0043608     
  0.98            0.0050476       -0.0050466     
  1               0.005761        -0.005759      
END_DB

