! VERSION = 6.00
BEGIN_HEADER
 ICCAP_INPUTS
  vc         V  cathode GROUND SMU1 0.1 CON        0
  va         V  anode GROUND SMU2 0.1 LIN        1    -15        0          151  0.1       
 ICCAP_OUTPUTS
  ia         I  anode GROUND SMU2 B
  ic         I  cathode GROUND SMU1 B
 ICCAP_VALUES
  DataOrigin "Measure"
  ___CONTEXT ""
  Date "Jan 13 Thu 19:50:24 2022"
  Version "WaferPro.2016.01"
  Bench "B1500_B2200"
  Temperature "125"
  Lot "M135205"
  Reticle "M135205"
  Wafer "01D2"
  Die "X-3-Y0"
  DieList "TargetDie"
  Block "WholeDie"
  Subsite "diod2-5V"
  Routine "DIODE_EXTR_Measure"
  MeasCond "Set1"
  Device "10"
  DeviceName "pdiode_Dp5_A32B640"
  DevTechno "DIO"
  DevPolarity "P"
  Setup "iv_rev"
  Type "-1"
  ___SPICE_INSTANCE ""
  A "3.2E-006"
  B "6.4E-005"
  ___TECHNO_INSTANCE ""
  ___CALIBRATION ""
END_HEADER

BEGIN_DB
 ICCAP_VAR vc         0              

 #va              ia              ic             
  -15             -0.0092062      0.009239       
  -14.9           -0.008777       0.0087854      
  -14.8           -0.0083496      0.008354       
  -14.7           -0.0079172      0.0079172      
  -14.6           -0.0074766      0.0074784      
  -14.5           -0.0070234      0.0070246      
  -14.4           -0.0065648      0.0065644      
  -14.3           -0.0060904      0.0060902      
  -14.2           -0.0056118      0.0056118      
  -14.1           -0.0051186      0.0051182      
  -14             -0.0046164      0.0046158      
  -13.9           -0.0041106      0.0041096      
  -13.8           -0.0035926      0.0035922      
  -13.7           -0.003072       0.0030716      
  -13.6           -0.0025424      0.0025418      
  -13.5           -0.0020122      0.002012       
  -13.4           -0.0014758      0.0014756      
  -13.3           -0.00094332     0.00094246     
  -13.2           -0.00036962     0.00036856     
  -13.1           -2.2434e-007    2.4108e-007    
  -13             -4.419e-008     4.4404e-008    
  -12.9           -2.6818e-008    2.6798e-008    
  -12.8           -1.9796e-008    1.9828e-008    
  -12.7           -1.5782e-008    1.58e-008      
  -12.6           -1.3184e-008    1.3204e-008    
  -12.5           -1.1268e-008    1.1336e-008    
  -12.4           -9.872e-009     9.9368e-009    
  -12.3           -8.7808e-009    8.8234e-009    
  -12.2           -7.8742e-009    7.9412e-009    
  -12.1           -7.1198e-009    7.1946e-009    
  -12             -6.4828e-009    6.5604e-009    
  -11.9           -5.9478e-009    6.0226e-009    
  -11.8           -5.4678e-009    5.5498e-009    
  -11.7           -5.0696e-009    5.1514e-009    
  -11.6           -4.7212e-009    4.797e-009     
  -11.5           -4.3978e-009    4.4778e-009    
  -11.4           -4.1192e-009    4.2056e-009    
  -11.3           -3.8748e-009    3.9524e-009    
  -11.2           -3.6474e-009    3.7246e-009    
  -11.1           -3.4452e-009    3.5228e-009    
  -11             -3.251e-009     3.323e-009     
  -10.9           -3.0812e-009    3.153e-009     
  -10.8           -2.924e-009     2.9984e-009    
  -10.7           -2.7748e-009    2.8456e-009    
  -10.6           -2.6408e-009    2.707e-009     
  -10.5           -2.5146e-009    2.5842e-009    
  -10.4           -2.4008e-009    2.4696e-009    
  -10.3           -2.2908e-009    2.3546e-009    
  -10.2           -2.1962e-009    2.2588e-009    
  -10.1           -2.104e-009     2.164e-009     
  -10             -2.0234e-009    2.0778e-009    
  -9.9            -1.9432e-009    1.9974e-009    
  -9.8            -1.8698e-009    1.9206e-009    
  -9.7            -1.7896e-009    1.8404e-009    
  -9.6            -1.72e-009      1.7682e-009    
  -9.5            -1.6542e-009    1.7e-009       
  -9.4            -1.591e-009     1.6334e-009    
  -9.3            -1.5342e-009    1.5728e-009    
  -9.2            -1.477e-009     1.5128e-009    
  -9.1            -1.4248e-009    1.4546e-009    
  -9              -1.373e-009     1.3994e-009    
  -8.9            -1.3258e-009    1.3464e-009    
  -8.8            -1.2772e-009    1.2942e-009    
  -8.7            -1.2306e-009    1.2424e-009    
  -8.6            -1.1872e-009    1.197e-009     
  -8.5            -1.1424e-009    1.1476e-009    
  -8.4            -1.1008e-009    1.1014e-009    
  -8.3            -1.0616e-009    1.0602e-009    
  -8.2            -1.0248e-009    1.0178e-009    
  -8.1            -9.89e-010      9.8444e-010    
  -8              -9.5466e-010    9.4146e-010    
  -7.9            -9.2252e-010    9.0422e-010    
  -7.8            -8.905e-010     8.7056e-010    
  -7.7            -8.6178e-010    8.37e-010      
  -7.6            -8.3506e-010    8.0952e-010    
  -7.5            -8.0976e-010    7.8244e-010    
  -7.4            -7.8608e-010    7.534e-010     
  -7.3            -7.5916e-010    7.2826e-010    
  -7.2            -7.3738e-010    7.0308e-010    
  -7.1            -7.1746e-010    6.7912e-010    
  -7              -6.9746e-010    6.5898e-010    
  -6.9            -6.7608e-010    6.3976e-010    
  -6.8            -6.5674e-010    6.1756e-010    
  -6.7            -6.4086e-010    5.9652e-010    
  -6.6            -6.2322e-010    5.8372e-010    
  -6.5            -6.0572e-010    5.6562e-010    
  -6.4            -5.8992e-010    5.4752e-010    
  -6.3            -5.7492e-010    5.3052e-010    
  -6.2            -5.6102e-010    5.1526e-010    
  -6.1            -5.4692e-010    5.0236e-010    
  -6              -5.3424e-010    4.8834e-010    
  -5.9            -5.2288e-010    4.7668e-010    
  -5.8            -5.1006e-010    4.66e-010      
  -5.7            -4.9688e-010    4.5142e-010    
  -5.6            -4.8598e-010    4.3792e-010    
  -5.5            -4.7604e-010    4.282e-010     
  -5.4            -4.6756e-010    4.1806e-010    
  -5.3            -4.5608e-010    4.0586e-010    
  -5.2            -4.456e-010     3.9736e-010    
  -5.1            -4.3798e-010    3.8964e-010    
  -5              -4.2936e-010    3.7996e-010    
  -4.9            -4.1934e-010    3.7074e-010    
  -4.8            -4.1032e-010    3.609e-010     
  -4.7            -4.0534e-010    3.5482e-010    
  -4.6            -3.9652e-010    3.4528e-010    
  -4.5            -3.8826e-010    3.376e-010     
  -4.4            -3.7954e-010    3.2964e-010    
  -4.3            -3.7438e-010    3.2168e-010    
  -4.2            -3.675e-010     3.1638e-010    
  -4.1            -3.6072e-010    3.1006e-010    
  -4              -3.5246e-010    3.0258e-010    
  -3.9            -3.4886e-010    2.9718e-010    
  -3.8            -3.4342e-010    2.9086e-010    
  -3.7            -3.369e-010     2.85e-010      
  -3.6            -3.2986e-010    2.7766e-010    
  -3.5            -3.2554e-010    2.7212e-010    
  -3.4            -3.202e-010     2.6828e-010    
  -3.3            -3.1398e-010    2.626e-010     
  -3.2            -3.0878e-010    2.5724e-010    
  -3.1            -3.0432e-010    2.5008e-010    
  -3              -3.0066e-010    2.4752e-010    
  -2.9            -2.948e-010     2.4302e-010    
  -2.8            -2.9014e-010    2.3668e-010    
  -2.7            -2.8486e-010    2.3172e-010    
  -2.6            -2.8236e-010    2.303e-010     
  -2.5            -2.7632e-010    2.248e-010     
  -2.4            -2.7258e-010    2.186e-010     
  -2.3            -2.6856e-010    2.149e-010     
  -2.2            -2.6606e-010    2.1244e-010    
  -2.1            -2.6138e-010    2.0786e-010    
  -2              -2.559e-010     2.0104e-010    
  -1.9            -2.5172e-010    2.0006e-010    
  -1.8            -2.4902e-010    1.9554e-010    
  -1.7            -2.448e-010     1.9154e-010    
  -1.6            -2.3876e-010    1.8576e-010    
  -1.5            -2.3498e-010    1.8204e-010    
  -1.4            -2.307e-010     1.7622e-010    
  -1.3            -2.263e-010     1.7128e-010    
  -1.2            -2.184e-010     1.6554e-010    
  -1.1            -2.1258e-010    1.5934e-010    
  -1              -2.0558e-010    1.4996e-010    
  -0.9            -1.9682e-010    1.4216e-010    
  -0.8            -1.8548e-010    1.332e-010     
  -0.7            -1.7476e-010    1.2034e-010    
  -0.6            -1.6266e-010    1.0676e-010    
  -0.5            -1.477e-010     9.226e-011     
  -0.4            -1.3034e-010    7.736e-011     
  -0.3            -1.1244e-010    5.852e-011     
  -0.2            -9.53e-011      3.992e-011     
  -0.1            -7.024e-011     1.664e-011     
  0               -1.24e-012      -3.848e-011    
END_DB

