! VERSION = 6.00
BEGIN_HEADER
 ICCAP_INPUTS
  vc         V  cathode GROUND SMU1 0.1 CON        0
  va         V  anode GROUND SMU2 0.1 LIN        1    0          1          51   0.02      
 ICCAP_OUTPUTS
  ia         I  anode GROUND SMU2 B
  ic         I  cathode GROUND SMU1 B
 ICCAP_VALUES
  DataOrigin "Measure"
  ___CONTEXT ""
  Date "Jan 13 Thu 19:50:24 2022"
  Version "WaferPro.2016.01"
  Bench "B1500_B2200"
  Temperature "125"
  Lot "M135205"
  Reticle "M135205"
  Wafer "01D2"
  Die "X-3-Y0"
  DieList "TargetDie"
  Block "WholeDie"
  Subsite "diod2-5V"
  Routine "DIODE_EXTR_Measure"
  MeasCond "Set1"
  Device "10"
  DeviceName "pdiode_Dp5_A32B640"
  DevTechno "DIO"
  DevPolarity "P"
  Setup "iv_fwd"
  Type "-1"
  ___SPICE_INSTANCE ""
  A "3.2E-006"
  B "6.4E-005"
  ___TECHNO_INSTANCE ""
  ___CALIBRATION ""
END_HEADER

BEGIN_DB
 ICCAP_VAR vc         0              

 #va              ia              ic             
  0               5.8e-013        3.884e-011     
  0.02            3.258e-011      -1.126e-011    
  0.04            8.376e-011      -5.498e-011    
  0.06            1.6376e-010     -1.1716e-010   
  0.08            2.9526e-010     -2.1428e-010   
  0.1             5.1318e-010     -3.8452e-010   
  0.12            8.7628e-010     -6.6946e-010   
  0.14            1.4722e-009     -1.3574e-009   
  0.16            2.4978e-009     -2.2464e-009   
  0.18            4.2226e-009     -3.9462e-009   
  0.2             7.1862e-009     -6.9208e-009   
  0.22            1.229e-008      -1.2162e-008   
  0.24            2.1074e-008     -2.0024e-008   
  0.26            3.636e-008      -3.529e-008    
  0.28            6.2894e-008     -6.1888e-008   
  0.3             1.09448e-007    -1.08592e-007  
  0.32            1.9122e-007     -1.9076e-007   
  0.34            3.3412e-007     -3.3346e-007   
  0.36            5.8638e-007     -5.8576e-007   
  0.38            1.0282e-006     -1.0274e-006   
  0.4             1.8028e-006     -1.8026e-006   
  0.42            3.1658e-006     -3.1652e-006   
  0.44            5.5372e-006     -5.5378e-006   
  0.46            9.671e-006      -9.6704e-006   
  0.48            1.6732e-005     -1.6728e-005   
  0.5             2.872e-005      -2.8708e-005   
  0.52            4.849e-005      -4.848e-005    
  0.54            8.029e-005      -8.0282e-005   
  0.56            0.00012992      -0.0001298     
  0.58            0.00020352      -0.00020338    
  0.6             0.00030876      -0.00030862    
  0.62            0.00045152      -0.00045138    
  0.64            0.00063834      -0.0006382     
  0.66            0.00087198      -0.0008718     
  0.68            0.0011578       -0.00115674    
  0.7             0.0014942       -0.001493      
  0.72            0.00188         -0.0018784     
  0.74            0.0023168       -0.0023154     
  0.76            0.0027992       -0.0027976     
  0.78            0.0033266       -0.0033252     
  0.8             0.0038958       -0.0038942     
  0.82            0.004501        -0.0044992     
  0.84            0.0051432       -0.0051412     
  0.86            0.0058168       -0.005815      
  0.88            0.0065156       -0.0065144     
  0.9             0.0072446       -0.0072426     
  0.92            0.0079946       -0.0079926     
  0.94            0.0087692       -0.008767      
  0.96            0.0095602       -0.0095584     
  0.98            0.0103722       -0.0103698     
  1               0.0111982       -0.0111966     
END_DB

