! VERSION = 6.00
BEGIN_HEADER
 ICCAP_INPUTS
  vc         V  cathode GROUND SMU1 0.1 CON        0
  va         V  anode GROUND SMU2 0.1 LIN        1    -15        0          151  0.1       
 ICCAP_OUTPUTS
  ia         I  anode GROUND SMU2 B
  ic         I  cathode GROUND SMU1 B
 ICCAP_VALUES
  DataOrigin "Measure"
  ___CONTEXT ""
  Date "Jan 13 Thu 19:46:46 2022"
  Version "WaferPro.2016.01"
  Bench "B1500_B2200"
  Temperature "125"
  Lot "M135205"
  Reticle "M135205"
  Wafer "01D2"
  Die "X-3-Y0"
  DieList "TargetDie"
  Block "WholeDie"
  Subsite "diod2-5V"
  Routine "DIODE_EXTR_Measure"
  MeasCond "Set1"
  Device "7"
  DeviceName "pdiode_Dp5_A032B640"
  DevTechno "DIO"
  DevPolarity "P"
  Setup "iv_rev"
  Type "-1"
  ___SPICE_INSTANCE ""
  A "3.2E-007"
  B "6.4E-005"
  ___TECHNO_INSTANCE ""
  ___CALIBRATION ""
END_HEADER

BEGIN_DB
 ICCAP_VAR vc         0              

 #va              ia              ic             
  -15             -0.0084726      0.0085064      
  -14.9           -0.007968       0.0079808      
  -14.8           -0.0074654      0.0074712      
  -14.7           -0.006949       0.0069554      
  -14.6           -0.0064314      0.0064326      
  -14.5           -0.0058986      0.0059004      
  -14.4           -0.0053566      0.005358       
  -14.3           -0.0047994      0.0047982      
  -14.2           -0.004237       0.0042332      
  -14.1           -0.0036554      0.0036526      
  -14             -0.0030676      0.0030618      
  -13.9           -0.002467       0.0024638      
  -13.8           -0.0018552      0.0018452      
  -13.7           -0.0012334      0.001222       
  -13.6           -0.00057304     0.00055188     
  -13.5           -1.4264e-005    7.3122e-006    
  -13.4           -4.8008e-007    4.3422e-007    
  -13.3           -1.7998e-007    1.7668e-007    
  -13.2           -1.0788e-007    1.0692e-007    
  -13.1           -7.6222e-008    7.5778e-008    
  -13             -5.8566e-008    5.8364e-008    
  -12.9           -4.718e-008     4.7114e-008    
  -12.8           -3.9314e-008    3.9268e-008    
  -12.7           -3.3544e-008    3.3532e-008    
  -12.6           -2.917e-008     2.9182e-008    
  -12.5           -2.5692e-008    2.5722e-008    
  -12.4           -2.288e-008     2.287e-008     
  -12.3           -2.0624e-008    2.0652e-008    
  -12.2           -1.8726e-008    1.8732e-008    
  -12.1           -1.709e-008     1.7126e-008    
  -12             -1.5672e-008    1.572e-008     
  -11.9           -1.4458e-008    1.4496e-008    
  -11.8           -1.3378e-008    1.3418e-008    
  -11.7           -1.2444e-008    1.2488e-008    
  -11.6           -1.1616e-008    1.1658e-008    
  -11.5           -1.0864e-008    1.0922e-008    
  -11.4           -1.0186e-008    1.023e-008     
  -11.3           -9.582e-009     9.6392e-009    
  -11.2           -9.0192e-009    9.0734e-009    
  -11.1           -8.5478e-009    8.5678e-009    
  -11             -8.0998e-009    8.127e-009     
  -10.9           -7.684e-009     7.701e-009     
  -10.8           -7.2752e-009    7.3072e-009    
  -10.7           -6.9094e-009    6.943e-009     
  -10.6           -6.5998e-009    6.6196e-009    
  -10.5           -6.2972e-009    6.3208e-009    
  -10.4           -6.0016e-009    6.024e-009     
  -10.3           -5.7242e-009    5.746e-009     
  -10.2           -5.4712e-009    5.498e-009     
  -10.1           -5.2342e-009    5.2606e-009    
  -10             -5.0178e-009    5.0306e-009    
  -9.9            -4.809e-009     4.8274e-009    
  -9.8            -4.611e-009     4.626e-009     
  -9.7            -4.431e-009     4.4402e-009    
  -9.6            -4.258e-009     4.2708e-009    
  -9.5            -4.0838e-009    4.096e-009     
  -9.4            -3.9356e-009    3.9442e-009    
  -9.3            -3.7922e-009    3.794e-009     
  -9.2            -3.6486e-009    3.6486e-009    
  -9.1            -3.5134e-009    3.5126e-009    
  -9              -3.3866e-009    3.3848e-009    
  -8.9            -3.2636e-009    3.2548e-009    
  -8.8            -3.1508e-009    3.1426e-009    
  -8.7            -3.0464e-009    3.0328e-009    
  -8.6            -2.9404e-009    2.9226e-009    
  -8.5            -2.84e-009      2.8222e-009    
  -8.4            -2.7436e-009    2.7242e-009    
  -8.3            -2.653e-009     2.6298e-009    
  -8.2            -2.5622e-009    2.5396e-009    
  -8.1            -2.4828e-009    2.4558e-009    
  -8              -2.4076e-009    2.3794e-009    
  -7.9            -2.3334e-009    2.301e-009     
  -7.8            -2.262e-009     2.226e-009     
  -7.7            -2.192e-009     2.1578e-009    
  -7.6            -2.1234e-009    2.0888e-009    
  -7.5            -2.0606e-009    2.0216e-009    
  -7.4            -2.0006e-009    1.9616e-009    
  -7.3            -1.9452e-009    1.9078e-009    
  -7.2            -1.8896e-009    1.8476e-009    
  -7.1            -1.8374e-009    1.797e-009     
  -7              -1.785e-009     1.742e-009     
  -6.9            -1.735e-009     1.694e-009     
  -6.8            -1.6882e-009    1.6432e-009    
  -6.7            -1.6438e-009    1.5974e-009    
  -6.6            -1.6008e-009    1.5562e-009    
  -6.5            -1.56e-009      1.513e-009     
  -6.4            -1.5202e-009    1.472e-009     
  -6.3            -1.484e-009     1.4366e-009    
  -6.2            -1.4478e-009    1.3996e-009    
  -6.1            -1.412e-009     1.3624e-009    
  -6              -1.3786e-009    1.3294e-009    
  -5.9            -1.347e-009     1.2972e-009    
  -5.8            -1.3152e-009    1.2666e-009    
  -5.7            -1.2856e-009    1.2322e-009    
  -5.6            -1.2568e-009    1.2034e-009    
  -5.5            -1.229e-009     1.1752e-009    
  -5.4            -1.2022e-009    1.1498e-009    
  -5.3            -1.1778e-009    1.125e-009     
  -5.2            -1.1514e-009    1.0998e-009    
  -5.1            -1.1274e-009    1.0758e-009    
  -5              -1.106e-009     1.0534e-009    
  -4.9            -1.0844e-009    1.0304e-009    
  -4.8            -1.0634e-009    1.009e-009     
  -4.7            -1.0424e-009    9.9626e-010    
  -4.6            -1.0212e-009    9.7252e-010    
  -4.5            -1.0014e-009    9.4964e-010    
  -4.4            -9.8188e-010    9.3002e-010    
  -4.3            -9.6202e-010    9.153e-010     
  -4.2            -9.4204e-010    8.9486e-010    
  -4.1            -9.2532e-010    8.7528e-010    
  -4              -9.0918e-010    8.5704e-010    
  -3.9            -8.9292e-010    8.4026e-010    
  -3.8            -8.7652e-010    8.2388e-010    
  -3.7            -8.6084e-010    8.0864e-010    
  -3.6            -8.4722e-010    7.936e-010     
  -3.5            -8.3296e-010    7.807e-010     
  -3.4            -8.182e-010     7.6736e-010    
  -3.3            -8.0554e-010    7.538e-010     
  -3.2            -7.9184e-010    7.3842e-010    
  -3.1            -7.7938e-010    7.2804e-010    
  -3              -7.6672e-010    7.1154e-010    
  -2.9            -7.55e-010      6.995e-010     
  -2.8            -7.4342e-010    6.8892e-010    
  -2.7            -7.3156e-010    6.8098e-010    
  -2.6            -7.1978e-010    6.663e-010     
  -2.5            -7.0792e-010    6.5274e-010    
  -2.4            -6.9764e-010    6.433e-010     
  -2.3            -6.8712e-010    6.333e-010     
  -2.2            -6.7606e-010    6.2274e-010    
  -2.1            -6.6564e-010    6.068e-010     
  -2              -6.5612e-010    6.0282e-010    
  -1.9            -6.4504e-010    5.9248e-010    
  -1.8            -6.3526e-010    5.8206e-010    
  -1.7            -6.242e-010     5.694e-010     
  -1.6            -6.1458e-010    5.6112e-010    
  -1.5            -6.0382e-010    5.4966e-010    
  -1.4            -5.9316e-010    5.3784e-010    
  -1.3            -5.8244e-010    5.2622e-010    
  -1.2            -5.707e-010     5.1518e-010    
  -1.1            -5.57e-010      5.0354e-010    
  -1              -5.4214e-010    4.8714e-010    
  -0.9            -5.247e-010     4.7038e-010    
  -0.8            -5.0618e-010    4.5198e-010    
  -0.7            -4.8436e-010    4.2974e-010    
  -0.6            -4.5932e-010    4.025e-010     
  -0.5            -4.2824e-010    3.7338e-010    
  -0.4            -3.9454e-010    3.3776e-010    
  -0.3            -3.545e-010     2.977e-010     
  -0.2            -3.032e-010     2.4808e-010    
  -0.1            -2.288e-010     1.7458e-010    
  0               -4.04e-012      -4.746e-011    
END_DB

