! VERSION = 6.00
BEGIN_HEADER
 ICCAP_INPUTS
  vc         V  cathode GROUND SMU1 0.1 CON        0
  va         V  anode GROUND SMU2 0.1 LIN        1    0          1          51   0.02      
 ICCAP_OUTPUTS
  ia         I  anode GROUND SMU2 B
  ic         I  cathode GROUND SMU1 B
 ICCAP_VALUES
  DataOrigin "Measure"
  ___CONTEXT ""
  Date "Jan 13 Thu 19:43:09 2022"
  Version "WaferPro.2016.01"
  Bench "B1500_B2200"
  Temperature "125"
  Lot "M135205"
  Reticle "M135205"
  Wafer "01D2"
  Die "X-3-Y0"
  DieList "TargetDie"
  Block "WholeDie"
  Subsite "diod2-5V"
  Routine "DIODE_EXTR_Measure"
  MeasCond "Set1"
  Device "4"
  DeviceName "pdiode_Dp5_A32B32"
  DevTechno "DIO"
  DevPolarity "P"
  Setup "iv_fwd"
  Type "-1"
  ___SPICE_INSTANCE ""
  A "3.2E-006"
  B "3.2E-006"
  ___TECHNO_INSTANCE ""
  ___CALIBRATION ""
END_HEADER

BEGIN_DB
 ICCAP_VAR vc         0              

 #va              ia              ic             
  0               -1.2e-013       2.122e-011     
  0.02            2.8e-012        3.08e-012      
  0.04            6.82e-012       -4.5e-012      
  0.06            1.324e-011      -1.15e-011     
  0.08            2.418e-011      -2.28e-011     
  0.1             4.086e-011      -3.658e-011    
  0.12            6.814e-011      -5.668e-011    
  0.14            1.1356e-010     -8.908e-011    
  0.16            1.8862e-010     -1.4146e-010   
  0.18            3.1366e-010     -2.2612e-010   
  0.2             5.2522e-010     -3.7566e-010   
  0.22            8.8352e-010     -6.5276e-010   
  0.24            1.4914e-009     -1.10086e-009  
  0.26            2.5404e-009     -2.2224e-009   
  0.28            4.3366e-009     -3.9856e-009   
  0.3             7.469e-009      -7.1482e-009   
  0.32            1.2936e-008     -1.283e-008    
  0.34            2.2438e-008     -2.1264e-008   
  0.36            3.9128e-008     -3.8032e-008   
  0.38            6.8326e-008     -6.7428e-008   
  0.4             1.1972e-007     -1.1942e-007   
  0.42            2.1026e-007     -2.0968e-007   
  0.44            3.6864e-007     -3.6812e-007   
  0.46            6.4734e-007     -6.4686e-007   
  0.48            1.13146e-006    -1.13092e-006  
  0.5             1.9754e-006     -1.9756e-006   
  0.52            3.4196e-006     -3.4186e-006   
  0.54            5.8628e-006     -5.862e-006    
  0.56            9.9246e-006     -9.9238e-006   
  0.58            1.644e-005      -1.6428e-005   
  0.6             2.6498e-005     -2.6482e-005   
  0.62            4.1212e-005     -4.1194e-005   
  0.64            6.1762e-005     -6.174e-005    
  0.66            8.8852e-005     -8.8832e-005   
  0.68            0.0001233       -0.00012316    
  0.7             0.00016514      -0.000165      
  0.72            0.00021422      -0.00021408    
  0.74            0.00027084      -0.0002707     
  0.76            0.00033432      -0.00033418    
  0.78            0.00040486      -0.00040472    
  0.8             0.00048218      -0.00048204    
  0.82            0.00056594      -0.00056578    
  0.84            0.00065676      -0.00065658    
  0.86            0.00075462      -0.00075444    
  0.88            0.00085938      -0.00085916    
  0.9             0.00097222      -0.00097198    
  0.92            0.0010927       -0.00109244    
  0.94            0.0012232       -0.0012216     
  0.96            0.001361        -0.0013594     
  0.98            0.0015084       -0.0015068     
  1               0.0016644       -0.0016626     
END_DB

