! VERSION = 6.00
BEGIN_HEADER
 ICCAP_INPUTS
  vc         V  cathode GROUND SMU1 0.1 CON        0
  va         V  anode GROUND SMU2 0.1 LIN        1    -15        0          151  0.1       
 ICCAP_OUTPUTS
  ia         I  anode GROUND SMU2 B
  ic         I  cathode GROUND SMU1 B
 ICCAP_VALUES
  DataOrigin "Measure"
  ___CONTEXT ""
  Date "Jan 13 Thu 19:41:59 2022"
  Version "WaferPro.2016.01"
  Bench "B1500_B2200"
  Temperature "125"
  Lot "M135205"
  Reticle "M135205"
  Wafer "01D2"
  Die "X-3-Y0"
  DieList "TargetDie"
  Block "WholeDie"
  Subsite "diod2-5V"
  Routine "DIODE_EXTR_Measure"
  MeasCond "Set1"
  Device "3"
  DeviceName "pdiode_Dp5_A032B320"
  DevTechno "DIO"
  DevPolarity "P"
  Setup "iv_rev"
  Type "-1"
  ___SPICE_INSTANCE ""
  A "3.2E-007"
  B "3.2E-005"
  ___TECHNO_INSTANCE ""
  ___CALIBRATION ""
END_HEADER

BEGIN_DB
 ICCAP_VAR vc         0              

 #va              ia              ic             
  -15             -0.0045414      0.0045582      
  -14.9           -0.0042782      0.0042834      
  -14.8           -0.0040102      0.0040146      
  -14.7           -0.003738       0.0037406      
  -14.6           -0.0034602      0.0034612      
  -14.5           -0.0031752      0.0031772      
  -14.4           -0.0028872      0.0028896      
  -14.3           -0.0025922      0.0025924      
  -14.2           -0.0022954      0.002292       
  -14.1           -0.0019838      0.0019838      
  -14             -0.0016722      0.0016694      
  -13.9           -0.0013544      0.0013542      
  -13.8           -0.0010318      0.0010278      
  -13.7           -0.0007082      0.00070022     
  -13.6           -0.000362       0.00035282     
  -13.5           -1.5686e-005    9.6048e-006    
  -13.4           -3.2804e-007    2.7932e-007    
  -13.3           -1.0712e-007    1.0464e-007    
  -13.2           -6.221e-008     6.092e-008     
  -13.1           -4.2868e-008    4.2462e-008    
  -13             -3.2534e-008    3.236e-008     
  -12.9           -2.5928e-008    2.576e-008     
  -12.8           -2.153e-008     2.1388e-008    
  -12.7           -1.8292e-008    1.8202e-008    
  -12.6           -1.5896e-008    1.582e-008     
  -12.5           -1.3962e-008    1.3902e-008    
  -12.4           -1.2396e-008    1.2346e-008    
  -12.3           -1.1168e-008    1.111e-008     
  -12.2           -1.0078e-008    1.0028e-008    
  -12.1           -9.1942e-009    9.1554e-009    
  -12             -8.421e-009     8.4138e-009    
  -11.9           -7.7596e-009    7.729e-009     
  -11.8           -7.191e-009     7.1756e-009    
  -11.7           -6.6704e-009    6.6536e-009    
  -11.6           -6.2044e-009    6.1744e-009    
  -11.5           -5.799e-009     5.7696e-009    
  -11.4           -5.4338e-009    5.413e-009     
  -11.3           -5.0896e-009    5.0504e-009    
  -11.2           -4.7724e-009    4.7522e-009    
  -11.1           -4.5044e-009    4.4766e-009    
  -11             -4.2728e-009    4.238e-009     
  -10.9           -4.0416e-009    4.0076e-009    
  -10.8           -3.8338e-009    3.7982e-009    
  -10.7           -3.6434e-009    3.6054e-009    
  -10.6           -3.4588e-009    3.422e-009     
  -10.5           -3.288e-009     3.2536e-009    
  -10.4           -3.1324e-009    3.0954e-009    
  -10.3           -2.9962e-009    2.9588e-009    
  -10.2           -2.8608e-009    2.8172e-009    
  -10.1           -2.7246e-009    2.6854e-009    
  -10             -2.6146e-009    2.5716e-009    
  -9.9            -2.5038e-009    2.4616e-009    
  -9.8            -2.3948e-009    2.3506e-009    
  -9.7            -2.3016e-009    2.255e-009     
  -9.6            -2.2132e-009    2.1712e-009    
  -9.5            -2.1286e-009    2.082e-009     
  -9.4            -2.049e-009     1.9994e-009    
  -9.3            -1.9714e-009    1.9218e-009    
  -9.2            -1.9042e-009    1.8566e-009    
  -9.1            -1.837e-009     1.7898e-009    
  -9              -1.7676e-009    1.717e-009     
  -8.9            -1.7074e-009    1.6562e-009    
  -8.8            -1.6472e-009    1.5994e-009    
  -8.7            -1.5952e-009    1.5434e-009    
  -8.6            -1.5396e-009    1.4856e-009    
  -8.5            -1.4916e-009    1.4382e-009    
  -8.4            -1.4418e-009    1.389e-009     
  -8.3            -1.3944e-009    1.3384e-009    
  -8.2            -1.3546e-009    1.3026e-009    
  -8.1            -1.3114e-009    1.2598e-009    
  -8              -1.274e-009     1.2218e-009    
  -7.9            -1.2372e-009    1.1808e-009    
  -7.8            -1.2026e-009    1.148e-009     
  -7.7            -1.1618e-009    1.1086e-009    
  -7.6            -1.1288e-009    1.0732e-009    
  -7.5            -1.0934e-009    1.036e-009     
  -7.4            -1.0634e-009    1.0064e-009    
  -7.3            -1.0314e-009    9.9054e-010    
  -7.2            -1.0032e-009    9.5348e-010    
  -7.1            -9.7816e-010    9.2398e-010    
  -7              -9.5036e-010    9.0102e-010    
  -6.9            -9.249e-010     8.7774e-010    
  -6.8            -8.9806e-010    8.51e-010      
  -6.7            -8.7664e-010    8.2218e-010    
  -6.6            -8.5572e-010    8.0166e-010    
  -6.5            -8.3384e-010    7.8202e-010    
  -6.4            -8.101e-010     7.5846e-010    
  -6.3            -7.9106e-010    7.3862e-010    
  -6.2            -7.74e-010      7.2114e-010    
  -6.1            -7.5458e-010    7.044e-010     
  -6              -7.3722e-010    6.855e-010     
  -5.9            -7.2168e-010    6.6664e-010    
  -5.8            -7.0574e-010    6.4896e-010    
  -5.7            -6.8982e-010    6.3678e-010    
  -5.6            -6.7328e-010    6.2144e-010    
  -5.5            -6.5928e-010    6.0634e-010    
  -5.4            -6.4496e-010    5.913e-010     
  -5.3            -6.3006e-010    5.7678e-010    
  -5.2            -6.1538e-010    5.622e-010     
  -5.1            -6.0388e-010    5.4866e-010    
  -5              -5.918e-010     5.3582e-010    
  -4.9            -5.7986e-010    5.2236e-010    
  -4.8            -5.675e-010     5.1458e-010    
  -4.7            -5.575e-010     5.0368e-010    
  -4.6            -5.4562e-010    4.9104e-010    
  -4.5            -5.35e-010      4.7986e-010    
  -4.4            -5.2384e-010    4.6976e-010    
  -4.3            -5.1444e-010    4.5898e-010    
  -4.2            -5.061e-010     4.4852e-010    
  -4.1            -4.9786e-010    4.422e-010     
  -4              -4.882e-010     4.3358e-010    
  -3.9            -4.7914e-010    4.2308e-010    
  -3.8            -4.712e-010     4.1534e-010    
  -3.7            -4.6242e-010    4.0716e-010    
  -3.6            -4.5416e-010    3.9814e-010    
  -3.5            -4.4532e-010    3.8922e-010    
  -3.4            -4.3954e-010    3.8204e-010    
  -3.3            -4.3252e-010    3.7602e-010    
  -3.2            -4.244e-010     3.659e-010     
  -3.1            -4.1748e-010    3.606e-010     
  -3              -4.11e-010      3.5516e-010    
  -2.9            -4.0478e-010    3.492e-010     
  -2.8            -3.9802e-010    3.412e-010     
  -2.7            -3.9228e-010    3.355e-010     
  -2.6            -3.8598e-010    3.2854e-010    
  -2.5            -3.8104e-010    3.1976e-010    
  -2.4            -3.7428e-010    3.1874e-010    
  -2.3            -3.6832e-010    3.112e-010     
  -2.2            -3.631e-010     3.0702e-010    
  -2.1            -3.5782e-010    2.9878e-010    
  -2              -3.518e-010     2.9546e-010    
  -1.9            -3.4606e-010    2.8926e-010    
  -1.8            -3.4176e-010    2.8216e-010    
  -1.7            -3.3594e-010    2.772e-010     
  -1.6            -3.2952e-010    2.7346e-010    
  -1.5            -3.2282e-010    2.6664e-010    
  -1.4            -3.185e-010     2.5894e-010    
  -1.3            -3.1286e-010    2.5476e-010    
  -1.2            -3.06e-010      2.4982e-010    
  -1.1            -2.9912e-010    2.4198e-010    
  -1              -2.9294e-010    2.326e-010     
  -0.9            -2.8478e-010    2.268e-010     
  -0.8            -2.7476e-010    2.1382e-010    
  -0.7            -2.64e-010      2.0804e-010    
  -0.6            -2.524e-010     1.9258e-010    
  -0.5            -2.3752e-010    1.792e-010     
  -0.4            -2.1944e-010    1.6242e-010    
  -0.3            -1.984e-010     1.417e-010     
  -0.2            -1.7226e-010    1.1314e-010    
  -0.1            -1.3148e-010    7.266e-011     
  0               -1.52e-012      -5.336e-011    
END_DB

