! VERSION = 6.00
BEGIN_HEADER
 ICCAP_INPUTS
  vc         V  cathode GROUND SMU1 0.1 CON        0
  va         V  anode GROUND SMU2 0.1 LIN        1    0          1          51   0.02      
 ICCAP_OUTPUTS
  ia         I  anode GROUND SMU2 B
  ic         I  cathode GROUND SMU1 B
 ICCAP_VALUES
  DataOrigin "Measure"
  ___CONTEXT ""
  Date "Jan 13 Thu 19:46:46 2022"
  Version "WaferPro.2016.01"
  Bench "B1500_B2200"
  Temperature "125"
  Lot "M135205"
  Reticle "M135205"
  Wafer "01D2"
  Die "X-3-Y0"
  DieList "TargetDie"
  Block "WholeDie"
  Subsite "diod2-5V"
  Routine "DIODE_EXTR_Measure"
  MeasCond "Set1"
  Device "7"
  DeviceName "pdiode_Dp5_A032B640"
  DevTechno "DIO"
  DevPolarity "P"
  Setup "iv_fwd"
  Type "-1"
  ___SPICE_INSTANCE ""
  A "3.2E-007"
  B "6.4E-005"
  ___TECHNO_INSTANCE ""
  ___CALIBRATION ""
END_HEADER

BEGIN_DB
 ICCAP_VAR vc         0              

 #va              ia              ic             
  0               4.4e-013        4.324e-011     
  0.02            5.814e-011      -3.73e-011     
  0.04            1.449e-010      -1.268e-010    
  0.06            2.7522e-010     -2.5462e-010   
  0.08            4.7206e-010     -4.4112e-010   
  0.1             7.7476e-010     -7.2386e-010   
  0.12            1.2386e-009     -1.1816e-009   
  0.14            1.9472e-009     -1.8266e-009   
  0.16            3.039e-009      -2.8326e-009   
  0.18            4.7138e-009     -4.419e-009    
  0.2             7.319e-009      -6.9604e-009   
  0.22            1.13576e-008    -1.1003e-008   
  0.24            1.7654e-008     -1.7354e-008   
  0.26            2.7604e-008     -2.6466e-008   
  0.28            4.333e-008      -4.2136e-008   
  0.3             6.8608e-008     -6.7492e-008   
  0.32            1.09436e-007    -1.08468e-007  
  0.34            1.759e-007      -1.7546e-007   
  0.36            2.856e-007      -2.8486e-007   
  0.38            4.6664e-007     -4.6596e-007   
  0.4             7.6828e-007     -7.6756e-007   
  0.42            1.2772e-006     -1.2752e-006   
  0.44            2.1258e-006     -2.123e-006    
  0.46            3.5524e-006     -3.5498e-006   
  0.48            5.9204e-006     -5.9174e-006   
  0.5             9.8698e-006     -9.8666e-006   
  0.52            1.6346e-005     -1.6342e-005   
  0.54            2.6852e-005     -2.6844e-005   
  0.56            4.3734e-005     -4.3726e-005   
  0.58            7.016e-005      -7.014e-005    
  0.6             0.000110844     -0.000110818   
  0.62            0.0001714       -0.00017124    
  0.64            0.00025894      -0.00025876    
  0.66            0.00038024      -0.00038008    
  0.68            0.00054354      -0.00054342    
  0.7             0.00075532      -0.0007552     
  0.72            0.00102006      -0.0010199     
  0.74            0.0013454       -0.001344      
  0.76            0.0017304       -0.001729      
  0.78            0.00218         -0.0021786     
  0.8             0.0026942       -0.0026926     
  0.82            0.00327         -0.0032682     
  0.84            0.0039096       -0.0039078     
  0.86            0.0046088       -0.0046068     
  0.88            0.0053608       -0.005359      
  0.9             0.0061688       -0.0061668     
  0.92            0.0070226       -0.0070206     
  0.94            0.0079254       -0.0079236     
  0.96            0.0088672       -0.008865      
  0.98            0.0098526       -0.00985       
  1               0.01087         -0.0108676     
END_DB

