! VERSION = 6.00
BEGIN_HEADER
 ICCAP_INPUTS
  vc         V  cathode GROUND SMU1 0.1 CON        0
  va         V  anode GROUND SMU2 0.1 LIN        1    0          1          51   0.02      
 ICCAP_OUTPUTS
  ia         I  anode GROUND SMU2 B
  ic         I  cathode GROUND SMU1 B
 ICCAP_VALUES
  DataOrigin "Measure"
  ___CONTEXT ""
  Date "Jan 13 Thu 19:40:45 2022"
  Version "WaferPro.2016.01"
  Bench "B1500_B2200"
  Temperature "125"
  Lot "M135205"
  Reticle "M135205"
  Wafer "01D2"
  Die "X-3-Y0"
  DieList "TargetDie"
  Block "WholeDie"
  Subsite "diod2-5V"
  Routine "DIODE_EXTR_Measure"
  MeasCond "Set1"
  Device "2"
  DeviceName "pdiode_Dp5_A032B32"
  DevTechno "DIO"
  DevPolarity "P"
  Setup "iv_fwd"
  Type "-1"
  ___SPICE_INSTANCE ""
  A "3.2E-007"
  B "3.2E-006"
  ___TECHNO_INSTANCE ""
  ___CALIBRATION ""
END_HEADER

BEGIN_DB
 ICCAP_VAR vc         0              

 #va              ia              ic             
  0               3.6e-013        4.06e-011      
  0.02            4.24e-012       7.46e-012      
  0.04            1.016e-011      -5.26e-012     
  0.06            1.916e-011      -1.934e-011    
  0.08            3.31e-011       -3.64e-011     
  0.1             5.384e-011      -5.466e-011    
  0.12            8.496e-011      -8.472e-011    
  0.14            1.3212e-010     -1.297e-010    
  0.16            2.0328e-010     -1.9332e-010   
  0.18            3.1098e-010     -2.8912e-010   
  0.2             4.7806e-010     -4.3192e-010   
  0.22            7.3288e-010     -6.5022e-010   
  0.24            1.1285e-009     -9.8466e-010   
  0.26            1.7506e-009     -1.6262e-009   
  0.28            2.7202e-009     -2.4688e-009   
  0.3             4.285e-009      -3.9324e-009   
  0.32            6.793e-009      -6.4304e-009   
  0.34            1.08516e-008    -1.05122e-008  
  0.36            1.75e-008       -1.7256e-008   
  0.38            2.8466e-008     -2.7202e-008   
  0.4             4.6592e-008     -4.5402e-008   
  0.42            7.6954e-008     -7.5902e-008   
  0.44            1.2752e-007     -1.2728e-007   
  0.46            2.1212e-007     -2.1152e-007   
  0.48            3.5248e-007     -3.5202e-007   
  0.5             5.8638e-007     -5.8578e-007   
  0.52            9.7022e-007     -9.6948e-007   
  0.54            1.5974e-006     -1.5968e-006   
  0.56            2.6114e-006     -2.6098e-006   
  0.58            4.2184e-006     -4.2168e-006   
  0.6             6.7434e-006     -6.742e-006    
  0.62            1.05954e-005    -1.05938e-005  
  0.64            1.638e-005      -1.6366e-005   
  0.66            2.469e-005      -2.4676e-005   
  0.68            3.631e-005      -3.6294e-005   
  0.7             5.1926e-005     -5.1904e-005   
  0.72            7.2024e-005     -7.2008e-005   
  0.74            9.7234e-005     -9.721e-005    
  0.76            0.00012772      -0.0001276     
  0.78            0.00016376      -0.00016362    
  0.8             0.00020554      -0.0002054     
  0.82            0.00025312      -0.00025296    
  0.84            0.00030706      -0.00030686    
  0.86            0.0003675       -0.00036732    
  0.88            0.00043474      -0.00043452    
  0.9             0.0005098       -0.0005096     
  0.92            0.00059274      -0.00059248    
  0.94            0.00068498      -0.00068472    
  0.96            0.00078646      -0.00078616    
  0.98            0.00089856      -0.00089826    
  1               0.00102098      -0.00102064    
END_DB

