! VERSION = 6.00
BEGIN_HEADER
 ICCAP_INPUTS
  vc         V  cathode GROUND SMU1 0.1 CON        0
  va         V  anode GROUND SMU2 0.1 LIN        1    0          1          51   0.02      
 ICCAP_OUTPUTS
  ia         I  anode GROUND SMU2 B
  ic         I  cathode GROUND SMU1 B
 ICCAP_VALUES
  DataOrigin "Measure"
  ___CONTEXT ""
  Date "Jan 13 Thu 19:45:36 2022"
  Version "WaferPro.2016.01"
  Bench "B1500_B2200"
  Temperature "125"
  Lot "M135205"
  Reticle "M135205"
  Wafer "01D2"
  Die "X-3-Y0"
  DieList "TargetDie"
  Block "WholeDie"
  Subsite "diod2-5V"
  Routine "DIODE_EXTR_Measure"
  MeasCond "Set1"
  Device "6"
  DeviceName "pdiode_Dp5_A320B320"
  DevTechno "DIO"
  DevPolarity "P"
  Setup "iv_fwd"
  Type "-1"
  ___SPICE_INSTANCE ""
  A "3.2E-005"
  B "3.2E-005"
  ___TECHNO_INSTANCE ""
  ___CALIBRATION ""
END_HEADER

BEGIN_DB
 ICCAP_VAR vc         0              

 #va              ia              ic             
  0               1.98e-012       4.784e-011     
  0.02            6.438e-011      -1.362e-011    
  0.04            1.6948e-010     -8.028e-011    
  0.06            3.4442e-010     -1.9846e-010   
  0.08            6.3684e-010     -4.2724e-010   
  0.1             1.1186e-009     -8.7648e-010   
  0.12            1.9886e-009     -1.8866e-009   
  0.14            3.5146e-009     -3.2756e-009   
  0.16            6.1842e-009     -5.9088e-009   
  0.18            1.0853e-008     -1.05898e-008  
  0.2             1.9108e-008     -1.8886e-008   
  0.22            3.3654e-008     -3.2704e-008   
  0.24            5.9192e-008     -5.8278e-008   
  0.26            1.04326e-007    -1.0357e-007   
  0.28            1.8362e-007     -1.8326e-007   
  0.3             3.238e-007      -3.2326e-007   
  0.32            5.7088e-007     -5.7036e-007   
  0.34            1.00306e-006    -1.00244e-006  
  0.36            1.762e-006      -1.7616e-006   
  0.38            3.0756e-006     -3.0746e-006   
  0.4             5.3348e-006     -5.3342e-006   
  0.42            9.1786e-006     -9.1782e-006   
  0.44            1.5556e-005     -1.5548e-005   
  0.46            2.5946e-005     -2.593e-005    
  0.48            4.228e-005      -4.2262e-005   
  0.5             6.7488e-005     -6.7458e-005   
  0.52            0.000104926     -0.000104896   
  0.54            0.0001591       -0.00015898    
  0.56            0.00023546      -0.00023532    
  0.58            0.00033934      -0.0003392     
  0.6             0.00047764      -0.0004775     
  0.62            0.00065506      -0.00065488    
  0.64            0.00087738      -0.00087722    
  0.66            0.00114624      -0.00114602    
  0.68            0.0014662       -0.0014648     
  0.7             0.0018348       -0.0018334     
  0.72            0.0022496       -0.0022482     
  0.74            0.0027118       -0.0027104     
  0.76            0.003215        -0.0032134     
  0.78            0.0037588       -0.0037572     
  0.8             0.0043392       -0.0043376     
  0.82            0.0049502       -0.0049486     
  0.84            0.0055924       -0.005591      
  0.86            0.0062614       -0.0062598     
  0.88            0.0069508       -0.0069492     
  0.9             0.0076636       -0.0076618     
  0.92            0.008392        -0.00839       
  0.94            0.0091392       -0.0091372     
  0.96            0.0098978       -0.0098958     
  0.98            0.0106718       -0.0106698     
  1               0.011454        -0.0114516     
END_DB

