! VERSION = 6.00
BEGIN_HEADER
 ICCAP_INPUTS
  vc         V  cathode GROUND SMU1 0.1 CON        0
  va         V  anode GROUND SMU2 0.1 LIN        1    0          1          51   0.02      
 ICCAP_OUTPUTS
  ia         I  anode GROUND SMU2 B
  ic         I  cathode GROUND SMU1 B
 ICCAP_VALUES
  DataOrigin "Measure"
  ___CONTEXT ""
  Date "Jan 13 Thu 19:44:22 2022"
  Version "WaferPro.2016.01"
  Bench "B1500_B2200"
  Temperature "125"
  Lot "M135205"
  Reticle "M135205"
  Wafer "01D2"
  Die "X-3-Y0"
  DieList "TargetDie"
  Block "WholeDie"
  Subsite "diod2-5V"
  Routine "DIODE_EXTR_Measure"
  MeasCond "Set1"
  Device "5"
  DeviceName "pdiode_Dp5_A32B320"
  DevTechno "DIO"
  DevPolarity "P"
  Setup "iv_fwd"
  Type "-1"
  ___SPICE_INSTANCE ""
  A "3.2E-006"
  B "3.2E-005"
  ___TECHNO_INSTANCE ""
  ___CALIBRATION ""
END_HEADER

BEGIN_DB
 ICCAP_VAR vc         0              

 #va              ia              ic             
  0               4.6e-013        5.13e-011      
  0.02            2.164e-011      1.78e-012      
  0.04            5.372e-011      -3.106e-011    
  0.06            1.055e-010      -7.782e-011    
  0.08            1.882e-010      -1.458e-010    
  0.1             3.226e-010      -2.4808e-010   
  0.12            5.4148e-010     -4.1348e-010   
  0.14            9.0056e-010     -7.0278e-010   
  0.16            1.493e-009      -1.364e-009    
  0.18            2.4858e-009     -2.2182e-009   
  0.2             4.1592e-009     -3.847e-009    
  0.22            6.993e-009      -6.7058e-009   
  0.24            1.1822e-008     -1.1716e-008   
  0.26            2.0128e-008     -1.9034e-008   
  0.28            3.4434e-008     -3.334e-008    
  0.3             5.9352e-008     -5.8338e-008   
  0.32            1.02838e-007    -1.0197e-007   
  0.34            1.787e-007      -1.7828e-007   
  0.36            3.122e-007      -3.1154e-007   
  0.38            5.4586e-007     -5.4528e-007   
  0.4             9.5638e-007     -9.5572e-007   
  0.42            1.6822e-006     -1.6818e-006   
  0.44            2.9496e-006     -2.948e-006    
  0.46            5.176e-006      -5.1742e-006   
  0.48            9.0254e-006     -9.0226e-006   
  0.5             1.5696e-005     -1.5686e-005   
  0.52            2.691e-005      -2.69e-005     
  0.54            4.5442e-005     -4.5442e-005   
  0.56            7.5294e-005     -7.5296e-005   
  0.58            0.00012124      -0.00012114    
  0.6             0.00018932      -0.0001892     
  0.62            0.00028492      -0.0002848     
  0.64            0.00041418      -0.00041406    
  0.66            0.00058082      -0.00058068    
  0.68            0.00079006      -0.0007899     
  0.7             0.00104448      -0.0010443     
  0.72            0.0013458       -0.0013444     
  0.74            0.0016962       -0.0016946     
  0.76            0.0020942       -0.0020928     
  0.78            0.0025428       -0.0025412     
  0.8             0.0030404       -0.0030388     
  0.82            0.0035834       -0.0035818     
  0.84            0.0041738       -0.004172      
  0.86            0.0048082       -0.0048062     
  0.88            0.0054808       -0.0054786     
  0.9             0.0061948       -0.006193      
  0.92            0.0069422       -0.00694       
  0.94            0.0077262       -0.007724      
  0.96            0.0085386       -0.0085364     
  0.98            0.0093836       -0.0093812     
  1               0.0102522       -0.0102498     
END_DB

