! VERSION = 6.00
BEGIN_HEADER
 ICCAP_INPUTS
  vc         V  cathode GROUND SMU1 0.1 CON        0
  va         V  anode GROUND SMU2 0.1 LIN        1    -15        0          151  0.1       
 ICCAP_OUTPUTS
  ia         I  anode GROUND SMU2 B
  ic         I  cathode GROUND SMU1 B
 ICCAP_VALUES
  DataOrigin "Measure"
  ___CONTEXT ""
  Date "Jan 13 Thu 19:49:12 2022"
  Version "WaferPro.2016.01"
  Bench "B1500_B2200"
  Temperature "125"
  Lot "M135205"
  Reticle "M135205"
  Wafer "01D2"
  Die "X-3-Y0"
  DieList "TargetDie"
  Block "WholeDie"
  Subsite "diod2-5V"
  Routine "DIODE_EXTR_Measure"
  MeasCond "Set1"
  Device "9"
  DeviceName "pdiode_Dp5_A128B640"
  DevTechno "DIO"
  DevPolarity "P"
  Setup "iv_rev"
  Type "-1"
  ___SPICE_INSTANCE ""
  A "1.28E-006"
  B "6.4E-005"
  ___TECHNO_INSTANCE ""
  ___CALIBRATION ""
END_HEADER

BEGIN_DB
 ICCAP_VAR vc         0              

 #va              ia              ic             
  -15             -0.0093748      0.0094086      
  -14.9           -0.0089296      0.008937       
  -14.8           -0.008488       0.0084932      
  -14.7           -0.008037       0.0080404      
  -14.6           -0.0075828      0.0075842      
  -14.5           -0.0071144      0.0071154      
  -14.4           -0.0066402      0.0066398      
  -14.3           -0.006153       0.0061522      
  -14.2           -0.0056586      0.0056584      
  -14.1           -0.0051508      0.00515        
  -14             -0.0046344      0.004633       
  -13.9           -0.0041118      0.0041112      
  -13.8           -0.003577       0.0035762      
  -13.7           -0.0030386      0.0030378      
  -13.6           -0.0024898      0.0024886      
  -13.5           -0.0019382      0.0019376      
  -13.4           -0.0013748      0.0013742      
  -13.3           -0.00079714     0.00079556     
  -13.2           -4.1706e-005    3.9668e-005    
  -13.1           -1.3056e-007    1.3276e-007    
  -13             -5.3066e-008    5.3028e-008    
  -12.9           -3.4872e-008    3.4788e-008    
  -12.8           -2.642e-008     2.6394e-008    
  -12.7           -2.1248e-008    2.1246e-008    
  -12.6           -1.774e-008     1.7812e-008    
  -12.5           -1.5172e-008    1.5248e-008    
  -12.4           -1.3272e-008    1.3334e-008    
  -12.3           -1.1762e-008    1.1838e-008    
  -12.2           -1.0514e-008    1.062e-008     
  -12.1           -9.5638e-009    9.6218e-009    
  -12             -8.7168e-009    8.811e-009     
  -11.9           -7.9758e-009    8.065e-009     
  -11.8           -7.3444e-009    7.4284e-009    
  -11.7           -6.8156e-009    6.8988e-009    
  -11.6           -6.323e-009     6.419e-009     
  -11.5           -5.8846e-009    5.9734e-009    
  -11.4           -5.4988e-009    5.5884e-009    
  -11.3           -5.1592e-009    5.2552e-009    
  -11.2           -4.85e-009      4.935e-009     
  -11.1           -4.5702e-009    4.6532e-009    
  -11             -4.3178e-009    4.41e-009      
  -10.9           -4.0856e-009    4.1654e-009    
  -10.8           -3.8706e-009    3.9446e-009    
  -10.7           -3.6628e-009    3.7454e-009    
  -10.6           -3.4814e-009    3.556e-009     
  -10.5           -3.3112e-009    3.3938e-009    
  -10.4           -3.1594e-009    3.2312e-009    
  -10.3           -3.0186e-009    3.0944e-009    
  -10.2           -2.879e-009     2.9552e-009    
  -10.1           -2.755e-009     2.8286e-009    
  -10             -2.6304e-009    2.698e-009     
  -9.9            -2.5278e-009    2.5922e-009    
  -9.8            -2.4264e-009    2.4926e-009    
  -9.7            -2.3308e-009    2.3976e-009    
  -9.6            -2.2454e-009    2.3124e-009    
  -9.5            -2.161e-009     2.222e-009     
  -9.4            -2.0816e-009    2.141e-009     
  -9.3            -2.0054e-009    2.0632e-009    
  -9.2            -1.935e-009     1.9904e-009    
  -9.1            -1.8692e-009    1.9222e-009    
  -9              -1.8056e-009    1.856e-009     
  -8.9            -1.7444e-009    1.7942e-009    
  -8.8            -1.6842e-009    1.7324e-009    
  -8.7            -1.6328e-009    1.6774e-009    
  -8.6            -1.5754e-009    1.615e-009     
  -8.5            -1.5212e-009    1.56e-009      
  -8.4            -1.4744e-009    1.5094e-009    
  -8.3            -1.423e-009     1.454e-009     
  -8.2            -1.3776e-009    1.4044e-009    
  -8.1            -1.3328e-009    1.3548e-009    
  -8              -1.2888e-009    1.306e-009     
  -7.9            -1.2424e-009    1.255e-009     
  -7.8            -1.2036e-009    1.2102e-009    
  -7.7            -1.1586e-009    1.1626e-009    
  -7.6            -1.1196e-009    1.1176e-009    
  -7.5            -1.0836e-009    1.077e-009     
  -7.4            -1.0454e-009    1.0348e-009    
  -7.3            -1.0114e-009    9.97e-010      
  -7.2            -9.8212e-010    9.6762e-010    
  -7.1            -9.5038e-010    9.2968e-010    
  -7              -9.206e-010     8.967e-010     
  -6.9            -8.9112e-010    8.6562e-010    
  -6.8            -8.6276e-010    8.3096e-010    
  -6.7            -8.3582e-010    8.042e-010     
  -6.6            -8.1186e-010    7.7752e-010    
  -6.5            -7.9018e-010    7.5496e-010    
  -6.4            -7.7032e-010    7.2996e-010    
  -6.3            -7.4788e-010    7.0806e-010    
  -6.2            -7.2696e-010    6.8704e-010    
  -6.1            -7.0948e-010    6.6884e-010    
  -6              -6.9148e-010    6.462e-010     
  -5.9            -6.737e-010     6.276e-010     
  -5.8            -6.5694e-010    6.127e-010     
  -5.7            -6.417e-010     5.9696e-010    
  -5.6            -6.2624e-010    5.7962e-010    
  -5.5            -6.108e-010     5.6226e-010    
  -5.4            -5.9724e-010    5.5088e-010    
  -5.3            -5.858e-010     5.3892e-010    
  -5.2            -5.7258e-010    5.2248e-010    
  -5.1            -5.5962e-010    5.0864e-010    
  -5              -5.47e-010      4.991e-010     
  -4.9            -5.3572e-010    4.8652e-010    
  -4.8            -5.2424e-010    4.734e-010     
  -4.7            -5.129e-010     4.6408e-010    
  -4.6            -5.0332e-010    4.5338e-010    
  -4.5            -4.9472e-010    4.429e-010     
  -4.4            -4.8538e-010    4.333e-010     
  -4.3            -4.7596e-010    4.25e-010      
  -4.2            -4.6654e-010    4.1342e-010    
  -4.1            -4.5766e-010    4.0662e-010    
  -4              -4.4962e-010    3.9726e-010    
  -3.9            -4.4084e-010    3.8948e-010    
  -3.8            -4.3262e-010    3.7954e-010    
  -3.7            -4.256e-010     3.7282e-010    
  -3.6            -4.1822e-010    3.6626e-010    
  -3.5            -4.1142e-010    3.5808e-010    
  -3.4            -4.0424e-010    3.5006e-010    
  -3.3            -3.976e-010     3.4342e-010    
  -3.2            -3.9056e-010    3.3796e-010    
  -3.1            -3.8392e-010    3.3158e-010    
  -3              -3.7814e-010    3.238e-010     
  -2.9            -3.7212e-010    3.182e-010     
  -2.8            -3.6604e-010    3.1264e-010    
  -2.7            -3.5946e-010    3.0492e-010    
  -2.6            -3.5434e-010    2.9878e-010    
  -2.5            -3.4876e-010    2.93e-010      
  -2.4            -3.443e-010     2.9214e-010    
  -2.3            -3.3778e-010    2.8486e-010    
  -2.2            -3.3298e-010    2.7718e-010    
  -2.1            -3.2816e-010    2.7468e-010    
  -2              -3.244e-010     2.7052e-010    
  -1.9            -3.1902e-010    2.6322e-010    
  -1.8            -3.1412e-010    2.5768e-010    
  -1.7            -3.087e-010     2.5538e-010    
  -1.6            -3.0326e-010    2.493e-010     
  -1.5            -2.9746e-010    2.4388e-010    
  -1.4            -2.917e-010     2.3618e-010    
  -1.3            -2.8628e-010    2.3288e-010    
  -1.2            -2.7852e-010    2.2436e-010    
  -1.1            -2.7112e-010    2.1554e-010    
  -1              -2.6192e-010    2.0632e-010    
  -0.9            -2.5236e-010    1.98e-010      
  -0.8            -2.3986e-010    1.8506e-010    
  -0.7            -2.2644e-010    1.6926e-010    
  -0.6            -2.0944e-010    1.5488e-010    
  -0.5            -1.9022e-010    1.3584e-010    
  -0.4            -1.6994e-010    1.1452e-010    
  -0.3            -1.4736e-010    8.968e-011     
  -0.2            -1.221e-010     6.688e-011     
  -0.1            -8.986e-011     3.45e-011      
  0               -2.06e-012      -4.774e-011    
END_DB

