! VERSION = 6.00
BEGIN_HEADER
 ICCAP_INPUTS
  vc         V  cathode GROUND SMU1 0.1 CON        0
  va         V  anode GROUND SMU2 0.1 LIN        1    -15        0          151  0.1       
 ICCAP_OUTPUTS
  ia         I  anode GROUND SMU2 B
  ic         I  cathode GROUND SMU1 B
 ICCAP_VALUES
  DataOrigin "Measure"
  ___CONTEXT ""
  Date "Jan 13 Thu 19:39:31 2022"
  Version "WaferPro.2016.01"
  Bench "B1500_B2200"
  Temperature "125"
  Lot "M135205"
  Reticle "M135205"
  Wafer "01D2"
  Die "X-3-Y0"
  DieList "TargetDie"
  Block "WholeDie"
  Subsite "diod2-5V"
  Routine "DIODE_EXTR_Measure"
  MeasCond "Set1"
  Device "1"
  DeviceName "pdiode_Dp5_A032B032"
  DevTechno "DIO"
  DevPolarity "P"
  Setup "iv_rev"
  Type "-1"
  ___SPICE_INSTANCE ""
  A "3.2E-007"
  B "3.2E-007"
  ___TECHNO_INSTANCE ""
  ___CALIBRATION ""
END_HEADER

BEGIN_DB
 ICCAP_VAR vc         0              

 #va              ia              ic             
  -15             -6.1062e-005    6.3396e-005    
  -14.9           -5.2902e-005    5.3342e-005    
  -14.8           -4.6464e-005    4.6402e-005    
  -14.7           -3.8618e-005    3.8902e-005    
  -14.6           -3.1492e-005    3.1094e-005    
  -14.5           -2.4704e-005    2.419e-005     
  -14.4           -1.7924e-005    1.6946e-005    
  -14.3           -7.948e-006     7.0516e-006    
  -14.2           -1.1872e-006    7.4996e-007    
  -14.1           -1.554e-007     1.1942e-007    
  -14             -1.9094e-008    1.3794e-008    
  -13.9           -5.7244e-009    4.6926e-009    
  -13.8           -2.4964e-009    2.3596e-009    
  -13.7           -1.4908e-009    1.4488e-009    
  -13.6           -1.0664e-009    1.0164e-009    
  -13.5           -8.2784e-010    7.8326e-010    
  -13.4           -6.4868e-010    6.2956e-010    
  -13.3           -5.4142e-010    5.1814e-010    
  -13.2           -4.4834e-010    4.2368e-010    
  -13.1           -3.9354e-010    3.6198e-010    
  -13             -3.353e-010     3.1104e-010    
  -12.9           -2.9034e-010    2.6962e-010    
  -12.8           -2.647e-010     2.4e-010       
  -12.7           -2.3762e-010    2.105e-010     
  -12.6           -2.122e-010     1.8868e-010    
  -12.5           -1.9658e-010    1.708e-010     
  -12.4           -1.7854e-010    1.4974e-010    
  -12.3           -1.6334e-010    1.38e-010      
  -12.2           -1.5094e-010    1.2298e-010    
  -12.1           -1.4026e-010    1.1052e-010    
  -12             -1.3122e-010    1.0418e-010    
  -11.9           -1.2224e-010    9.364e-011     
  -11.8           -1.1412e-010    8.422e-011     
  -11.7           -1.0708e-010    7.932e-011     
  -11.6           -1.0074e-010    7.146e-011     
  -11.5           -9.492e-011     6.502e-011     
  -11.4           -9.17e-011      5.918e-011     
  -11.3           -8.626e-011     5.796e-011     
  -11.2           -8.162e-011     5.21e-011      
  -11.1           -7.798e-011     4.73e-011      
  -11             -7.414e-011     4.192e-011     
  -10.9           -7.042e-011     3.802e-011     
  -10.8           -6.766e-011     3.702e-011     
  -10.7           -6.464e-011     3.062e-011     
  -10.6           -6.292e-011     2.82e-011      
  -10.5           -6.048e-011     2.68e-011      
  -10.4           -5.69e-011      2.212e-011     
  -10.3           -5.456e-011     1.908e-011     
  -10.2           -5.29e-011      1.668e-011     
  -10.1           -5.038e-011     1.47e-011      
  -10             -4.874e-011     1.146e-011     
  -9.9            -4.758e-011     8.72e-012      
  -9.8            -4.588e-011     9.3e-012       
  -9.7            -4.444e-011     6.48e-012      
  -9.6            -4.276e-011     1.5e-012       
  -9.5            -4.124e-011     -6.8e-013      
  -9.4            -3.98e-011      1.1e-012       
  -9.3            -3.892e-011     -2.26e-012     
  -9.2            -3.75e-011      -7.68e-012     
  -9.1            -3.606e-011     -7.4e-012      
  -9              -3.362e-011     -8.62e-012     
  -8.9            -3.31e-011      -1.32e-011     
  -8.8            -3.204e-011     -1.45e-011     
  -8.7            -3.128e-011     -1.328e-011    
  -8.6            -3.018e-011     -1.666e-011    
  -8.5            -2.974e-011     -1.834e-011    
  -8.4            -2.928e-011     -1.938e-011    
  -8.3            -2.834e-011     -2.134e-011    
  -8.2            -2.7e-011       -2.246e-011    
  -8.1            -2.668e-011     -2.466e-011    
  -8              -2.624e-011     -2.398e-011    
  -7.9            -2.556e-011     -2.476e-011    
  -7.8            -2.45e-011      -2.906e-011    
  -7.7            -2.42e-011      -2.91e-011     
  -7.6            -2.362e-011     -2.874e-011    
  -7.5            -2.316e-011     -3.006e-011    
  -7.4            -2.246e-011     -3.306e-011    
  -7.3            -2.178e-011     -3.12e-011     
  -7.2            -2.144e-011     -3.134e-011    
  -7.1            -2.088e-011     -3.31e-011     
  -7              -2.054e-011     -3.542e-011    
  -6.9            -1.984e-011     -3.456e-011    
  -6.8            -1.94e-011      -3.928e-011    
  -6.7            -1.914e-011     -3.588e-011    
  -6.6            -1.904e-011     -3.69e-011     
  -6.5            -1.824e-011     -3.64e-011     
  -6.4            -1.8e-011       -3.672e-011    
  -6.3            -1.782e-011     -3.696e-011    
  -6.2            -1.786e-011     -3.802e-011    
  -6.1            -1.722e-011     -3.98e-011     
  -6              -1.64e-011      -3.888e-011    
  -5.9            -1.614e-011     -3.904e-011    
  -5.8            -1.596e-011     -4.008e-011    
  -5.7            -1.576e-011     -4.112e-011    
  -5.6            -1.526e-011     -3.868e-011    
  -5.5            -1.504e-011     -4.026e-011    
  -5.4            -1.502e-011     -3.968e-011    
  -5.3            -1.496e-011     -4.25e-011     
  -5.2            -1.43e-011      -4.226e-011    
  -5.1            -1.416e-011     -4.206e-011    
  -5              -1.372e-011     -4.122e-011    
  -4.9            -1.37e-011      -4.318e-011    
  -4.8            -1.326e-011     -4.362e-011    
  -4.7            -1.29e-011      -4.14e-011     
  -4.6            -1.272e-011     -4.276e-011    
  -4.5            -1.286e-011     -4.286e-011    
  -4.4            -1.23e-011      -4.494e-011    
  -4.3            -1.194e-011     -4.516e-011    
  -4.2            -1.186e-011     -4.512e-011    
  -4.1            -1.182e-011     -4.478e-011    
  -4              -1.176e-011     -4.43e-011     
  -3.9            -1.11e-011      -4.446e-011    
  -3.8            -1.096e-011     -4.49e-011     
  -3.7            -1.092e-011     -4.736e-011    
  -3.6            -1.094e-011     -4.498e-011    
  -3.5            -1.036e-011     -4.644e-011    
  -3.4            -1.004e-011     -4.734e-011    
  -3.3            -9.94e-012      -4.518e-011    
  -3.2            -9.96e-012      -4.59e-011     
  -3.1            -9.94e-012      -4.66e-011     
  -3              -9.36e-012      -4.568e-011    
  -2.9            -9.38e-012      -4.532e-011    
  -2.8            -9.54e-012      -4.642e-011    
  -2.7            -9.64e-012      -4.926e-011    
  -2.6            -9.1e-012       -4.772e-011    
  -2.5            -8.76e-012      -4.782e-011    
  -2.4            -8.74e-012      -4.608e-011    
  -2.3            -8.92e-012      -4.786e-011    
  -2.2            -8.64e-012      -4.832e-011    
  -2.1            -8.1e-012       -4.734e-011    
  -2              -8e-012         -4.784e-011    
  -1.9            -8.2e-012       -4.83e-011     
  -1.8            -7.84e-012      -4.918e-011    
  -1.7            -7.38e-012      -5.114e-011    
  -1.6            -6.92e-012      -4.876e-011    
  -1.5            -6.96e-012      -4.748e-011    
  -1.4            -6.84e-012      -5.072e-011    
  -1.3            -6.28e-012      -4.988e-011    
  -1.2            -5.86e-012      -4.798e-011    
  -1.1            -5.72e-012      -4.984e-011    
  -1              -5.48e-012      -5.258e-011    
  -0.9            -5.16e-012      -5.102e-011    
  -0.8            -4.32e-012      -5.212e-011    
  -0.7            -4.02e-012      -5.168e-011    
  -0.6            -3.7e-012       -5.17e-011     
  -0.5            -3.26e-012      -5.326e-011    
  -0.4            -2.48e-012      -5.406e-011    
  -0.3            -1.9e-012       -5.466e-011    
  -0.2            -1.48e-012      -5.424e-011    
  -0.1            -9.6e-013       -5.55e-011     
  0               5.4e-013        -5.87e-011     
END_DB

