! VERSION = 6.00
BEGIN_HEADER
 ICCAP_INPUTS
  vc         V  cathode GROUND SMU1 0.1 CON        0
  va         V  anode GROUND SMU2 0.1 LIN        1    -15        0          151  0.1       
 ICCAP_OUTPUTS
  ia         I  anode GROUND SMU2 B
  ic         I  cathode GROUND SMU1 B
 ICCAP_VALUES
  DataOrigin "Measure"
  ___CONTEXT ""
  Date "Jan 13 Thu 19:44:22 2022"
  Version "WaferPro.2016.01"
  Bench "B1500_B2200"
  Temperature "125"
  Lot "M135205"
  Reticle "M135205"
  Wafer "01D2"
  Die "X-3-Y0"
  DieList "TargetDie"
  Block "WholeDie"
  Subsite "diod2-5V"
  Routine "DIODE_EXTR_Measure"
  MeasCond "Set1"
  Device "5"
  DeviceName "pdiode_Dp5_A32B320"
  DevTechno "DIO"
  DevPolarity "P"
  Setup "iv_rev"
  Type "-1"
  ___SPICE_INSTANCE ""
  A "3.2E-006"
  B "3.2E-005"
  ___TECHNO_INSTANCE ""
  ___CALIBRATION ""
END_HEADER

BEGIN_DB
 ICCAP_VAR vc         0              

 #va              ia              ic             
  -15             -0.0051238      0.0051406      
  -14.9           -0.0048908      0.0048964      
  -14.8           -0.0046584      0.004663       
  -14.7           -0.0044214      0.0044224      
  -14.6           -0.0041792      0.0041798      
  -14.5           -0.0039302      0.0039312      
  -14.4           -0.0036758      0.0036772      
  -14.3           -0.0034148      0.0034146      
  -14.2           -0.0031478      0.003149       
  -14.1           -0.0028742      0.0028736      
  -14             -0.0025946      0.002594       
  -13.9           -0.0023108      0.0023108      
  -13.8           -0.0020206      0.0020208      
  -13.7           -0.001729       0.0017292      
  -13.6           -0.0014328      0.0014332      
  -13.5           -0.0011368      0.0011374      
  -13.4           -0.00083828     0.00083784     
  -13.3           -0.00054022     0.00053972     
  -13.2           -0.0002175      0.00021726     
  -13.1           -8.981e-008     8.7876e-008    
  -13             -2.3368e-008    2.3456e-008    
  -12.9           -1.5232e-008    1.5344e-008    
  -12.8           -1.1616e-008    1.1734e-008    
  -12.7           -9.4502e-009    9.5192e-009    
  -12.6           -7.9332e-009    8.009e-009     
  -12.5           -6.8392e-009    6.8808e-009    
  -12.4           -5.9902e-009    6.0188e-009    
  -12.3           -5.317e-009     5.3244e-009    
  -12.2           -4.771e-009     4.763e-009     
  -12.1           -4.3058e-009    4.2966e-009    
  -12             -3.9232e-009    3.9022e-009    
  -11.9           -3.5828e-009    3.5686e-009    
  -11.8           -3.29e-009      3.2686e-009    
  -11.7           -3.0346e-009    3.0198e-009    
  -11.6           -2.8046e-009    2.7846e-009    
  -11.5           -2.6204e-009    2.5972e-009    
  -11.4           -2.451e-009     2.4224e-009    
  -11.3           -2.2874e-009    2.2698e-009    
  -11.2           -2.1474e-009    2.1216e-009    
  -11.1           -2.0176e-009    1.9876e-009    
  -11             -1.9012e-009    1.8712e-009    
  -10.9           -1.7864e-009    1.759e-009     
  -10.8           -1.6976e-009    1.667e-009     
  -10.7           -1.6088e-009    1.5822e-009    
  -10.6           -1.5244e-009    1.4948e-009    
  -10.5           -1.4434e-009    1.4152e-009    
  -10.4           -1.3748e-009    1.347e-009     
  -10.3           -1.3108e-009    1.2802e-009    
  -10.2           -1.2516e-009    1.2178e-009    
  -10.1           -1.1874e-009    1.1548e-009    
  -10             -1.1374e-009    1.1022e-009    
  -9.9            -1.0882e-009    1.0482e-009    
  -9.8            -1.0446e-009    1.0042e-009    
  -9.7            -9.98e-010      9.7164e-010    
  -9.6            -9.565e-010     9.2676e-010    
  -9.5            -9.2026e-010    8.8812e-010    
  -9.4            -8.812e-010     8.4678e-010    
  -9.3            -8.5e-010       8.151e-010     
  -9.2            -8.1986e-010    7.813e-010     
  -9.1            -7.901e-010     7.4596e-010    
  -9              -7.5904e-010    7.1878e-010    
  -8.9            -7.3128e-010    6.9452e-010    
  -8.8            -7.0404e-010    6.6534e-010    
  -8.7            -6.7794e-010    6.3702e-010    
  -8.6            -6.5662e-010    6.1354e-010    
  -8.5            -6.3346e-010    5.9324e-010    
  -8.4            -6.1374e-010    5.7008e-010    
  -8.3            -5.9512e-010    5.5106e-010    
  -8.2            -5.7592e-010    5.3212e-010    
  -8.1            -5.5742e-010    5.1506e-010    
  -8              -5.402e-010     4.9504e-010    
  -7.9            -5.2476e-010    4.7944e-010    
  -7.8            -5.0908e-010    4.6476e-010    
  -7.7            -4.9414e-010    4.4854e-010    
  -7.6            -4.7996e-010    4.3268e-010    
  -7.5            -4.6618e-010    4.188e-010     
  -7.4            -4.5272e-010    4.0352e-010    
  -7.3            -4.3846e-010    3.9106e-010    
  -7.2            -4.25e-010      3.7964e-010    
  -7.1            -4.1542e-010    3.6686e-010    
  -7              -4.0342e-010    3.548e-010     
  -6.9            -3.9322e-010    3.4406e-010    
  -6.8            -3.8156e-010    3.3252e-010    
  -6.7            -3.732e-010     3.2044e-010    
  -6.6            -3.635e-010     3.1266e-010    
  -6.5            -3.5448e-010    3.038e-010     
  -6.4            -3.442e-010     2.9526e-010    
  -6.3            -3.368e-010     2.8516e-010    
  -6.2            -3.2902e-010    2.7882e-010    
  -6.1            -3.2108e-010    2.6914e-010    
  -6              -3.1368e-010    2.6182e-010    
  -5.9            -3.0618e-010    2.5298e-010    
  -5.8            -2.992e-010     2.4704e-010    
  -5.7            -2.9128e-010    2.389e-010     
  -5.6            -2.863e-010     2.3156e-010    
  -5.5            -2.7914e-010    2.2646e-010    
  -5.4            -2.742e-010     2.2116e-010    
  -5.3            -2.6798e-010    2.1448e-010    
  -5.2            -2.6314e-010    2.0868e-010    
  -5.1            -2.5806e-010    2.0408e-010    
  -5              -2.5342e-010    1.9868e-010    
  -4.9            -2.479e-010     1.9372e-010    
  -4.8            -2.4226e-010    1.8796e-010    
  -4.7            -2.374e-010     1.8264e-010    
  -4.6            -2.3302e-010    1.7818e-010    
  -4.5            -2.2958e-010    1.746e-010     
  -4.4            -2.2452e-010    1.6964e-010    
  -4.3            -2.2018e-010    1.6256e-010    
  -4.2            -2.1544e-010    1.5954e-010    
  -4.1            -2.1212e-010    1.5664e-010    
  -4              -2.0772e-010    1.5302e-010    
  -3.9            -2.0422e-010    1.5006e-010    
  -3.8            -2.0044e-010    1.4386e-010    
  -3.7            -1.9788e-010    1.4222e-010    
  -3.6            -1.9402e-010    1.3892e-010    
  -3.5            -1.907e-010     1.326e-010     
  -3.4            -1.8854e-010    1.3218e-010    
  -3.3            -1.8552e-010    1.2862e-010    
  -3.2            -1.821e-010     1.2702e-010    
  -3.1            -1.7934e-010    1.2318e-010    
  -3              -1.7702e-010    1.186e-010     
  -2.9            -1.7444e-010    1.1762e-010    
  -2.8            -1.7172e-010    1.1652e-010    
  -2.7            -1.6882e-010    1.1196e-010    
  -2.6            -1.6666e-010    1.0812e-010    
  -2.5            -1.6394e-010    1.0646e-010    
  -2.4            -1.613e-010     1.0512e-010    
  -2.3            -1.5846e-010    1.0206e-010    
  -2.2            -1.5602e-010    9.876e-011     
  -2.1            -1.5382e-010    9.558e-011     
  -2              -1.5142e-010    9.406e-011     
  -1.9            -1.487e-010     9.292e-011     
  -1.8            -1.4676e-010    8.89e-011      
  -1.7            -1.4514e-010    8.646e-011     
  -1.6            -1.4232e-010    8.56e-011      
  -1.5            -1.3978e-010    8.458e-011     
  -1.4            -1.3732e-010    8.04e-011      
  -1.3            -1.3486e-010    7.652e-011     
  -1.2            -1.3216e-010    7.404e-011     
  -1.1            -1.2872e-010    7.248e-011     
  -1              -1.2508e-010    6.67e-011      
  -0.9            -1.2112e-010    6.272e-011     
  -0.8            -1.1606e-010    5.926e-011     
  -0.7            -1.0972e-010    5.394e-011     
  -0.6            -1.0318e-010    4.486e-011     
  -0.5            -9.48e-011      3.688e-011     
  -0.4            -8.588e-011     2.794e-011     
  -0.3            -7.554e-011     1.738e-011     
  -0.2            -6.43e-011      5.6e-012       
  -0.1            -4.884e-011     -9e-012        
  0               -1.14e-012      -5.01e-011     
END_DB

