! VERSION = 6.00
BEGIN_HEADER
 ICCAP_INPUTS
  vc         V  cathode GROUND SMU1 0.1 CON        0
  va         V  anode GROUND SMU2 0.1 LIN        1    -15        0          151  0.1       
 ICCAP_OUTPUTS
  ia         I  anode GROUND SMU2 B
  ic         I  cathode GROUND SMU1 B
 ICCAP_VALUES
  DataOrigin "Measure"
  ___CONTEXT ""
  Date "Jan 13 Thu 19:47:59 2022"
  Version "WaferPro.2016.01"
  Bench "B1500_B2200"
  Temperature "125"
  Lot "M135205"
  Reticle "M135205"
  Wafer "01D2"
  Die "X-3-Y0"
  DieList "TargetDie"
  Block "WholeDie"
  Subsite "diod2-5V"
  Routine "DIODE_EXTR_Measure"
  MeasCond "Set1"
  Device "8"
  DeviceName "pdiode_Dp5_A064B640"
  DevTechno "DIO"
  DevPolarity "P"
  Setup "iv_rev"
  Type "-1"
  ___SPICE_INSTANCE ""
  A "6.4E-007"
  B "6.4E-005"
  ___TECHNO_INSTANCE ""
  ___CALIBRATION ""
END_HEADER

BEGIN_DB
 ICCAP_VAR vc         0              

 #va              ia              ic             
  -15             -0.009425       0.0094534      
  -14.9           -0.0089774      0.0089844      
  -14.8           -0.0085278      0.0085328      
  -14.7           -0.0080666      0.0080702      
  -14.6           -0.0076         0.0076008      
  -14.5           -0.0071144      0.007116       
  -14.4           -0.0066222      0.0066224      
  -14.3           -0.0061142      0.0061142      
  -14.2           -0.0056006      0.0055998      
  -14.1           -0.0050666      0.0050672      
  -14             -0.004522       0.0045194      
  -13.9           -0.0039686      0.0039678      
  -13.8           -0.0033972      0.0033968      
  -13.7           -0.0028198      0.0028182      
  -13.6           -0.0022264      0.002224       
  -13.5           -0.0016254      0.0016224      
  -13.4           -0.00100004     0.00099602     
  -13.3           -0.0002427      0.00023016     
  -13.2           -4.4342e-007    4.1582e-007    
  -13.1           -1.0712e-007    1.0646e-007    
  -13             -6.1006e-008    6.0872e-008    
  -12.9           -4.2884e-008    4.2786e-008    
  -12.8           -3.3196e-008    3.321e-008     
  -12.7           -2.6986e-008    2.7008e-008    
  -12.6           -2.2752e-008    2.2788e-008    
  -12.5           -1.961e-008     1.9672e-008    
  -12.4           -1.7232e-008    1.7266e-008    
  -12.3           -1.5316e-008    1.538e-008     
  -12.2           -1.3756e-008    1.3836e-008    
  -12.1           -1.2458e-008    1.2536e-008    
  -12             -1.1356e-008    1.1448e-008    
  -11.9           -1.0422e-008    1.0522e-008    
  -11.8           -9.638e-009     9.737e-009     
  -11.7           -8.9418e-009    9.0308e-009    
  -11.6           -8.3274e-009    8.4038e-009    
  -11.5           -7.7786e-009    7.8456e-009    
  -11.4           -7.2788e-009    7.3644e-009    
  -11.3           -6.8408e-009    6.926e-009     
  -11.2           -6.429e-009     6.5176e-009    
  -11.1           -6.0666e-009    6.15e-009      
  -11             -5.7268e-009    5.8042e-009    
  -10.9           -5.4248e-009    5.5022e-009    
  -10.8           -5.1338e-009    5.213e-009     
  -10.7           -4.8846e-009    4.959e-009     
  -10.6           -4.6496e-009    4.7204e-009    
  -10.5           -4.4282e-009    4.5032e-009    
  -10.4           -4.2268e-009    4.2956e-009    
  -10.3           -4.0358e-009    4.1134e-009    
  -10.2           -3.8618e-009    3.9256e-009    
  -10.1           -3.699e-009     3.7614e-009    
  -10             -3.5424e-009    3.6112e-009    
  -9.9            -3.4014e-009    3.467e-009     
  -9.8            -3.2698e-009    3.33e-009      
  -9.7            -3.1356e-009    3.1968e-009    
  -9.6            -3.0196e-009    3.0772e-009    
  -9.5            -2.9048e-009    2.9606e-009    
  -9.4            -2.8008e-009    2.8562e-009    
  -9.3            -2.704e-009     2.757e-009     
  -9.2            -2.606e-009     2.6578e-009    
  -9.1            -2.5234e-009    2.573e-009     
  -9              -2.437e-009     2.4872e-009    
  -8.9            -2.3584e-009    2.4026e-009    
  -8.8            -2.2844e-009    2.3288e-009    
  -8.7            -2.2088e-009    2.2564e-009    
  -8.6            -2.1356e-009    2.1784e-009    
  -8.5            -2.0644e-009    2.1076e-009    
  -8.4            -1.998e-009     2.0374e-009    
  -8.3            -1.9358e-009    1.9718e-009    
  -8.2            -1.8758e-009    1.9114e-009    
  -8.1            -1.8164e-009    1.848e-009     
  -8              -1.76e-009      1.7904e-009    
  -7.9            -1.7068e-009    1.7336e-009    
  -7.8            -1.6536e-009    1.6788e-009    
  -7.7            -1.6074e-009    1.6284e-009    
  -7.6            -1.561e-009     1.575e-009     
  -7.5            -1.5108e-009    1.5234e-009    
  -7.4            -1.4634e-009    1.4734e-009    
  -7.3            -1.4176e-009    1.423e-009     
  -7.2            -1.3742e-009    1.3766e-009    
  -7.1            -1.3312e-009    1.3294e-009    
  -7              -1.2888e-009    1.2844e-009    
  -6.9            -1.2496e-009    1.2398e-009    
  -6.8            -1.213e-009     1.198e-009     
  -6.7            -1.175e-009     1.1594e-009    
  -6.6            -1.1434e-009    1.1234e-009    
  -6.5            -1.1096e-009    1.0844e-009    
  -6.4            -1.0776e-009    1.052e-009     
  -6.3            -1.0494e-009    1.021e-009     
  -6.2            -1.0212e-009    9.9526e-010    
  -6.1            -9.952e-010     9.6336e-010    
  -6              -9.7e-010       9.3522e-010    
  -5.9            -9.46e-010      9.0822e-010    
  -5.8            -9.2302e-010    8.8288e-010    
  -5.7            -8.9928e-010    8.6426e-010    
  -5.6            -8.7786e-010    8.3768e-010    
  -5.5            -8.5508e-010    8.143e-010     
  -5.4            -8.3394e-010    7.9202e-010    
  -5.3            -8.1534e-010    7.7186e-010    
  -5.2            -7.9626e-010    7.5306e-010    
  -5.1            -7.8006e-010    7.3656e-010    
  -5              -7.6116e-010    7.1722e-010    
  -4.9            -7.4576e-010    6.9934e-010    
  -4.8            -7.3174e-010    6.844e-010     
  -4.7            -7.1618e-010    6.6922e-010    
  -4.6            -7.013e-010     6.5464e-010    
  -4.5            -6.875e-010     6.3796e-010    
  -4.4            -6.7302e-010    6.2496e-010    
  -4.3            -6.6018e-010    6.1282e-010    
  -4.2            -6.4736e-010    5.9832e-010    
  -4.1            -6.3436e-010    5.8286e-010    
  -4              -6.2376e-010    5.7642e-010    
  -3.9            -6.1234e-010    5.6406e-010    
  -3.8            -6.0156e-010    5.4838e-010    
  -3.7            -5.9028e-010    5.4016e-010    
  -3.6            -5.8032e-010    5.3146e-010    
  -3.5            -5.6886e-010    5.1898e-010    
  -3.4            -5.606e-010     5.0996e-010    
  -3.3            -5.5134e-010    5.0098e-010    
  -3.2            -5.4198e-010    4.9042e-010    
  -3.1            -5.3356e-010    4.822e-010     
  -3              -5.25e-010      4.7376e-010    
  -2.9            -5.158e-010     4.6612e-010    
  -2.8            -5.0766e-010    4.5232e-010    
  -2.7            -4.998e-010     4.4818e-010    
  -2.6            -4.914e-010     4.4022e-010    
  -2.5            -4.829e-010     4.324e-010     
  -2.4            -4.7612e-010    4.2192e-010    
  -2.3            -4.686e-010     4.164e-010     
  -2.2            -4.6152e-010    4.1004e-010    
  -2.1            -4.5616e-010    4.0302e-010    
  -2              -4.476e-010     3.9548e-010    
  -1.9            -4.4068e-010    3.8918e-010    
  -1.8            -4.3296e-010    3.8208e-010    
  -1.7            -4.2598e-010    3.7294e-010    
  -1.6            -4.1872e-010    3.666e-010     
  -1.5            -4.1156e-010    3.5726e-010    
  -1.4            -4.0292e-010    3.5194e-010    
  -1.3            -3.9474e-010    3.4134e-010    
  -1.2            -3.8598e-010    3.3302e-010    
  -1.1            -3.7568e-010    3.237e-010     
  -1              -3.638e-010     3.1354e-010    
  -0.9            -3.4942e-010    2.9596e-010    
  -0.8            -3.3382e-010    2.7898e-010    
  -0.7            -3.1554e-010    2.6348e-010    
  -0.6            -2.926e-010     2.3856e-010    
  -0.5            -2.6718e-010    2.1284e-010    
  -0.4            -2.388e-010     1.8456e-010    
  -0.3            -2.0784e-010    1.5596e-010    
  -0.2            -1.7176e-010    1.2422e-010    
  -0.1            -1.2582e-010    8.61e-011      
  0               -1.24e-012      -3.392e-011    
END_DB

