! VERSION = 6.00
BEGIN_HEADER
 ICCAP_INPUTS
  vc         V  cathode GROUND SMU1 0.1 CON        0
  va         V  anode GROUND SMU2 0.1 LIN        1    0          1          51   0.02      
 ICCAP_OUTPUTS
  ia         I  anode GROUND SMU2 B
  ic         I  cathode GROUND SMU1 B
 ICCAP_VALUES
  DataOrigin "Measure"
  ___CONTEXT ""
  Date "Jan 13 Thu 19:41:59 2022"
  Version "WaferPro.2016.01"
  Bench "B1500_B2200"
  Temperature "125"
  Lot "M135205"
  Reticle "M135205"
  Wafer "01D2"
  Die "X-3-Y0"
  DieList "TargetDie"
  Block "WholeDie"
  Subsite "diod2-5V"
  Routine "DIODE_EXTR_Measure"
  MeasCond "Set1"
  Device "3"
  DeviceName "pdiode_Dp5_A032B320"
  DevTechno "DIO"
  DevPolarity "P"
  Setup "iv_fwd"
  Type "-1"
  ___SPICE_INSTANCE ""
  A "3.2E-007"
  B "3.2E-005"
  ___TECHNO_INSTANCE ""
  ___CALIBRATION ""
END_HEADER

BEGIN_DB
 ICCAP_VAR vc         0              

 #va              ia              ic             
  0               9e-013          6.678e-011     
  0.02            3.816e-011      -1.212e-011    
  0.04            9.312e-011      -7.574e-011    
  0.06            1.762e-010      -1.604e-010    
  0.08            2.9988e-010     -2.8502e-010   
  0.1             4.876e-010      -4.6578e-010   
  0.12            7.7196e-010     -7.3448e-010   
  0.14            1.202e-009      -1.151e-009    
  0.16            1.8484e-009     -1.7486e-009   
  0.18            2.8288e-009     -2.635e-009    
  0.2             4.3264e-009     -4.0438e-009   
  0.22            6.6152e-009     -6.2734e-009   
  0.24            1.01268e-008    -9.7574e-009   
  0.26            1.5596e-008     -1.5198e-008   
  0.28            2.412e-008      -2.2992e-008   
  0.3             3.7684e-008     -3.6428e-008   
  0.32            5.9368e-008     -5.8182e-008   
  0.34            9.428e-008      -9.3236e-008   
  0.36            1.5156e-007     -1.5112e-007   
  0.38            2.4512e-007     -2.4446e-007   
  0.4             3.9974e-007     -3.991e-007    
  0.42            6.58e-007       -6.5748e-007   
  0.44            1.08756e-006    -1.08676e-006  
  0.46            1.8088e-006     -1.8082e-006   
  0.48            3.004e-006      -3.0024e-006   
  0.5             5.0008e-006     -4.9988e-006   
  0.52            8.2868e-006     -8.2856e-006   
  0.54            1.3668e-005     -1.366e-005    
  0.56            2.2376e-005     -2.2362e-005   
  0.58            3.6152e-005     -3.6144e-005   
  0.6             5.7668e-005     -5.7654e-005   
  0.62            9.0174e-005     -9.0162e-005   
  0.64            0.00013812      -0.00013802    
  0.66            0.00020588      -0.00020572    
  0.68            0.00029892      -0.00029878    
  0.7             0.00042184      -0.00042172    
  0.72            0.00057826      -0.00057806    
  0.74            0.00077308      -0.00077288    
  0.76            0.0010078       -0.00100758    
  0.78            0.0012872       -0.0012858     
  0.8             0.0016108       -0.0016092     
  0.82            0.0019786       -0.001977      
  0.84            0.0023934       -0.0023918     
  0.86            0.0028536       -0.0028518     
  0.88            0.0033554       -0.0033538     
  0.9             0.0039012       -0.0038994     
  0.92            0.0044846       -0.0044826     
  0.94            0.0051076       -0.0051058     
  0.96            0.0057634       -0.0057614     
  0.98            0.0064546       -0.0064524     
  1               0.0071732       -0.0071708     
END_DB

