! VERSION = 6.00
BEGIN_HEADER
 ICCAP_INPUTS
  vc         V  cathode GROUND SMU1 0.1 CON        0
  va         V  anode GROUND SMU2 0.1 LIN        1    -15        0          151  0.1       
 ICCAP_OUTPUTS
  ia         I  anode GROUND SMU2 B
  ic         I  cathode GROUND SMU1 B
 ICCAP_VALUES
  DataOrigin "Measure"
  ___CONTEXT ""
  Date "Jan 13 Thu 19:40:45 2022"
  Version "WaferPro.2016.01"
  Bench "B1500_B2200"
  Temperature "125"
  Lot "M135205"
  Reticle "M135205"
  Wafer "01D2"
  Die "X-3-Y0"
  DieList "TargetDie"
  Block "WholeDie"
  Subsite "diod2-5V"
  Routine "DIODE_EXTR_Measure"
  MeasCond "Set1"
  Device "2"
  DeviceName "pdiode_Dp5_A032B32"
  DevTechno "DIO"
  DevPolarity "P"
  Setup "iv_rev"
  Type "-1"
  ___SPICE_INSTANCE ""
  A "3.2E-007"
  B "3.2E-006"
  ___TECHNO_INSTANCE ""
  ___CALIBRATION ""
END_HEADER

BEGIN_DB
 ICCAP_VAR vc         0              

 #va              ia              ic             
  -15             -0.00053154     0.0005343      
  -14.9           -0.00049698     0.00049772     
  -14.8           -0.00046194     0.00046258     
  -14.7           -0.00042648     0.00042682     
  -14.6           -0.00039204     0.00039096     
  -14.5           -0.0003551      0.00035592     
  -14.4           -0.00031792     0.00031834     
  -14.3           -0.00028172     0.0002816      
  -14.2           -0.00024566     0.00024464     
  -14.1           -0.0002073      0.00020702     
  -14             -0.00016876     0.00016866     
  -13.9           -0.00013108     0.00013088     
  -13.8           -9.264e-005     9.1316e-005    
  -13.7           -5.4414e-005    5.2818e-005    
  -13.6           -3.4648e-006    2.124e-006     
  -13.5           -6.1794e-008    4.7914e-008    
  -13.4           -1.4886e-008    1.3866e-008    
  -13.3           -8.2576e-009    7.7388e-009    
  -13.2           -5.4088e-009    5.315e-009     
  -13.1           -4.059e-009     3.951e-009     
  -13             -3.1968e-009    3.1298e-009    
  -12.9           -2.6016e-009    2.5586e-009    
  -12.8           -2.2114e-009    2.1558e-009    
  -12.7           -1.9084e-009    1.8618e-009    
  -12.6           -1.6696e-009    1.63e-009      
  -12.5           -1.4936e-009    1.4438e-009    
  -12.4           -1.3292e-009    1.288e-009     
  -12.3           -1.1948e-009    1.1592e-009    
  -12.2           -1.0918e-009    1.0518e-009    
  -12.1           -9.978e-010     9.7036e-010    
  -12             -9.1738e-010    8.8328e-010    
  -11.9           -8.47e-010      8.1468e-010    
  -11.8           -7.888e-010     7.5452e-010    
  -11.7           -7.3278e-010    7.0058e-010    
  -11.6           -6.8774e-010    6.5368e-010    
  -11.5           -6.3984e-010    6.0554e-010    
  -11.4           -6.0344e-010    5.6226e-010    
  -11.3           -5.6728e-010    5.3004e-010    
  -11.2           -5.3624e-010    4.9716e-010    
  -11.1           -5.0876e-010    4.6964e-010    
  -11             -4.7788e-010    4.4118e-010    
  -10.9           -4.57e-010      4.1792e-010    
  -10.8           -4.3324e-010    3.9588e-010    
  -10.7           -4.116e-010     3.7066e-010    
  -10.6           -3.9394e-010    3.5692e-010    
  -10.5           -3.7484e-010    3.3508e-010    
  -10.4           -3.5888e-010    3.1708e-010    
  -10.3           -3.413e-010     3.0166e-010    
  -10.2           -3.2418e-010    2.8652e-010    
  -10.1           -3.1136e-010    2.7002e-010    
  -10             -2.9956e-010    2.5822e-010    
  -9.9            -2.8566e-010    2.4778e-010    
  -9.8            -2.7546e-010    2.3314e-010    
  -9.7            -2.654e-010     2.2264e-010    
  -9.6            -2.5482e-010    2.142e-010     
  -9.5            -2.4402e-010    2.0452e-010    
  -9.4            -2.3518e-010    1.931e-010     
  -9.3            -2.2494e-010    1.8346e-010    
  -9.2            -2.1618e-010    1.7614e-010    
  -9.1            -2.1024e-010    1.6966e-010    
  -9              -2.0304e-010    1.5726e-010    
  -8.9            -1.9518e-010    1.5274e-010    
  -8.8            -1.8914e-010    1.4468e-010    
  -8.7            -1.8424e-010    1.4016e-010    
  -8.6            -1.786e-010     1.3446e-010    
  -8.5            -1.7268e-010    1.2888e-010    
  -8.4            -1.6656e-010    1.233e-010     
  -8.3            -1.6174e-010    1.1562e-010    
  -8.2            -1.5798e-010    1.1138e-010    
  -8.1            -1.5282e-010    1.0656e-010    
  -8              -1.4778e-010    1.0426e-010    
  -7.9            -1.4368e-010    9.738e-011     
  -7.8            -1.4084e-010    9.384e-011     
  -7.7            -1.36e-010      9.01e-011      
  -7.6            -1.317e-010     8.514e-011     
  -7.5            -1.2848e-010    7.984e-011     
  -7.4            -1.2508e-010    7.88e-011      
  -7.3            -1.2166e-010    7.214e-011     
  -7.2            -1.179e-010     7.044e-011     
  -7.1            -1.1492e-010    6.784e-011     
  -7              -1.1284e-010    6.46e-011      
  -6.9            -1.104e-010     6.24e-011      
  -6.8            -1.0774e-010    5.98e-011      
  -6.7            -1.0356e-010    5.526e-011     
  -6.6            -1.0228e-010    5.264e-011     
  -6.5            -1.0052e-010    5.04e-011      
  -6.4            -9.756e-011     4.82e-011      
  -6.3            -9.506e-011     4.806e-011     
  -6.2            -9.304e-011     4.418e-011     
  -6.1            -9.11e-011      4.046e-011     
  -6              -8.93e-011      3.866e-011     
  -5.9            -8.642e-011     3.778e-011     
  -5.8            -8.47e-011      3.374e-011     
  -5.7            -8.32e-011      3.232e-011     
  -5.6            -8.16e-011      3.076e-011     
  -5.5            -7.956e-011     3.01e-011      
  -5.4            -7.69e-011      2.69e-011      
  -5.3            -7.544e-011     2.372e-011     
  -5.2            -7.41e-011      2.242e-011     
  -5.1            -7.25e-011      2.158e-011     
  -5              -7.064e-011     1.698e-011     
  -4.9            -6.926e-011     1.524e-011     
  -4.8            -6.842e-011     1.734e-011     
  -4.7            -6.748e-011     1.382e-011     
  -4.6            -6.536e-011     1.22e-011      
  -4.5            -6.42e-011      1.298e-011     
  -4.4            -6.332e-011     1.076e-011     
  -4.3            -6.184e-011     7.72e-012      
  -4.2            -6.05e-011      6.2e-012       
  -4.1            -5.914e-011     5.72e-012      
  -4              -5.85e-011      5.1e-012       
  -3.9            -5.796e-011     2.48e-012      
  -3.8            -5.674e-011     2.7e-012       
  -3.7            -5.552e-011     3.3e-012       
  -3.6            -5.452e-011     -6.4e-013      
  -3.5            -5.41e-011      -3.38e-012     
  -3.4            -5.3e-011       -1.7e-012      
  -3.3            -5.184e-011     -2.46e-012     
  -3.2            -5.12e-011      -7.24e-012     
  -3.1            -5.016e-011     -5.98e-012     
  -3              -4.93e-011      -5.58e-012     
  -2.9            -4.8e-011       -6.74e-012     
  -2.8            -4.732e-011     -8.54e-012     
  -2.7            -4.71e-011      -9.7e-012      
  -2.6            -4.628e-011     -1.012e-011    
  -2.5            -4.504e-011     -1.17e-011     
  -2.4            -4.422e-011     -1.398e-011    
  -2.3            -4.4e-011       -1.306e-011    
  -2.2            -4.366e-011     -1.314e-011    
  -2.1            -4.24e-011      -1.516e-011    
  -2              -4.148e-011     -1.452e-011    
  -1.9            -4.094e-011     -1.5e-011      
  -1.8            -4.05e-011      -1.738e-011    
  -1.7            -3.98e-011      -1.816e-011    
  -1.6            -3.866e-011     -2.144e-011    
  -1.5            -3.824e-011     -1.996e-011    
  -1.4            -3.75e-011      -2.072e-011    
  -1.3            -3.626e-011     -2.206e-011    
  -1.2            -3.506e-011     -2.108e-011    
  -1.1            -3.414e-011     -2.168e-011    
  -1              -3.352e-011     -2.476e-011    
  -0.9            -3.224e-011     -2.694e-011    
  -0.8            -3.042e-011     -2.726e-011    
  -0.7            -2.896e-011     -2.726e-011    
  -0.6            -2.74e-011      -3.28e-011     
  -0.5            -2.556e-011     -3.272e-011    
  -0.4            -2.31e-011      -3.226e-011    
  -0.3            -2.044e-011     -3.624e-011    
  -0.2            -1.802e-011     -4.076e-011    
  -0.1            -1.384e-011     -4.6e-011      
  0               3e-013          -5.6e-011      
END_DB

