! VERSION = 6.00
BEGIN_HEADER
 ICCAP_INPUTS
  vc         V  cathode GROUND SMU1 0.1 CON        0
  va         V  anode GROUND SMU2 0.1 LIN        1    -15        0          151  0.1       
 ICCAP_OUTPUTS
  ia         I  anode GROUND SMU2 B
  ic         I  cathode GROUND SMU1 B
 ICCAP_VALUES
  DataOrigin "Measure"
  ___CONTEXT ""
  Date "Jan 13 Thu 19:45:36 2022"
  Version "WaferPro.2016.01"
  Bench "B1500_B2200"
  Temperature "125"
  Lot "M135205"
  Reticle "M135205"
  Wafer "01D2"
  Die "X-3-Y0"
  DieList "TargetDie"
  Block "WholeDie"
  Subsite "diod2-5V"
  Routine "DIODE_EXTR_Measure"
  MeasCond "Set1"
  Device "6"
  DeviceName "pdiode_Dp5_A320B320"
  DevTechno "DIO"
  DevPolarity "P"
  Setup "iv_rev"
  Type "-1"
  ___SPICE_INSTANCE ""
  A "3.2E-005"
  B "3.2E-005"
  ___TECHNO_INSTANCE ""
  ___CALIBRATION ""
END_HEADER

BEGIN_DB
 ICCAP_VAR vc         0              

 #va              ia              ic             
  -15             -0.0048146      0.0048204      
  -14.9           -0.0045946      0.0046034      
  -14.8           -0.0043678      0.0043786      
  -14.7           -0.0041402      0.0041456      
  -14.6           -0.0039168      0.003908       
  -14.5           -0.0036718      0.003674       
  -14.4           -0.0034328      0.0034334      
  -14.3           -0.0031864      0.0031854      
  -14.2           -0.0029344      0.0029334      
  -14.1           -0.0026792      0.0026748      
  -14             -0.0024126      0.0024082      
  -13.9           -0.0021444      0.0021442      
  -13.8           -0.001866       0.001867       
  -13.7           -0.0015932      0.0015946      
  -13.6           -0.0013148      0.0013252      
  -13.5           -0.0010426      0.0010424      
  -13.4           -0.00076612     0.0007696      
  -13.3           -0.00048336     0.00048392     
  -13.2           -0.00016792     0.00016316     
  -13.1           -2.6722e-006    2.6348e-006    
  -13             -2.1016e-007    2.093e-007     
  -12.9           -3.8268e-008    3.8452e-008    
  -12.8           -2.0226e-008    2.041e-008     
  -12.7           -1.4242e-008    1.4438e-008    
  -12.6           -1.1114e-008    1.1318e-008    
  -12.5           -9.136e-009     9.3392e-009    
  -12.4           -7.7546e-009    7.9564e-009    
  -12.3           -6.7296e-009    6.9408e-009    
  -12.2           -5.9238e-009    6.132e-009     
  -12.1           -5.2594e-009    5.4702e-009    
  -12             -4.7492e-009    4.9404e-009    
  -11.9           -4.2858e-009    4.4894e-009    
  -11.8           -3.9042e-009    4.1138e-009    
  -11.7           -3.5878e-009    3.7986e-009    
  -11.6           -3.2964e-009    3.5102e-009    
  -11.5           -3.0532e-009    3.2614e-009    
  -11.4           -2.8346e-009    3.0348e-009    
  -11.3           -2.6374e-009    2.8466e-009    
  -11.2           -2.47e-009      2.6658e-009    
  -11.1           -2.304e-009     2.508e-009     
  -11             -2.1588e-009    2.362e-009     
  -10.9           -2.0354e-009    2.2342e-009    
  -10.8           -1.917e-009     2.1176e-009    
  -10.7           -1.8078e-009    2.0046e-009    
  -10.6           -1.7072e-009    1.905e-009     
  -10.5           -1.6236e-009    1.8208e-009    
  -10.4           -1.5386e-009    1.7368e-009    
  -10.3           -1.4598e-009    1.656e-009     
  -10.2           -1.3886e-009    1.5826e-009    
  -10.1           -1.3252e-009    1.5176e-009    
  -10             -1.2642e-009    1.4532e-009    
  -9.9            -1.2076e-009    1.3968e-009    
  -9.8            -1.1518e-009    1.34e-009      
  -9.7            -1.1008e-009    1.2868e-009    
  -9.6            -1.0582e-009    1.2382e-009    
  -9.5            -1.0158e-009    1.1918e-009    
  -9.4            -9.8388e-010    1.1446e-009    
  -9.3            -9.539e-010     1.0982e-009    
  -9.2            -9.2862e-010    1.0428e-009    
  -9.1            -9.1e-010       9.912e-010     
  -9              -8.9404e-010    9.3592e-010    
  -8.9            -8.7312e-010    8.8996e-010    
  -8.8            -8.512e-010     8.4916e-010    
  -8.7            -8.252e-010     8.1106e-010    
  -8.6            -8.01e-010      7.7584e-010    
  -8.5            -7.7618e-010    7.4582e-010    
  -8.4            -7.5096e-010    7.197e-010     
  -8.3            -7.2574e-010    6.9404e-010    
  -8.2            -7.0372e-010    6.6746e-010    
  -8.1            -6.8354e-010    6.4568e-010    
  -8              -6.6368e-010    6.2472e-010    
  -7.9            -6.4364e-010    6.0438e-010    
  -7.8            -6.2476e-010    5.843e-010     
  -7.7            -6.09e-010      5.6672e-010    
  -7.6            -5.9026e-010    5.4962e-010    
  -7.5            -5.7316e-010    5.333e-010     
  -7.4            -5.57e-010      5.1416e-010    
  -7.3            -5.4424e-010    5.0116e-010    
  -7.2            -5.2832e-010    4.8532e-010    
  -7.1            -5.14e-010      4.7048e-010    
  -7              -5.0266e-010    4.5782e-010    
  -6.9            -4.9144e-010    4.4432e-010    
  -6.8            -4.7874e-010    4.328e-010     
  -6.7            -4.6612e-010    4.2078e-010    
  -6.6            -4.5436e-010    4.0982e-010    
  -6.5            -4.4434e-010    3.9702e-010    
  -6.4            -4.3426e-010    3.8606e-010    
  -6.3            -4.2436e-010    3.7808e-010    
  -6.2            -4.1506e-010    3.682e-010     
  -6.1            -4.0582e-010    3.5682e-010    
  -6              -3.9576e-010    3.4806e-010    
  -5.9            -3.8688e-010    3.403e-010     
  -5.8            -3.7944e-010    3.3036e-010    
  -5.7            -3.72e-010      3.2352e-010    
  -5.6            -3.6458e-010    3.1546e-010    
  -5.5            -3.5792e-010    3.0922e-010    
  -5.4            -3.5194e-010    3.0058e-010    
  -5.3            -3.447e-010     2.95e-010      
  -5.2            -3.3784e-010    2.8934e-010    
  -5.1            -3.3196e-010    2.8176e-010    
  -5              -3.24e-010      2.7382e-010    
  -4.9            -3.1894e-010    2.679e-010     
  -4.8            -3.1402e-010    2.635e-010     
  -4.7            -3.0888e-010    2.5682e-010    
  -4.6            -3.022e-010     2.525e-010     
  -4.5            -2.975e-010     2.477e-010     
  -4.4            -2.9478e-010    2.4138e-010    
  -4.3            -2.8804e-010    2.3666e-010    
  -4.2            -2.828e-010     2.3418e-010    
  -4.1            -2.7886e-010    2.267e-010     
  -4              -2.7618e-010    2.2102e-010    
  -3.9            -2.6998e-010    2.1966e-010    
  -3.8            -2.6664e-010    2.1526e-010    
  -3.7            -2.6286e-010    2.1014e-010    
  -3.6            -2.5992e-010    2.0508e-010    
  -3.5            -2.5542e-010    2.049e-010     
  -3.4            -2.5082e-010    1.998e-010     
  -3.3            -2.487e-010     1.9514e-010    
  -3.2            -2.4456e-010    1.9018e-010    
  -3.1            -2.4248e-010    1.9074e-010    
  -3              -2.3824e-010    1.8566e-010    
  -2.9            -2.3642e-010    1.8214e-010    
  -2.8            -2.3172e-010    1.7984e-010    
  -2.7            -2.2966e-010    1.7674e-010    
  -2.6            -2.258e-010     1.7412e-010    
  -2.5            -2.2296e-010    1.6922e-010    
  -2.4            -2.2002e-010    1.6572e-010    
  -2.3            -2.184e-010     1.6382e-010    
  -2.2            -2.1582e-010    1.6276e-010    
  -2.1            -2.1184e-010    1.5824e-010    
  -2              -2.1044e-010    1.568e-010     
  -1.9            -2.0676e-010    1.5366e-010    
  -1.8            -2.0394e-010    1.5188e-010    
  -1.7            -2.0016e-010    1.4742e-010    
  -1.6            -1.9908e-010    1.447e-010     
  -1.5            -1.9602e-010    1.4028e-010    
  -1.4            -1.9396e-010    1.4018e-010    
  -1.3            -1.8982e-010    1.3646e-010    
  -1.2            -1.8732e-010    1.326e-010     
  -1.1            -1.8356e-010    1.3054e-010    
  -1              -1.8002e-010    1.2674e-010    
  -0.9            -1.7492e-010    1.2248e-010    
  -0.8            -1.707e-010     1.1386e-010    
  -0.7            -1.658e-010     1.1206e-010    
  -0.6            -1.5988e-010    1.0426e-010    
  -0.5            -1.524e-010     9.838e-011     
  -0.4            -1.433e-010     8.886e-011     
  -0.3            -1.3396e-010    7.93e-011      
  -0.2            -1.2082e-010    6.654e-011     
  -0.1            -1.0046e-010    4.99e-011      
  0               4.68e-012       -1.028e-011    
END_DB

