! VERSION = 6.00
BEGIN_HEADER
 ICCAP_INPUTS
  vc         V  cathode GROUND SMU1 0.1 CON        0
  va         V  anode GROUND SMU2 0.1 LIN        1    -15        0          151  0.1       
 ICCAP_OUTPUTS
  ia         I  anode GROUND SMU2 B
  ic         I  cathode GROUND SMU1 B
 ICCAP_VALUES
  DataOrigin "Measure"
  ___CONTEXT ""
  Date "Jan 13 Thu 19:51:36 2022"
  Version "WaferPro.2016.01"
  Bench "B1500_B2200"
  Temperature "125"
  Lot "M135205"
  Reticle "M135205"
  Wafer "01D2"
  Die "X-3-Y0"
  DieList "TargetDie"
  Block "WholeDie"
  Subsite "diod2-5V"
  Routine "DIODE_EXTR_Measure"
  MeasCond "Set1"
  Device "11"
  DeviceName "pdiode_Dp5_A320B640"
  DevTechno "DIO"
  DevPolarity "P"
  Setup "iv_rev"
  Type "-1"
  ___SPICE_INSTANCE ""
  A "3.2E-005"
  B "6.4E-005"
  ___TECHNO_INSTANCE ""
  ___CALIBRATION ""
END_HEADER

BEGIN_DB
 ICCAP_VAR vc         0              

 #va              ia              ic             
  -15             -0.008391       0.0084126      
  -14.9           -0.007984       0.0079972      
  -14.8           -0.0075806      0.0075824      
  -14.7           -0.0071656      0.0071714      
  -14.6           -0.0067494      0.0067506      
  -14.5           -0.006324       0.006325       
  -14.4           -0.0058938      0.0058958      
  -14.3           -0.0054582      0.0054584      
  -14.2           -0.0050114      0.0050134      
  -14.1           -0.0045582      0.0045626      
  -14             -0.0040998      0.004095       
  -13.9           -0.0036368      0.0036368      
  -13.8           -0.0031656      0.0031626      
  -13.7           -0.002697       0.002697       
  -13.6           -0.0022204      0.0022184      
  -13.5           -0.0017472      0.0017474      
  -13.4           -0.0012656      0.0012644      
  -13.3           -0.00078764     0.00078602     
  -13.2           -0.00022976     0.00021938     
  -13.1           -4.4594e-006    4.3794e-006    
  -13             -2.979e-007     2.9898e-007    
  -12.9           -5.7386e-008    5.7496e-008    
  -12.8           -3.0158e-008    3.0336e-008    
  -12.7           -2.1028e-008    2.1238e-008    
  -12.6           -1.6388e-008    1.6566e-008    
  -12.5           -1.342e-008     1.362e-008     
  -12.4           -1.1364e-008    1.1558e-008    
  -12.3           -9.872e-009     1.0044e-008    
  -12.2           -8.6862e-009    8.873e-009     
  -12.1           -7.743e-009     7.9292e-009    
  -12             -6.9798e-009    7.1684e-009    
  -11.9           -6.3282e-009    6.5146e-009    
  -11.8           -5.7628e-009    5.9632e-009    
  -11.7           -5.2974e-009    5.4826e-009    
  -11.6           -4.8778e-009    5.06e-009      
  -11.5           -4.51e-009      4.6996e-009    
  -11.4           -4.1914e-009    4.3826e-009    
  -11.3           -3.9164e-009    4.1064e-009    
  -11.2           -3.6644e-009    3.8476e-009    
  -11.1           -3.4274e-009    3.6176e-009    
  -11             -3.2186e-009    3.4062e-009    
  -10.9           -3.034e-009     3.219e-009     
  -10.8           -2.862e-009     3.0456e-009    
  -10.7           -2.699e-009     2.8862e-009    
  -10.6           -2.5616e-009    2.7456e-009    
  -10.5           -2.4218e-009    2.604e-009     
  -10.4           -2.3024e-009    2.486e-009     
  -10.3           -2.1884e-009    2.3708e-009    
  -10.2           -2.0836e-009    2.265e-009     
  -10.1           -1.983e-009     2.1634e-009    
  -10             -1.8946e-009    2.0726e-009    
  -9.9            -1.811e-009     1.9878e-009    
  -9.8            -1.7318e-009    1.9096e-009    
  -9.7            -1.6616e-009    1.8356e-009    
  -9.6            -1.592e-009     1.7646e-009    
  -9.5            -1.527e-009     1.6966e-009    
  -9.4            -1.4674e-009    1.6364e-009    
  -9.3            -1.4104e-009    1.5718e-009    
  -9.2            -1.3586e-009    1.5156e-009    
  -9.1            -1.315e-009     1.4612e-009    
  -9              -1.277e-009     1.409e-009     
  -8.9            -1.2428e-009    1.3602e-009    
  -8.8            -1.2156e-009    1.3084e-009    
  -8.7            -1.19e-009      1.2564e-009    
  -8.6            -1.1654e-009    1.211e-009     
  -8.5            -1.1388e-009    1.1628e-009    
  -8.4            -1.1146e-009    1.1202e-009    
  -8.3            -1.0866e-009    1.0784e-009    
  -8.2            -1.057e-009     1.042e-009     
  -8.1            -1.03e-009      1.0072e-009    
  -8              -9.996e-010     9.7976e-010    
  -7.9            -9.7142e-010    9.4534e-010    
  -7.8            -9.4478e-010    9.1448e-010    
  -7.7            -9.1752e-010    8.8734e-010    
  -7.6            -8.9022e-010    8.597e-010     
  -7.5            -8.6586e-010    8.3118e-010    
  -7.4            -8.4192e-010    8.0356e-010    
  -7.3            -8.2042e-010    7.8404e-010    
  -7.2            -7.9928e-010    7.616e-010     
  -7.1            -7.7824e-010    7.3862e-010    
  -7              -7.5972e-010    7.1698e-010    
  -6.9            -7.3904e-010    6.9922e-010    
  -6.8            -7.2082e-010    6.8196e-010    
  -6.7            -7.0414e-010    6.617e-010     
  -6.6            -6.8918e-010    6.4662e-010    
  -6.5            -6.715e-010     6.296e-010     
  -6.4            -6.5704e-010    6.1626e-010    
  -6.3            -6.4384e-010    6.0002e-010    
  -6.2            -6.3152e-010    5.8744e-010    
  -6.1            -6.1828e-010    5.7318e-010    
  -6              -6.0474e-010    5.6142e-010    
  -5.9            -5.9222e-010    5.4698e-010    
  -5.8            -5.7944e-010    5.3538e-010    
  -5.7            -5.6812e-010    5.2138e-010    
  -5.6            -5.555e-010     5.1056e-010    
  -5.5            -5.4566e-010    4.9998e-010    
  -5.4            -5.351e-010     4.888e-010     
  -5.3            -5.2576e-010    4.788e-010     
  -5.2            -5.1432e-010    4.6864e-010    
  -5.1            -5.0606e-010    4.6104e-010    
  -5              -4.983e-010     4.488e-010     
  -4.9            -4.8902e-010    4.4242e-010    
  -4.8            -4.805e-010     4.3352e-010    
  -4.7            -4.7286e-010    4.252e-010     
  -4.6            -4.6598e-010    4.1412e-010    
  -4.5            -4.5726e-010    4.099e-010     
  -4.4            -4.5024e-010    4.0212e-010    
  -4.3            -4.4312e-010    3.9352e-010    
  -4.2            -4.3634e-010    3.8722e-010    
  -4.1            -4.2904e-010    3.8062e-010    
  -4              -4.228e-010     3.7404e-010    
  -3.9            -4.1594e-010    3.6652e-010    
  -3.8            -4.1002e-010    3.6144e-010    
  -3.7            -4.0452e-010    3.5544e-010    
  -3.6            -3.9966e-010    3.4954e-010    
  -3.5            -3.935e-010     3.4234e-010    
  -3.4            -3.8692e-010    3.3798e-010    
  -3.3            -3.8236e-010    3.3226e-010    
  -3.2            -3.7714e-010    3.269e-010     
  -3.1            -3.7196e-010    3.2168e-010    
  -3              -3.6734e-010    3.1712e-010    
  -2.9            -3.6382e-010    3.1188e-010    
  -2.8            -3.5734e-010    3.078e-010     
  -2.7            -3.5286e-010    3.0274e-010    
  -2.6            -3.5048e-010    2.9664e-010    
  -2.5            -3.4642e-010    2.947e-010     
  -2.4            -3.409e-010     2.9032e-010    
  -2.3            -3.365e-010     2.8668e-010    
  -2.2            -3.3406e-010    2.8138e-010    
  -2.1            -3.296e-010     2.7748e-010    
  -2              -3.2418e-010    2.745e-010     
  -1.9            -3.2114e-010    2.6986e-010    
  -1.8            -3.1768e-010    2.6394e-010    
  -1.7            -3.1268e-010    2.597e-010     
  -1.6            -3.0772e-010    2.5732e-010    
  -1.5            -3.0394e-010    2.5138e-010    
  -1.4            -2.9934e-010    2.473e-010     
  -1.3            -2.9388e-010    2.4338e-010    
  -1.2            -2.8908e-010    2.3724e-010    
  -1.1            -2.8398e-010    2.3116e-010    
  -1              -2.7706e-010    2.2486e-010    
  -0.9            -2.7056e-010    2.1662e-010    
  -0.8            -2.6166e-010    2.0912e-010    
  -0.7            -2.5176e-010    2.0054e-010    
  -0.6            -2.4032e-010    1.8906e-010    
  -0.5            -2.2852e-010    1.7448e-010    
  -0.4            -2.1434e-010    1.6172e-010    
  -0.3            -1.9548e-010    1.4298e-010    
  -0.2            -1.7566e-010    1.2404e-010    
  -0.1            -1.469e-010     9.886e-011     
  0               2.068e-011      1.39e-011      
END_DB

