! VERSION = 6.00
BEGIN_HEADER
 ICCAP_INPUTS
  vc         V  cathode GROUND SMU1 0.1 CON        0
  va         V  anode GROUND SMU2 0.1 LIN        1    0          1          51   0.02      
 ICCAP_OUTPUTS
  ia         I  anode GROUND SMU2 B
  ic         I  cathode GROUND SMU1 B
 ICCAP_VALUES
  DataOrigin "Measure"
  ___CONTEXT ""
  Date "Jan 13 Thu 19:39:31 2022"
  Version "WaferPro.2016.01"
  Bench "B1500_B2200"
  Temperature "125"
  Lot "M135205"
  Reticle "M135205"
  Wafer "01D2"
  Die "X-3-Y0"
  DieList "TargetDie"
  Block "WholeDie"
  Subsite "diod2-5V"
  Routine "DIODE_EXTR_Measure"
  MeasCond "Set1"
  Device "1"
  DeviceName "pdiode_Dp5_A032B032"
  DevTechno "DIO"
  DevPolarity "P"
  Setup "iv_fwd"
  Type "-1"
  ___SPICE_INSTANCE ""
  A "3.2E-007"
  B "3.2E-007"
  ___TECHNO_INSTANCE ""
  ___CALIBRATION ""
END_HEADER

BEGIN_DB
 ICCAP_VAR vc         0              

 #va              ia              ic             
  0               1.6e-013        4.4e-011       
  0.02            1.36e-012       1.102e-011     
  0.04            2.6e-012        3.8e-012       
  0.06            4.36e-012       -4.58e-012     
  0.08            7.24e-012       -1.19e-011     
  0.1             1.194e-011      -1.76e-011     
  0.12            1.864e-011      -2.474e-011    
  0.14            2.896e-011      -3.38e-011     
  0.16            4.528e-011      -4.808e-011    
  0.18            6.932e-011      -6.952e-011    
  0.2             1.0734e-010     -1.0088e-010   
  0.22            1.6534e-010     -1.4902e-010   
  0.24            2.5714e-010     -2.2244e-010   
  0.26            4.0156e-010     -3.3506e-010   
  0.28            6.3086e-010     -5.1232e-010   
  0.3             9.992e-010      -8.0884e-010   
  0.32            1.6e-009        -1.4638e-009   
  0.34            2.5736e-009     -2.2896e-009   
  0.36            4.1822e-009     -3.8344e-009   
  0.38            6.817e-009      -6.4666e-009   
  0.4             1.1203e-008     -1.08878e-008  
  0.42            1.854e-008      -1.8274e-008   
  0.44            3.063e-008      -2.945e-008    
  0.46            5.062e-008      -4.9522e-008   
  0.48            8.3066e-008     -8.2142e-008   
  0.5             1.3582e-007     -1.3548e-007   
  0.52            2.1916e-007     -2.1842e-007   
  0.54            3.4866e-007     -3.4826e-007   
  0.56            5.4774e-007     -5.4752e-007   
  0.58            8.4588e-007     -8.4588e-007   
  0.6             1.2896e-006     -1.2886e-006   
  0.62            1.9276e-006     -1.9258e-006   
  0.64            2.8372e-006     -2.8338e-006   
  0.66            4.0888e-006     -4.0876e-006   
  0.68            5.7896e-006     -5.7848e-006   
  0.7             8.0126e-006     -8.0096e-006   
  0.72            1.08204e-005    -1.08144e-005  
  0.74            1.4282e-005     -1.4264e-005   
  0.76            1.8312e-005     -1.83e-005     
  0.78            2.2938e-005     -2.292e-005    
  0.8             2.8094e-005     -2.8072e-005   
  0.82            3.3718e-005     -3.3694e-005   
  0.84            3.9764e-005     -3.975e-005    
  0.86            4.6166e-005     -4.6136e-005   
  0.88            5.2842e-005     -5.2808e-005   
  0.9             5.9784e-005     -5.9766e-005   
  0.92            6.695e-005      -6.6916e-005   
  0.94            7.4308e-005     -7.4276e-005   
  0.96            8.1856e-005     -8.1826e-005   
  0.98            8.9616e-005     -8.9588e-005   
  1               9.757e-005      -9.753e-005    
END_DB

