! VERSION = 6.00
BEGIN_HEADER
 ICCAP_INPUTS
  vc         V  cathode GROUND SMU1 0.1 CON        0
  va         V  anode GROUND SMU2 0.1 LIN        1    0          1          51   0.02      
 ICCAP_OUTPUTS
  ia         I  anode GROUND SMU2 B
  ic         I  cathode GROUND SMU1 B
 ICCAP_VALUES
  DataOrigin "Measure"
  ___CONTEXT ""
  Date "Jan 13 Thu 19:51:36 2022"
  Version "WaferPro.2016.01"
  Bench "B1500_B2200"
  Temperature "125"
  Lot "M135205"
  Reticle "M135205"
  Wafer "01D2"
  Die "X-3-Y0"
  DieList "TargetDie"
  Block "WholeDie"
  Subsite "diod2-5V"
  Routine "DIODE_EXTR_Measure"
  MeasCond "Set1"
  Device "11"
  DeviceName "pdiode_Dp5_A320B640"
  DevTechno "DIO"
  DevPolarity "P"
  Setup "iv_fwd"
  Type "-1"
  ___SPICE_INSTANCE ""
  A "3.2E-005"
  B "6.4E-005"
  ___TECHNO_INSTANCE ""
  ___CALIBRATION ""
END_HEADER

BEGIN_DB
 ICCAP_VAR vc         0              

 #va              ia              ic             
  0               2.32e-012       3.928e-011     
  0.02            1.1004e-010     -3.772e-011    
  0.04            2.7888e-010     -1.4312e-010   
  0.06            5.4526e-010     -3.5916e-010   
  0.08            9.6446e-010     -7.8454e-010   
  0.1             1.7504e-009     -1.68e-009     
  0.12            3.1434e-009     -2.9478e-009   
  0.14            5.554e-009      -5.3084e-009   
  0.16            9.775e-009      -9.5318e-009   
  0.18            1.7156e-008     -1.6974e-008   
  0.2             3.0188e-008     -2.933e-008    
  0.22            5.306e-008      -5.22e-008     
  0.24            9.3086e-008     -9.2358e-008   
  0.26            1.637e-007      -1.6332e-007   
  0.28            2.8716e-007     -2.8662e-007   
  0.3             5.044e-007      -5.0386e-007   
  0.32            8.8478e-007     -8.8408e-007   
  0.34            1.5452e-006     -1.544e-006    
  0.36            2.692e-006      -2.6892e-006   
  0.38            4.6494e-006     -4.6478e-006   
  0.4             7.9606e-006     -7.96e-006     
  0.42            1.3494e-005     -1.3486e-005   
  0.44            2.246e-005      -2.2446e-005   
  0.46            3.6776e-005     -3.6758e-005   
  0.48            5.8838e-005     -5.8818e-005   
  0.5             9.22e-005       -9.2176e-005   
  0.52            0.0001408       -0.00014068    
  0.54            0.00020946      -0.00020932    
  0.56            0.00030398      -0.00030388    
  0.58            0.00042912      -0.00042898    
  0.6             0.00059056      -0.00059042    
  0.62            0.00079082      -0.00079066    
  0.64            0.00103306      -0.00103296    
  0.66            0.001317        -0.0013154     
  0.68            0.0016418       -0.0016404     
  0.7             0.0020056       -0.0020042     
  0.72            0.0024032       -0.0024018     
  0.74            0.0028352       -0.002834      
  0.76            0.0032952       -0.0032936     
  0.78            0.0037822       -0.0037808     
  0.8             0.0042942       -0.0042922     
  0.82            0.0048252       -0.0048234     
  0.84            0.0053762       -0.0053752     
  0.86            0.0059438       -0.0059424     
  0.88            0.0065232       -0.0065218     
  0.9             0.0071198       -0.0071178     
  0.92            0.0077264       -0.0077236     
  0.94            0.0083458       -0.008344      
  0.96            0.0089706       -0.008969      
  0.98            0.0096072       -0.009606      
  1               0.0102514       -0.010248      
END_DB

