! VERSION = 6.00
BEGIN_HEADER
 ICCAP_INPUTS
  vc         V  cathode GROUND SMU1 0.1 CON        0
  va         V  anode GROUND SMU2 0.1 LIN        1    0          1          51   0.02      
 ICCAP_OUTPUTS
  ia         I  anode GROUND SMU2 B
  ic         I  cathode GROUND SMU1 B
 ICCAP_VALUES
  DataOrigin "Measure"
  ___CONTEXT ""
  Date "Jan 13 Thu 19:49:12 2022"
  Version "WaferPro.2016.01"
  Bench "B1500_B2200"
  Temperature "125"
  Lot "M135205"
  Reticle "M135205"
  Wafer "01D2"
  Die "X-3-Y0"
  DieList "TargetDie"
  Block "WholeDie"
  Subsite "diod2-5V"
  Routine "DIODE_EXTR_Measure"
  MeasCond "Set1"
  Device "9"
  DeviceName "pdiode_Dp5_A128B640"
  DevTechno "DIO"
  DevPolarity "P"
  Setup "iv_fwd"
  Type "-1"
  ___SPICE_INSTANCE ""
  A "1.28E-006"
  B "6.4E-005"
  ___TECHNO_INSTANCE ""
  ___CALIBRATION ""
END_HEADER

BEGIN_DB
 ICCAP_VAR vc         0              

 #va              ia              ic             
  0               2.2e-013        4.158e-011     
  0.02            3.222e-011      -1.068e-011    
  0.04            8.154e-011      -6.016e-011    
  0.06            1.577e-010      -1.2706e-010   
  0.08            2.7714e-010     -2.2802e-010   
  0.1             4.6718e-010     -3.8482e-010   
  0.12            7.7166e-010     -6.376e-010    
  0.14            1.2566e-009     -1.04044e-009  
  0.16            2.0522e-009     -1.8236e-009   
  0.18            3.343e-009      -3.03e-009     
  0.2             5.4752e-009     -5.1582e-009   
  0.22            9.0228e-009     -8.7408e-009   
  0.24            1.4936e-008     -1.477e-008    
  0.26            2.4926e-008     -2.3842e-008   
  0.28            4.1794e-008     -4.0724e-008   
  0.3             7.0708e-008     -6.9706e-008   
  0.32            1.2042e-007     -1.201e-007    
  0.34            2.058e-007      -2.0506e-007   
  0.36            3.5432e-007     -3.5364e-007   
  0.38            6.1126e-007     -6.1064e-007   
  0.4             1.05828e-006    -1.0573e-006   
  0.42            1.8416e-006     -1.8396e-006   
  0.44            3.1966e-006     -3.1932e-006   
  0.46            5.5524e-006     -5.5498e-006   
  0.48            9.5838e-006     -9.5828e-006   
  0.5             1.649e-005      -1.6484e-005   
  0.52            2.8016e-005     -2.8006e-005   
  0.54            4.6946e-005     -4.6936e-005   
  0.56            7.7334e-005     -7.7324e-005   
  0.58            0.00012416      -0.00012406    
  0.6             0.0001938       -0.00019368    
  0.62            0.0002921       -0.000292      
  0.64            0.00042538      -0.00042528    
  0.66            0.00059718      -0.00059706    
  0.68            0.00081176      -0.00081164    
  0.7             0.0010702       -0.00107008    
  0.72            0.001372        -0.0013706     
  0.74            0.0017176       -0.001716      
  0.76            0.0021026       -0.0021012     
  0.78            0.002528        -0.0025264     
  0.8             0.0029898       -0.0029884     
  0.82            0.0034838       -0.0034822     
  0.84            0.0040104       -0.0040092     
  0.86            0.0045658       -0.0045644     
  0.88            0.0051438       -0.005143      
  0.9             0.005748        -0.0057466     
  0.92            0.0063694       -0.0063686     
  0.94            0.0070138       -0.007012      
  0.96            0.0076728       -0.0076716     
  0.98            0.0083516       -0.0083494     
  1               0.0090414       -0.00904       
END_DB

