! VERSION = 6.00
BEGIN_HEADER
 ICCAP_INPUTS
  vc         V  cathode GROUND SMU1 0.1 CON        0
  va         V  anode GROUND SMU2 0.1 LIN        1    -15        0          151  0.1       
 ICCAP_OUTPUTS
  ia         I  anode GROUND SMU2 B
  ic         I  cathode GROUND SMU1 B
 ICCAP_VALUES
  DataOrigin "Measure"
  ___CONTEXT ""
  Date "Jan 13 Thu 19:43:09 2022"
  Version "WaferPro.2016.01"
  Bench "B1500_B2200"
  Temperature "125"
  Lot "M135205"
  Reticle "M135205"
  Wafer "01D2"
  Die "X-3-Y0"
  DieList "TargetDie"
  Block "WholeDie"
  Subsite "diod2-5V"
  Routine "DIODE_EXTR_Measure"
  MeasCond "Set1"
  Device "4"
  DeviceName "pdiode_Dp5_A32B32"
  DevTechno "DIO"
  DevPolarity "P"
  Setup "iv_rev"
  Type "-1"
  ___SPICE_INSTANCE ""
  A "3.2E-006"
  B "3.2E-006"
  ___TECHNO_INSTANCE ""
  ___CALIBRATION ""
END_HEADER

BEGIN_DB
 ICCAP_VAR vc         0              

 #va              ia              ic             
  -15             -0.00064778     0.00065096     
  -14.9           -0.00061742     0.00061812     
  -14.8           -0.00058756     0.00058782     
  -14.7           -0.00055742     0.00055764     
  -14.6           -0.00052604     0.00052636     
  -14.5           -0.00049396     0.000494       
  -14.4           -0.00046116     0.00046152     
  -14.3           -0.00042778     0.00042758     
  -14.2           -0.00039368     0.00039372     
  -14.1           -0.0003585      0.00035848     
  -14             -0.00032284     0.00032268     
  -13.9           -0.0002867      0.00028672     
  -13.8           -0.00024992     0.00024976     
  -13.7           -0.0002131      0.00021326     
  -13.6           -0.00017566     0.00017542     
  -13.5           -0.0001381      0.00013812     
  -13.4           -0.00010024     0.000100322    
  -13.3           -6.205e-005     6.1942e-005    
  -13.2           -6.6172e-007    6.47e-007      
  -13.1           -7.1422e-009    6.9928e-009    
  -13             -2.859e-009     2.9024e-009    
  -12.9           -1.9286e-009    1.9328e-009    
  -12.8           -1.4954e-009    1.4886e-009    
  -12.7           -1.2338e-009    1.2254e-009    
  -12.6           -1.0436e-009    1.0292e-009    
  -12.5           -8.9586e-010    8.8274e-010    
  -12.4           -7.772e-010     7.6076e-010    
  -12.3           -6.9806e-010    6.7774e-010    
  -12.2           -6.244e-010     6.0568e-010    
  -12.1           -5.6384e-010    5.4008e-010    
  -12             -5.1248e-010    4.7956e-010    
  -11.9           -4.7032e-010    4.3672e-010    
  -11.8           -4.3194e-010    4.004e-010     
  -11.7           -4.0276e-010    3.6714e-010    
  -11.6           -3.7112e-010    3.4234e-010    
  -11.5           -3.47e-010      3.1246e-010    
  -11.4           -3.2606e-010    2.9026e-010    
  -11.3           -3.0548e-010    2.7054e-010    
  -11.2           -2.8828e-010    2.504e-010     
  -11.1           -2.6844e-010    2.2802e-010    
  -11             -2.5176e-010    2.1342e-010    
  -10.9           -2.3834e-010    2.0088e-010    
  -10.8           -2.2384e-010    1.8288e-010    
  -10.7           -2.1686e-010    1.707e-010     
  -10.6           -2.0294e-010    1.605e-010     
  -10.5           -1.9526e-010    1.504e-010     
  -10.4           -1.8512e-010    1.405e-010     
  -10.3           -1.7478e-010    1.2888e-010    
  -10.2           -1.6632e-010    1.22e-010      
  -10.1           -1.6064e-010    1.1334e-010    
  -10             -1.5448e-010    1.0574e-010    
  -9.9            -1.4684e-010    9.68e-011      
  -9.8            -1.4124e-010    9.406e-011     
  -9.7            -1.3446e-010    8.6e-011       
  -9.6            -1.309e-010     8.144e-011     
  -9.5            -1.26e-010      7.876e-011     
  -9.4            -1.206e-010     7.22e-011      
  -9.3            -1.1522e-010    6.576e-011     
  -9.2            -1.1118e-010    6.188e-011     
  -9.1            -1.0732e-010    5.9e-011       
  -9              -1.0266e-010    5.242e-011     
  -8.9            -9.862e-011     4.642e-011     
  -8.8            -9.59e-011      4.68e-011      
  -8.7            -9.262e-011     4.226e-011     
  -8.6            -8.836e-011     3.846e-011     
  -8.5            -8.54e-011      3.634e-011     
  -8.4            -8.3e-011       3.312e-011     
  -8.3            -8.028e-011     2.838e-011     
  -8.2            -7.878e-011     2.784e-011     
  -8.1            -7.596e-011     2.556e-011     
  -8              -7.406e-011     2.236e-011     
  -7.9            -7.164e-011     1.908e-011     
  -7.8            -6.92e-011      1.964e-011     
  -7.7            -6.688e-011     1.738e-011     
  -7.6            -6.478e-011     1.352e-011     
  -7.5            -6.308e-011     1.152e-011     
  -7.4            -6.12e-011      1.168e-011     
  -7.3            -5.984e-011     9.66e-012      
  -7.2            -5.842e-011     3.26e-012      
  -7.1            -5.682e-011     4.7e-012       
  -7              -5.532e-011     5.72e-012      
  -6.9            -5.344e-011     4.9e-012       
  -6.8            -5.198e-011     -2.54e-012     
  -6.7            -5.12e-011      -2e-013        
  -6.6            -4.946e-011     -8e-013        
  -6.5            -4.852e-011     -3.44e-012     
  -6.4            -4.732e-011     -4.1e-012      
  -6.3            -4.654e-011     -6.52e-012     
  -6.2            -4.502e-011     -5.02e-012     
  -6.1            -4.392e-011     -7e-012        
  -6              -4.236e-011     -8.68e-012     
  -5.9            -4.176e-011     -9.42e-012     
  -5.8            -4.082e-011     -1.55e-011     
  -5.7            -3.968e-011     -1.174e-011    
  -5.6            -3.89e-011      -1.24e-011     
  -5.5            -3.81e-011      -1.498e-011    
  -5.4            -3.742e-011     -1.552e-011    
  -5.3            -3.626e-011     -1.466e-011    
  -5.2            -3.568e-011     -1.582e-011    
  -5.1            -3.466e-011     -1.764e-011    
  -5              -3.452e-011     -1.704e-011    
  -4.9            -3.324e-011     -1.808e-011    
  -4.8            -3.312e-011     -2.058e-011    
  -4.7            -3.222e-011     -2.138e-011    
  -4.6            -3.206e-011     -2.266e-011    
  -4.5            -3.068e-011     -2.196e-011    
  -4.4            -3.024e-011     -2.07e-011     
  -4.3            -3.014e-011     -2.302e-011    
  -4.2            -2.974e-011     -2.422e-011    
  -4.1            -2.906e-011     -2.298e-011    
  -4              -2.85e-011      -2.452e-011    
  -3.9            -2.822e-011     -2.58e-011     
  -3.8            -2.782e-011     -2.658e-011    
  -3.7            -2.738e-011     -2.514e-011    
  -3.6            -2.596e-011     -2.562e-011    
  -3.5            -2.636e-011     -2.804e-011    
  -3.4            -2.552e-011     -2.79e-011     
  -3.3            -2.556e-011     -2.698e-011    
  -3.2            -2.46e-011      -2.862e-011    
  -3.1            -2.484e-011     -3.134e-011    
  -3              -2.424e-011     -2.878e-011    
  -2.9            -2.388e-011     -2.88e-011     
  -2.8            -2.332e-011     -3.134e-011    
  -2.7            -2.288e-011     -3.014e-011    
  -2.6            -2.274e-011     -3.072e-011    
  -2.5            -2.222e-011     -3.194e-011    
  -2.4            -2.196e-011     -3.344e-011    
  -2.3            -2.146e-011     -3.418e-011    
  -2.2            -2.198e-011     -3.394e-011    
  -2.1            -2.088e-011     -3.248e-011    
  -2              -2.06e-011      -3.322e-011    
  -1.9            -1.98e-011      -3.568e-011    
  -1.8            -2.018e-011     -3.54e-011     
  -1.7            -1.952e-011     -3.73e-011     
  -1.6            -1.932e-011     -3.486e-011    
  -1.5            -1.866e-011     -3.588e-011    
  -1.4            -1.852e-011     -3.858e-011    
  -1.3            -1.802e-011     -3.644e-011    
  -1.2            -1.714e-011     -3.662e-011    
  -1.1            -1.658e-011     -3.976e-011    
  -1              -1.562e-011     -4.118e-011    
  -0.9            -1.532e-011     -3.942e-011    
  -0.8            -1.39e-011      -3.968e-011    
  -0.7            -1.33e-011      -4.322e-011    
  -0.6            -1.172e-011     -4.588e-011    
  -0.5            -1.066e-011     -4.474e-011    
  -0.4            -8.9e-012       -4.532e-011    
  -0.3            -7.34e-012      -4.912e-011    
  -0.2            -5.98e-012      -5.086e-011    
  -0.1            -4.56e-012      -5.026e-011    
  0               5.2e-013        -5.474e-011    
END_DB

