! VERSION = 6.00
BEGIN_HEADER
 ICCAP_INPUTS
  vc         V  cathode GROUND SMU1 0.1 CON        0
  va         V  anode GROUND SMU2 0.1 LIN        1    0          1          51   0.02      
 ICCAP_OUTPUTS
  ia         I  anode GROUND SMU2 B
  ic         I  cathode GROUND SMU1 B
 ICCAP_VALUES
  DataOrigin "Measure"
  ___CONTEXT ""
  Date "Jan 13 Thu 19:47:59 2022"
  Version "WaferPro.2016.01"
  Bench "B1500_B2200"
  Temperature "125"
  Lot "M135205"
  Reticle "M135205"
  Wafer "01D2"
  Die "X-3-Y0"
  DieList "TargetDie"
  Block "WholeDie"
  Subsite "diod2-5V"
  Routine "DIODE_EXTR_Measure"
  MeasCond "Set1"
  Device "8"
  DeviceName "pdiode_Dp5_A064B640"
  DevTechno "DIO"
  DevPolarity "P"
  Setup "iv_fwd"
  Type "-1"
  ___SPICE_INSTANCE ""
  A "6.4E-007"
  B "6.4E-005"
  ___TECHNO_INSTANCE ""
  ___CALIBRATION ""
END_HEADER

BEGIN_DB
 ICCAP_VAR vc         0              

 #va              ia              ic             
  0               3.8e-013        3.974e-011     
  0.02            4.286e-011      -2.37e-011     
  0.04            1.0826e-010     -9.526e-011    
  0.06            2.0602e-010     -1.8674e-010   
  0.08            3.5694e-010     -3.3054e-010   
  0.1             5.8904e-010     -5.3648e-010   
  0.12            9.5284e-010     -8.6464e-010   
  0.14            1.5214e-009     -1.438e-009    
  0.16            2.4224e-009     -2.2284e-009   
  0.18            3.8352e-009     -3.5336e-009   
  0.2             6.095e-009      -5.7498e-009   
  0.22            9.7212e-009     -9.3918e-009   
  0.24            1.5568e-008     -1.5364e-008   
  0.26            2.5132e-008     -2.4014e-008   
  0.28            4.0796e-008     -3.9656e-008   
  0.3             6.6824e-008     -6.5768e-008   
  0.32            1.10356e-007    -1.09444e-007  
  0.34            1.835e-007      -1.83e-007     
  0.36            3.0758e-007     -3.0694e-007   
  0.38            5.1808e-007     -5.174e-007    
  0.4             8.7764e-007     -8.769e-007    
  0.42            1.4954e-006     -1.4948e-006   
  0.44            2.5482e-006     -2.5468e-006   
  0.46            4.353e-006      -4.352e-006    
  0.48            7.4048e-006     -7.4036e-006   
  0.5             1.2582e-005     -1.2576e-005   
  0.52            2.1166e-005     -2.1156e-005   
  0.54            3.5266e-005     -3.5256e-005   
  0.56            5.8096e-005     -5.8092e-005   
  0.58            9.392e-005      -9.3912e-005   
  0.6             0.00014892      -0.00014882    
  0.62            0.00022978      -0.00022966    
  0.64            0.0003449       -0.00034476    
  0.66            0.00050106      -0.00050092    
  0.68            0.00070642      -0.00070626    
  0.7             0.00096644      -0.00096626    
  0.72            0.001285        -0.0012836     
  0.74            0.001666        -0.0016646     
  0.76            0.0021092       -0.0021076     
  0.78            0.0026174       -0.0026158     
  0.8             0.003189        -0.0031872     
  0.82            0.0038192       -0.0038176     
  0.84            0.0045098       -0.0045082     
  0.86            0.005256        -0.0052542     
  0.88            0.0060504       -0.0060486     
  0.9             0.0068958       -0.0068938     
  0.92            0.007782        -0.0077802     
  0.94            0.0087128       -0.008711      
  0.96            0.0096784       -0.0096766     
  0.98            0.0106822       -0.0106804     
  1               0.011722        -0.01171       
END_DB

