! VERSION = 6.00
BEGIN_HEADER
 ICCAP_INPUTS
  vc         V  cathode GROUND SMU1 0.1 CON        0
  va         V  anode GROUND SMU2 0.1 LIN        1    0          -1         51   -0.02     
 ICCAP_OUTPUTS
  ia         I  anode GROUND SMU2 B
  ic         I  cathode GROUND SMU1 B
 ICCAP_VALUES
  DataOrigin "Measure"
  ___CONTEXT ""
  Date "Jan 13 Thu 13:44:40 2022"
  Version "WaferPro.2016.01"
  Bench "B1500_B2200"
  Temperature "27"
  Lot "M135205"
  Reticle "M135205"
  Wafer "01D2"
  Die "X-3-Y0"
  DieList "TargetDie"
  Block "WholeDie"
  Subsite "diod1-5V"
  Routine "DIODE_EXTR_Measure"
  MeasCond "Set1"
  Device "8"
  DeviceName "ndiode_Dn5_A064B640"
  DevTechno "DIO"
  DevPolarity "N"
  Setup "iv_fwd"
  Type "1"
  ___SPICE_INSTANCE ""
  A "6.4E-007"
  B "6.4E-005"
  ___TECHNO_INSTANCE ""
  ___CALIBRATION ""
END_HEADER

BEGIN_DB
 ICCAP_VAR vc         0              

 #va              ia              ic             
  0               7.8e-013        4.06e-012      
  -0.02           -1.8e-013       -1.43e-011     
  -0.04           -4.2e-013       6.1e-012       
  -0.06           1e-013          -1.314e-011    
  -0.08           -5.6e-013       -2.94e-012     
  -0.1            -1.72e-012      1.222e-011     
  -0.12           -2.48e-012      -3.08e-012     
  -0.14           -4.9e-012       2.82e-012      
  -0.16           -8.54e-012      -3.14e-012     
  -0.18           -1.402e-011     9.3e-012       
  -0.2            -2.33e-011      3.05e-011      
  -0.22           -3.966e-011     3.164e-011     
  -0.24           -6.802e-011     6.878e-011     
  -0.26           -1.1282e-010    1.0544e-010    
  -0.28           -1.8966e-010    1.8772e-010    
  -0.3            -3.17e-010      3.1416e-010    
  -0.32           -5.255e-010     5.3156e-010    
  -0.34           -8.7124e-010    8.6624e-010    
  -0.36           -1.434e-009     1.4324e-009    
  -0.38           -2.3454e-009    2.3492e-009    
  -0.4            -3.833e-009     3.8208e-009    
  -0.42           -6.2414e-009    6.2122e-009    
  -0.44           -1.01162e-008   1.00724e-008   
  -0.46           -1.6432e-008    1.6322e-008    
  -0.48           -2.6728e-008    2.6482e-008    
  -0.5            -4.3908e-008    4.3568e-008    
  -0.52           -7.2946e-008    7.279e-008     
  -0.54           -1.2288e-007    1.2298e-007    
  -0.56           -2.117e-007     2.1182e-007    
  -0.58           -3.7378e-007    3.7398e-007    
  -0.6            -6.7574e-007    6.7588e-007    
  -0.62           -1.2542e-006    1.256e-006     
  -0.64           -2.379e-006     2.3784e-006    
  -0.66           -4.5924e-006    4.5918e-006    
  -0.68           -8.915e-006     8.9144e-006    
  -0.7            -1.7314e-005    1.7344e-005    
  -0.72           -3.3266e-005    3.3282e-005    
  -0.74           -6.2904e-005    6.2916e-005    
  -0.76           -0.00011532     0.00011546     
  -0.78           -0.00020392     0.00020406     
  -0.8            -0.00034514     0.00034528     
  -0.82           -0.00055324     0.0005534      
  -0.84           -0.00084208     0.00084224     
  -0.86           -0.0012164      0.0012176      
  -0.88           -0.0016824      0.0016838      
  -0.9            -0.0022348      0.002236       
  -0.92           -0.002872       0.0028732      
  -0.94           -0.0035832      0.0035842      
  -0.96           -0.0043654      0.0043664      
  -0.98           -0.005205       0.005206       
  -1              -0.0061026      0.0061038      
END_DB

