! VERSION = 6.00
BEGIN_HEADER
 ICCAP_INPUTS
  vc         V  cathode GROUND SMU1 0.1 CON        0
  va         V  anode GROUND SMU2 0.1 LIN        1    0          -1         51   -0.02     
 ICCAP_OUTPUTS
  ia         I  anode GROUND SMU2 B
  ic         I  cathode GROUND SMU1 B
 ICCAP_VALUES
  DataOrigin "Measure"
  ___CONTEXT ""
  Date "Jan 13 Thu 13:33:47 2022"
  Version "WaferPro.2016.01"
  Bench "B1500_B2200"
  Temperature "27"
  Lot "M135205"
  Reticle "M135205"
  Wafer "01D2"
  Die "X-3-Y0"
  DieList "TargetDie"
  Block "WholeDie"
  Subsite "diod1-5V"
  Routine "DIODE_EXTR_Measure"
  MeasCond "Set1"
  Device "4"
  DeviceName "ndiode_Dn5_A32B32"
  DevTechno "DIO"
  DevPolarity "N"
  Setup "iv_fwd"
  Type "1"
  ___SPICE_INSTANCE ""
  A "3.2E-006"
  B "3.2E-006"
  ___TECHNO_INSTANCE ""
  ___CALIBRATION ""
END_HEADER

BEGIN_DB
 ICCAP_VAR vc         0              

 #va              ia              ic             
  0               -3e-013         -2.74e-012     
  -0.02           2.4e-013        1.96e-012      
  -0.04           3.4e-013        7.42e-012      
  -0.06           -2e-013         -1.702e-011    
  -0.08           1e-013          7.6e-012       
  -0.1            4e-014          -6.44e-012     
  -0.12           -3e-013         4.26e-012      
  -0.14           -2e-013         6.84e-012      
  -0.16           -4.4e-013       -3e-013        
  -0.18           -1.24e-012      1.106e-011     
  -0.2            -2.2e-012       -9.92e-012     
  -0.22           -3.28e-012      -1.14e-012     
  -0.24           -6.18e-012      1.45e-011      
  -0.26           -1.044e-011     -2.4e-012      
  -0.28           -1.73e-011      2.566e-011     
  -0.3            -2.968e-011     3.082e-011     
  -0.32           -4.95e-011      4.574e-011     
  -0.34           -8.188e-011     9.67e-011      
  -0.36           -1.3648e-010    1.2804e-010    
  -0.38           -2.2548e-010    2.2756e-010    
  -0.4            -3.7142e-010    3.7246e-010    
  -0.42           -6.126e-010     6.0988e-010    
  -0.44           -1.00944e-009   1.005e-009     
  -0.46           -1.6766e-009    1.6694e-009    
  -0.48           -2.8112e-009    2.7964e-009    
  -0.5            -4.7954e-009    4.7954e-009    
  -0.52           -8.3504e-009    8.3416e-009    
  -0.54           -1.4828e-008    1.4792e-008    
  -0.56           -2.711e-008     2.7046e-008    
  -0.58           -5.0924e-008    5.0722e-008    
  -0.6            -9.7802e-008    9.7242e-008    
  -0.62           -1.9276e-007    1.9148e-007    
  -0.64           -3.8582e-007    3.8492e-007    
  -0.66           -7.8144e-007    7.8084e-007    
  -0.68           -1.5874e-006    1.5884e-006    
  -0.7            -3.2236e-006    3.2254e-006    
  -0.72           -6.4632e-006    6.4632e-006    
  -0.74           -1.2732e-005    1.2742e-005    
  -0.76           -2.4262e-005    2.4274e-005    
  -0.78           -4.4412e-005    4.4428e-005    
  -0.8            -7.7788e-005    7.7806e-005    
  -0.82           -0.00012906     0.00012918     
  -0.84           -0.00020386     0.00020398     
  -0.86           -0.0003058      0.00030592     
  -0.88           -0.00043872     0.00043882     
  -0.9            -0.00060322     0.00060332     
  -0.92           -0.0008009      0.000801       
  -0.94           -0.00102968     0.0010298      
  -0.96           -0.0012896      0.001291       
  -0.98           -0.0015786      0.0015798      
  -1              -0.0018966      0.0018978      
END_DB

