! VERSION = 6.00
BEGIN_HEADER
 ICCAP_INPUTS
  vc         V  cathode GROUND SMU1 0.1 CON        0
  va         V  anode GROUND SMU2 0.1 LIN        1    15         0          151  -0.1      
 ICCAP_OUTPUTS
  ia         I  anode GROUND SMU2 B
  ic         I  cathode GROUND SMU1 B
 ICCAP_VALUES
  DataOrigin "Measure"
  ___CONTEXT ""
  Date "Jan 13 Thu 13:47:15 2022"
  Version "WaferPro.2016.01"
  Bench "B1500_B2200"
  Temperature "27"
  Lot "M135205"
  Reticle "M135205"
  Wafer "01D2"
  Die "X-3-Y0"
  DieList "TargetDie"
  Block "WholeDie"
  Subsite "diod1-5V"
  Routine "DIODE_EXTR_Measure"
  MeasCond "Set1"
  Device "9"
  DeviceName "ndiode_Dn5_A128B640"
  DevTechno "DIO"
  DevPolarity "N"
  Setup "iv_rev"
  Type "1"
  ___SPICE_INSTANCE ""
  A "1.28E-006"
  B "6.4E-005"
  ___TECHNO_INSTANCE ""
  ___CALIBRATION ""
END_HEADER

BEGIN_DB
 ICCAP_VAR vc         0              

 #va              ia              ic             
  15              0.012626        -0.01264       
  14.9            0.011946        -0.01195       
  14.8            0.01126         -0.011262      
  14.7            0.010578        -0.010574      
  14.6            0.0098874       -0.0098942     
  14.5            0.009199        -0.0092022     
  14.4            0.0085068       -0.008509      
  14.3            0.0078154       -0.007815      
  14.2            0.0071148       -0.0071158     
  14.1            0.0064134       -0.006412      
  14              0.0057018       -0.0057012     
  13.9            0.004984        -0.0049832     
  13.8            0.004269        -0.0042678     
  13.7            0.0035448       -0.0035432     
  13.6            0.0028232       -0.0028208     
  13.5            0.0020894       -0.002087      
  13.4            0.0013432       -0.0013414     
  13.3            0.00047078      -0.0004716     
  13.2            1.1088e-007     -1.2566e-007   
  13.1            1.1448e-008     -1.1802e-008   
  13              6.248e-009      -6.4292e-009   
  12.9            4.4252e-009     -4.4416e-009   
  12.8            3.3906e-009     -3.402e-009    
  12.7            2.746e-009      -2.8012e-009   
  12.6            2.2924e-009     -2.3014e-009   
  12.5            1.9418e-009     -1.9338e-009   
  12.4            1.6764e-009     -1.6796e-009   
  12.3            1.4704e-009     -1.4662e-009   
  12.2            1.2944e-009     -1.3024e-009   
  12.1            1.152e-009      -1.1636e-009   
  12              1.0316e-009     -1.0126e-009   
  11.9            9.2312e-010     -9.238e-010    
  11.8            8.3758e-010     -8.328e-010    
  11.7            7.6212e-010     -7.584e-010    
  11.6            6.9772e-010     -7.07e-010     
  11.5            6.3784e-010     -6.376e-010    
  11.4            5.867e-010      -5.722e-010    
  11.3            5.406e-010      -5.314e-010    
  11.2            4.9954e-010     -5.0938e-010   
  11.1            4.6468e-010     -4.6206e-010   
  11              4.3192e-010     -4.3766e-010   
  10.9            4.0236e-010     -4.0106e-010   
  10.8            3.7588e-010     -3.7844e-010   
  10.7            3.5184e-010     -3.5508e-010   
  10.6            3.299e-010      -3.2372e-010   
  10.5            3.0992e-010     -3.0214e-010   
  10.4            2.9042e-010     -2.9174e-010   
  10.3            2.7396e-010     -2.707e-010    
  10.2            2.587e-010      -2.6676e-010   
  10.1            2.4362e-010     -2.3314e-010   
  10              2.2952e-010     -2.2174e-010   
  9.9             2.1598e-010     -2.2804e-010   
  9.8             2.0434e-010     -2.1066e-010   
  9.7             1.9346e-010     -1.7888e-010   
  9.6             1.826e-010      -1.719e-010    
  9.5             1.7364e-010     -1.6838e-010   
  9.4             1.6492e-010     -1.7374e-010   
  9.3             1.564e-010      -1.6006e-010   
  9.2             1.488e-010      -1.3478e-010   
  9.1             1.4154e-010     -1.4122e-010   
  9               1.3454e-010     -1.3388e-010   
  8.9             1.281e-010      -1.2718e-010   
  8.8             1.2188e-010     -1.2164e-010   
  8.7             1.1636e-010     -1.099e-010    
  8.6             1.1064e-010     -1.0786e-010   
  8.5             1.0548e-010     -1.1876e-010   
  8.4             9.98e-011       -9.724e-011    
  8.3             9.512e-011      -7.696e-011    
  8.2             9.11e-011       -8.78e-011     
  8.1             8.648e-011      -9.514e-011    
  8               8.248e-011      -5.158e-011    
  7.9             7.892e-011      -6.128e-011    
  7.8             7.524e-011      -6.9e-011      
  7.7             7.188e-011      -7.574e-011    
  7.6             6.872e-011      -7.396e-011    
  7.5             6.546e-011      -5.726e-011    
  7.4             6.234e-011      -5.016e-011    
  7.3             5.978e-011      -5.064e-011    
  7.2             5.712e-011      -5.872e-011    
  7.1             5.46e-011       -5.438e-011    
  7               5.212e-011      -4.156e-011    
  6.9             4.982e-011      -4.288e-011    
  6.8             4.76e-011       -5.498e-011    
  6.7             4.542e-011      -4.826e-011    
  6.6             4.338e-011      -3.858e-011    
  6.5             4.14e-011       -2.8e-011      
  6.4             3.964e-011      -3.184e-011    
  6.3             3.774e-011      -4.74e-011     
  6.2             3.608e-011      -2.998e-011    
  6.1             3.438e-011      -1.972e-011    
  6               3.292e-011      -2.418e-011    
  5.9             3.13e-011       -3.464e-011    
  5.8             2.98e-011       -2.928e-011    
  5.7             2.86e-011       -5.24e-012     
  5.6             2.734e-011      -1.032e-011    
  5.5             2.63e-011       -1.554e-011    
  5.4             2.486e-011      -3.04e-011     
  5.3             2.392e-011      -4.576e-011    
  5.2             2.26e-011       -1.83e-011     
  5.1             2.17e-011       -1.35e-011     
  5               2.058e-011      -1.69e-011     
  4.9             1.972e-011      -1.392e-011    
  4.8             1.886e-011      3.08e-012      
  4.7             1.826e-011      -6.8e-013      
  4.6             1.724e-011      1.36e-012      
  4.5             1.644e-011      -1.198e-011    
  4.4             1.576e-011      -4.74e-012     
  4.3             1.506e-011      -1.1e-012      
  4.2             1.442e-011      1.406e-011     
  4.1             1.35e-011       -1.492e-011    
  4               1.316e-011      1.6e-012       
  3.9             1.244e-011      1.552e-011     
  3.8             1.2e-011        1.518e-011     
  3.7             1.122e-011      4.76e-012      
  3.6             1.088e-011      3.5e-012       
  3.5             1.048e-011      5.58e-012      
  3.4             1e-011          1.748e-011     
  3.3             9.4e-012        1.69e-011      
  3.2             9.04e-012       -4.84e-012     
  3.1             8.78e-012       1.206e-011     
  3               8.38e-012       2.128e-011     
  2.9             8.02e-012       2.678e-011     
  2.8             7.4e-012        1.576e-011     
  2.7             7.36e-012       6.84e-012      
  2.6             6.86e-012       1.71e-011      
  2.5             6.6e-012        2.744e-011     
  2.4             6.1e-012        2.558e-011     
  2.3             6.24e-012       2.184e-011     
  2.2             5.8e-012        1.898e-011     
  2.1             5.52e-012       3.104e-011     
  2               5.1e-012        3.292e-011     
  1.9             4.92e-012       2.682e-011     
  1.8             4.82e-012       6.38e-012      
  1.7             4.16e-012       2.966e-011     
  1.6             3.86e-012       2.928e-011     
  1.5             3.7e-012        2.992e-011     
  1.4             4e-012          2.666e-011     
  1.3             3.48e-012       2.292e-011     
  1.2             3.34e-012       3.648e-011     
  1.1             2.78e-012       3.67e-011      
  1               3.1e-012        3.91e-011      
  0.9             2.7e-012        2.502e-011     
  0.8             2.32e-012       2.726e-011     
  0.7             1.92e-012       4.42e-011      
  0.6             2.14e-012       4.676e-011     
  0.5             1.96e-012       2.79e-011      
  0.4             1.4e-012        3.226e-011     
  0.3             1.48e-012       5.822e-011     
  0.2             1.1e-012        4.124e-011     
  0.1             1.04e-012       3.394e-011     
  0               -4e-013         3.712e-011     
END_DB

