! VERSION = 6.00
BEGIN_HEADER
 ICCAP_INPUTS
  vc         V  cathode GROUND SMU1 0.1 CON        0
  va         V  anode GROUND SMU2 0.1 LIN        1    0          -1         51   -0.02     
 ICCAP_OUTPUTS
  ia         I  anode GROUND SMU2 B
  ic         I  cathode GROUND SMU1 B
 ICCAP_VALUES
  DataOrigin "Measure"
  ___CONTEXT ""
  Date "Jan 13 Thu 13:49:46 2022"
  Version "WaferPro.2016.01"
  Bench "B1500_B2200"
  Temperature "27"
  Lot "M135205"
  Reticle "M135205"
  Wafer "01D2"
  Die "X-3-Y0"
  DieList "TargetDie"
  Block "WholeDie"
  Subsite "diod1-5V"
  Routine "DIODE_EXTR_Measure"
  MeasCond "Set1"
  Device "10"
  DeviceName "ndiode_Dn5_A32B640"
  DevTechno "DIO"
  DevPolarity "N"
  Setup "iv_fwd"
  Type "1"
  ___SPICE_INSTANCE ""
  A "3.2E-006"
  B "6.4E-005"
  ___TECHNO_INSTANCE ""
  ___CALIBRATION ""
END_HEADER

BEGIN_DB
 ICCAP_VAR vc         0              

 #va              ia              ic             
  0               3.4e-013        -3.28e-012     
  -0.02           -1e-013         1.16e-011      
  -0.04           -6.4e-013       -1.716e-011    
  -0.06           -7.6e-013       7.58e-012      
  -0.08           -9.4e-013       8.88e-012      
  -0.1            -3.8e-013       -6.74e-012     
  -0.12           -1.84e-012      5.88e-012      
  -0.14           -2.84e-012      -6.74e-012     
  -0.16           -5.76e-012      -7.62e-012     
  -0.18           -1.062e-011     -6.36e-012     
  -0.2            -1.818e-011     1.794e-011     
  -0.22           -3.064e-011     3.082e-011     
  -0.24           -5.062e-011     4.754e-011     
  -0.26           -8.468e-011     8.112e-011     
  -0.28           -1.4158e-010    1.3926e-010    
  -0.3            -2.3942e-010    2.3616e-010    
  -0.32           -4.0312e-010    4.1458e-010    
  -0.34           -6.8026e-010    6.7062e-010    
  -0.36           -1.1426e-009    1.1376e-009    
  -0.38           -1.9164e-009    1.9036e-009    
  -0.4            -3.214e-009     3.1828e-009    
  -0.42           -5.3938e-009    5.31e-009      
  -0.44           -9.0608e-009    8.8794e-009    
  -0.46           -1.5334e-008    1.5166e-008    
  -0.48           -2.62e-008      2.596e-008     
  -0.5            -4.5512e-008    4.5224e-008    
  -0.52           -8.0574e-008    8.0156e-008    
  -0.54           -1.4536e-007    1.4468e-007    
  -0.56           -2.692e-007     2.6708e-007    
  -0.58           -5.0944e-007    5.0934e-007    
  -0.6            -9.7924e-007    9.7922e-007    
  -0.62           -1.91e-006      1.9116e-006    
  -0.64           -3.7378e-006    3.737e-006     
  -0.66           -7.3e-006       7.2998e-006    
  -0.68           -1.4078e-005    1.41e-005      
  -0.7            -2.6838e-005    2.6854e-005    
  -0.72           -5.0114e-005    5.0138e-005    
  -0.74           -9.1532e-005    9.1554e-005    
  -0.76           -0.00016132     0.00016146     
  -0.78           -0.00027272     0.00027284     
  -0.8            -0.00043942     0.00043958     
  -0.82           -0.00066924     0.0006694      
  -0.84           -0.0009677      0.0009678      
  -0.86           -0.0013308      0.0013322      
  -0.88           -0.001758       0.0017592      
  -0.9            -0.0022392      0.0022404      
  -0.92           -0.002771       0.0027724      
  -0.94           -0.0033436      0.0033448      
  -0.96           -0.0039554      0.0039564      
  -0.98           -0.0045966      0.004597       
  -1              -0.0052676      0.0052688      
END_DB

