! VERSION = 6.00
BEGIN_HEADER
 ICCAP_INPUTS
  vc         V  cathode GROUND SMU1 0.1 CON        0
  va         V  anode GROUND SMU2 0.1 LIN        1    0          -1         51   -0.02     
 ICCAP_OUTPUTS
  ia         I  anode GROUND SMU2 B
  ic         I  cathode GROUND SMU1 B
 ICCAP_VALUES
  DataOrigin "Measure"
  ___CONTEXT ""
  Date "Jan 13 Thu 13:52:24 2022"
  Version "WaferPro.2016.01"
  Bench "B1500_B2200"
  Temperature "27"
  Lot "M135205"
  Reticle "M135205"
  Wafer "01D2"
  Die "X-3-Y0"
  DieList "TargetDie"
  Block "WholeDie"
  Subsite "diod1-5V"
  Routine "DIODE_EXTR_Measure"
  MeasCond "Set1"
  Device "11"
  DeviceName "ndiode_Dn5_A320B640"
  DevTechno "DIO"
  DevPolarity "N"
  Setup "iv_fwd"
  Type "1"
  ___SPICE_INSTANCE ""
  A "3.2E-005"
  B "6.4E-005"
  ___TECHNO_INSTANCE ""
  ___CALIBRATION ""
END_HEADER

BEGIN_DB
 ICCAP_VAR vc         0              

 #va              ia              ic             
  0               -5.2e-013       -1.46e-012     
  -0.02           -7e-013         2.04e-012      
  -0.04           -5.8e-013       -8e-014        
  -0.06           -7.8e-013       4.06e-012      
  -0.08           -4.2e-013       -7.58e-012     
  -0.1            -1.4e-013       8.34e-012      
  -0.12           -1.52e-012      -8.8e-013      
  -0.14           -3.02e-012      -7.8e-013      
  -0.16           -5.68e-012      5.9e-012       
  -0.18           -1.032e-011     8.32e-012      
  -0.2            -1.684e-011     1.17e-011      
  -0.22           -2.716e-011     2.752e-011     
  -0.24           -4.716e-011     5.64e-011      
  -0.26           -7.972e-011     6.356e-011     
  -0.28           -1.3606e-010    1.3916e-010    
  -0.3            -2.3354e-010    2.4142e-010    
  -0.32           -4.0124e-010    3.9052e-010    
  -0.34           -6.9208e-010    7.0194e-010    
  -0.36           -1.1978e-009    1.1982e-009    
  -0.38           -2.08e-009      2.0772e-009    
  -0.4            -3.6426e-009    3.639e-009     
  -0.42           -6.4282e-009    6.4404e-009    
  -0.44           -1.1426e-008    1.1426e-008    
  -0.46           -2.0614e-008    2.0606e-008    
  -0.48           -3.7578e-008    3.7522e-008    
  -0.5            -6.973e-008     6.9596e-008    
  -0.52           -1.3144e-007    1.3118e-007    
  -0.54           -2.5106e-007    2.5046e-007    
  -0.56           -4.8786e-007    4.8714e-007    
  -0.58           -9.5918e-007    9.5854e-007    
  -0.6            -1.8942e-006    1.8956e-006    
  -0.62           -3.7536e-006    3.7526e-006    
  -0.64           -7.382e-006     7.3818e-006    
  -0.66           -1.439e-005     1.4414e-005    
  -0.68           -2.7636e-005    2.7648e-005    
  -0.7            -5.2286e-005    5.2302e-005    
  -0.72           -9.6442e-005    9.645e-005     
  -0.74           -0.0001722      0.00017234     
  -0.76           -0.00029294     0.00029306     
  -0.78           -0.00046996     0.00047008     
  -0.8            -0.00071012     0.00071018     
  -0.82           -0.00100994     0.00101004     
  -0.84           -0.0013656      0.001367       
  -0.86           -0.001769       0.0017702      
  -0.88           -0.0022156      0.0022168      
  -0.9            -0.0026964      0.0026978      
  -0.92           -0.0032106      0.0032118      
  -0.94           -0.0037492      0.0037504      
  -0.96           -0.0043128      0.0043146      
  -0.98           -0.0048956      0.0048964      
  -1              -0.0054982      0.0054998      
END_DB

