! VERSION = 6.00
BEGIN_HEADER
 ICCAP_INPUTS
  vc         V  cathode GROUND SMU1 0.1 CON        0
  va         V  anode GROUND SMU2 0.1 LIN        1    15         0          151  -0.1      
 ICCAP_OUTPUTS
  ia         I  anode GROUND SMU2 B
  ic         I  cathode GROUND SMU1 B
 ICCAP_VALUES
  DataOrigin "Measure"
  ___CONTEXT ""
  Date "Jan 13 Thu 13:39:20 2022"
  Version "WaferPro.2016.01"
  Bench "B1500_B2200"
  Temperature "27"
  Lot "M135205"
  Reticle "M135205"
  Wafer "01D2"
  Die "X-3-Y0"
  DieList "TargetDie"
  Block "WholeDie"
  Subsite "diod1-5V"
  Routine "DIODE_EXTR_Measure"
  MeasCond "Set1"
  Device "6"
  DeviceName "ndiode_Dn5_A320B320"
  DevTechno "DIO"
  DevPolarity "N"
  Setup "iv_rev"
  Type "1"
  ___SPICE_INSTANCE ""
  A "3.2E-005"
  B "3.2E-005"
  ___TECHNO_INSTANCE ""
  ___CALIBRATION ""
END_HEADER

BEGIN_DB
 ICCAP_VAR vc         0              

 #va              ia              ic             
  15              0.02421         -0.024278      
  14.9            0.023124        -0.023126      
  14.8            0.022046        -0.022038      
  14.7            0.020964        -0.020952      
  14.6            0.019882        -0.019868      
  14.5            0.01878         -0.018766      
  14.4            0.017666        -0.017652      
  14.3            0.01655         -0.016534      
  14.2            0.015412        -0.015396      
  14.1            0.014266        -0.014248      
  14              0.013096        -0.01308       
  13.9            0.01191         -0.011894      
  13.8            0.01072         -0.010702      
  13.7            0.0094952       -0.0094896     
  13.6            0.0082712       -0.0082652     
  13.5            0.0070218       -0.007016      
  13.4            0.0057578       -0.005752      
  13.3            0.0044886       -0.004483      
  13.2            0.0031936       -0.0031882     
  13.1            0.0018838       -0.0018782     
  13              0.00050734      -0.00050324    
  12.9            2.8994e-009     -2.9806e-009   
  12.8            2.0246e-009     -2.0488e-009   
  12.7            1.5556e-009     -1.5658e-009   
  12.6            1.2568e-009     -1.249e-009    
  12.5            1.038e-009      -1.0408e-009   
  12.4            8.7338e-010     -8.664e-010    
  12.3            7.4874e-010     -7.578e-010    
  12.2            6.4846e-010     -6.43e-010     
  12.1            5.6674e-010     -5.8258e-010   
  12              5.0088e-010     -5.1414e-010   
  11.9            4.4522e-010     -4.4352e-010   
  11.8            3.9794e-010     -3.9738e-010   
  11.7            3.5826e-010     -3.6234e-010   
  11.6            3.2388e-010     -3.2416e-010   
  11.5            2.9374e-010     -2.8816e-010   
  11.4            2.6756e-010     -2.5884e-010   
  11.3            2.4332e-010     -2.571e-010    
  11.2            2.2354e-010     -2.3332e-010   
  11.1            2.0494e-010     -2.1212e-010   
  11              1.8876e-010     -1.7844e-010   
  10.9            1.742e-010      -1.7036e-010   
  10.8            1.609e-010      -1.638e-010    
  10.7            1.4938e-010     -1.19e-010     
  10.6            1.384e-010      -1.4348e-010   
  10.5            1.289e-010      -1.2428e-010   
  10.4            1.1976e-010     -1.2734e-010   
  10.3            1.122e-010      -1.2412e-010   
  10.2            1.0438e-010     -1.124e-010    
  10.1            9.776e-011      -9.784e-011    
  10              9.142e-011      -7.858e-011    
  9.9             8.586e-011      -9.308e-011    
  9.8             8.104e-011      -9.036e-011    
  9.7             7.566e-011      -7.246e-011    
  9.6             7.08e-011       -6.866e-011    
  9.5             6.664e-011      -7.338e-011    
  9.4             6.318e-011      -7.56e-011     
  9.3             5.94e-011       -6.424e-011    
  9.2             5.626e-011      -4.974e-011    
  9.1             5.298e-011      -5.046e-011    
  9               5.076e-011      -5.894e-011    
  8.9             4.742e-011      -5.7e-011      
  8.8             4.462e-011      -4.646e-011    
  8.7             4.22e-011       -3.804e-011    
  8.6             4.012e-011      -3.514e-011    
  8.5             3.806e-011      -5.242e-011    
  8.4             3.584e-011      -3.854e-011    
  8.3             3.416e-011      -2.414e-011    
  8.2             3.284e-011      -2.952e-011    
  8.1             3.144e-011      -2.114e-011    
  8               2.91e-011       -3.672e-011    
  7.9             2.794e-011      -3.834e-011    
  7.8             2.642e-011      -2.478e-011    
  7.7             2.542e-011      -2.524e-011    
  7.6             2.374e-011      -3.394e-011    
  7.5             2.254e-011      -2.774e-011    
  7.4             2.176e-011      -1.948e-011    
  7.3             2.08e-011       -4.4e-012      
  7.2             1.986e-011      2.086e-011     
  7.1             1.832e-011      -3.882e-011    
  7               1.776e-011      -1.666e-011    
  6.9             1.696e-011      -1.266e-011    
  6.8             1.618e-011      -2.514e-011    
  6.7             1.53e-011       -2.168e-011    
  6.6             1.464e-011      -1.3e-011      
  6.5             1.434e-011      -1.44e-011     
  6.4             1.358e-011      -9.84e-012     
  6.3             1.26e-011       -1.776e-011    
  6.2             1.172e-011      -1.576e-011    
  6.1             1.15e-011       -1.204e-011    
  6               1.104e-011      -1.234e-011    
  5.9             1.046e-011      -5.8e-013      
  5.8             9.72e-012       -2.24e-011     
  5.7             9.66e-012       -1.438e-011    
  5.6             9.42e-012       1.94e-012      
  5.5             8.8e-012        1.2e-013       
  5.4             8.06e-012       -2.002e-011    
  5.3             7.5e-012        -5.88e-012     
  5.2             7.62e-012       -9.4e-013      
  5.1             7.14e-012       -5.94e-012     
  5               6.92e-012       4.28e-012      
  4.9             6.74e-012       -8.64e-012     
  4.8             6.7e-012        -7.6e-012      
  4.7             6.04e-012       -4.28e-012     
  4.6             5.72e-012       8.18e-012      
  4.5             5.02e-012       -6.46e-012     
  4.4             5.14e-012       -1.758e-011    
  4.3             4.7e-012        -9.6e-012      
  4.2             4.36e-012       1.722e-011     
  4.1             4.48e-012       -3.32e-012     
  4               4.56e-012       -1.384e-011    
  3.9             4.76e-012       3.14e-012      
  3.8             3.48e-012       -3.4e-013      
  3.7             3.64e-012       5.64e-012      
  3.6             3.12e-012       -7.02e-012     
  3.5             3.82e-012       -8.72e-012     
  3.4             3.1e-012        1.28e-012      
  3.3             2.88e-012       1.572e-011     
  3.2             3e-012          8.24e-012      
  3.1             3.32e-012       1.132e-011     
  3               3.18e-012       -3.38e-012     
  2.9             2.32e-012       9.04e-012      
  2.8             2.6e-012        1.37e-011      
  2.7             1.84e-012       -4.5e-012      
  2.6             2.64e-012       1.38e-012      
  2.5             1.6e-012        8.26e-012      
  2.4             2.26e-012       1.752e-011     
  2.3             2.02e-012       1.742e-011     
  2.2             2.56e-012       1.016e-011     
  2.1             1.26e-012       -4.96e-012     
  2               1.52e-012       2.298e-011     
  1.9             1.4e-012        2.036e-011     
  1.8             1.62e-012       7.02e-012      
  1.7             1.34e-012       2.82e-012      
  1.6             1.12e-012       1.928e-011     
  1.5             1.66e-012       2.938e-011     
  1.4             1.6e-012        9.98e-012      
  1.3             1.8e-012        6.26e-012      
  1.2             1e-013          4.36e-012      
  1.1             1.26e-012       2.27e-011      
  1               5.6e-013        1.296e-011     
  0.9             1.4e-012        2.942e-011     
  0.8             5e-013          1.294e-011     
  0.7             1.06e-012       2.142e-011     
  0.6             8.4e-013        3.704e-011     
  0.5             1e-012          2.412e-011     
  0.4             2.6e-013        1.628e-011     
  0.3             -1.8e-013       2.412e-011     
  0.2             7.4e-013        2.836e-011     
  0.1             -8e-014         3.12e-011      
  0               4e-013          3.324e-011     
END_DB

