! VERSION = 6.00
BEGIN_HEADER
 ICCAP_INPUTS
  vc         V  cathode GROUND SMU1 0.1 CON        0
  va         V  anode GROUND SMU2 0.1 LIN        1    15         0          151  -0.1      
 ICCAP_OUTPUTS
  ia         I  anode GROUND SMU2 B
  ic         I  cathode GROUND SMU1 B
 ICCAP_VALUES
  DataOrigin "Measure"
  ___CONTEXT ""
  Date "Jan 13 Thu 13:52:24 2022"
  Version "WaferPro.2016.01"
  Bench "B1500_B2200"
  Temperature "27"
  Lot "M135205"
  Reticle "M135205"
  Wafer "01D2"
  Die "X-3-Y0"
  DieList "TargetDie"
  Block "WholeDie"
  Subsite "diod1-5V"
  Routine "DIODE_EXTR_Measure"
  MeasCond "Set1"
  Device "11"
  DeviceName "ndiode_Dn5_A320B640"
  DevTechno "DIO"
  DevPolarity "N"
  Setup "iv_rev"
  Type "1"
  ___SPICE_INSTANCE ""
  A "3.2E-005"
  B "6.4E-005"
  ___TECHNO_INSTANCE ""
  ___CALIBRATION ""
END_HEADER

BEGIN_DB
 ICCAP_VAR vc         0              

 #va              ia              ic             
  15              0.030832        -0.030918      
  14.9            0.029402        -0.029406      
  14.8            0.027982        -0.027978      
  14.7            0.02656         -0.026548      
  14.6            0.02514         -0.025124      
  14.5            0.0237          -0.023682      
  14.4            0.022248        -0.02223       
  14.3            0.020796        -0.020778      
  14.2            0.019324        -0.019306      
  14.1            0.017844        -0.017824      
  14              0.01634         -0.016322      
  13.9            0.014824        -0.014804      
  13.8            0.013304        -0.013284      
  13.7            0.011758        -0.011738      
  13.6            0.010212        -0.010192      
  13.5            0.0086336       -0.0086268     
  13.4            0.0070484       -0.0070406     
  13.3            0.0054626       -0.0054544     
  13.2            0.0038466       -0.0038388     
  13.1            0.002218        -0.0022104     
  13              0.00051614      -0.00051038    
  12.9            6.003e-009      -6.1866e-009   
  12.8            3.7168e-009     -3.7592e-009   
  12.7            2.6908e-009     -2.7132e-009   
  12.6            2.0842e-009     -2.0916e-009   
  12.5            1.6814e-009     -1.6946e-009   
  12.4            1.3936e-009     -1.3994e-009   
  12.3            1.1726e-009     -1.1658e-009   
  12.2            1.0054e-009     -1.0186e-009   
  12.1            8.666e-010      -8.748e-010    
  12              7.5902e-010     -7.6e-010      
  11.9            6.6868e-010     -6.76e-010     
  11.8            5.9268e-010     -6.118e-010    
  11.7            5.3018e-010     -5.018e-010    
  11.6            4.741e-010      -4.9546e-010   
  11.5            4.283e-010      -4.3994e-010   
  11.4            3.877e-010      -3.8496e-010   
  11.3            3.5148e-010     -3.6196e-010   
  11.2            3.2064e-010     -3.4232e-010   
  11.1            2.935e-010      -3.0682e-010   
  11              2.6974e-010     -2.7256e-010   
  10.9            2.461e-010      -2.469e-010    
  10.8            2.2714e-010     -2.3652e-010   
  10.7            2.0964e-010     -2.2842e-010   
  10.6            1.9498e-010     -2.1196e-010   
  10.5            1.8014e-010     -1.7946e-010   
  10.4            1.6728e-010     -1.5586e-010   
  10.3            1.5492e-010     -1.8422e-010   
  10.2            1.4462e-010     -1.5484e-010   
  10.1            1.3558e-010     -1.3988e-010   
  10              1.2564e-010     -1.3042e-010   
  9.9             1.1746e-010     -1.2404e-010   
  9.8             1.0958e-010     -1.1776e-010   
  9.7             1.0368e-010     -1.1372e-010   
  9.6             9.686e-011      -9.298e-011    
  9.5             9.104e-011      -1.0228e-010   
  9.4             8.472e-011      -1.0596e-010   
  9.3             8.068e-011      -8.706e-011    
  9.2             7.612e-011      -7.33e-011     
  9.1             7.174e-011      -7.528e-011    
  9               6.688e-011      -8.894e-011    
  8.9             6.328e-011      -7.428e-011    
  8.8             6.086e-011      -7.168e-011    
  8.7             5.754e-011      -6.062e-011    
  8.6             5.416e-011      -6.372e-011    
  8.5             5.004e-011      -6.196e-011    
  8.4             4.838e-011      -7.028e-011    
  8.3             4.602e-011      -4.922e-011    
  8.2             4.396e-011      -4.416e-011    
  8.1             4.048e-011      -5.548e-011    
  8               3.866e-011      -5.862e-011    
  7.9             3.736e-011      -3.938e-011    
  7.8             3.626e-011      -3.25e-011     
  7.7             3.318e-011      -4.05e-011     
  7.6             3.096e-011      -4.482e-011    
  7.5             2.95e-011       -3.72e-011     
  7.4             2.886e-011      -3.092e-011    
  7.3             2.794e-011      -3.124e-011    
  7.2             2.536e-011      -3.514e-011    
  7.1             2.438e-011      -4.192e-011    
  7               2.332e-011      -3.512e-011    
  6.9             2.342e-011      -2.562e-011    
  6.8             2.126e-011      -1.922e-011    
  6.7             1.986e-011      -3.53e-011     
  6.6             1.85e-011       -2.108e-011    
  6.5             1.872e-011      -2.66e-011     
  6.4             1.786e-011      -1.026e-011    
  6.3             1.672e-011      -2.914e-011    
  6.2             1.528e-011      -2.862e-011    
  6.1             1.51e-011       -1.782e-011    
  6               1.518e-011      1.54e-012      
  5.9             1.358e-011      -1.656e-011    
  5.8             1.262e-011      -1.912e-011    
  5.7             1.18e-011       2.088e-011     
  5.6             1.226e-011      -2.4e-011      
  5.5             1.164e-011      -4.68e-012     
  5.4             1.096e-011      -1.792e-011    
  5.3             9.42e-012       -2.078e-011    
  5.2             9.8e-012        -2.092e-011    
  5.1             9.7e-012        3.48e-012      
  5               9.16e-012       -9.08e-012     
  4.9             7.82e-012       -1.778e-011    
  4.8             7.46e-012       -2.44e-011     
  4.7             7.86e-012       2e-013         
  4.6             7.96e-012       2.28e-012      
  4.5             7.2e-012        -1.762e-011    
  4.4             5.9e-012        -4.42e-012     
  4.3             6.3e-012        -7.38e-012     
  4.2             6.22e-012       2.64e-012      
  4.1             6.1e-012        6.2e-013       
  4               5.04e-012       -1.038e-011    
  3.9             4.86e-012       -1.244e-011    
  3.8             5.18e-012       -6.28e-012     
  3.7             5.7e-012        7.74e-012      
  3.6             4.38e-012       -3.52e-012     
  3.5             3.68e-012       -5.54e-012     
  3.4             3.74e-012       -5.24e-012     
  3.3             4.02e-012       1.132e-011     
  3.2             4.12e-012       3.78e-012      
  3.1             3.1e-012        -1.36e-011     
  3               3.22e-012       -2.9e-012      
  2.9             3.36e-012       1.026e-011     
  2.8             3.82e-012       1.39e-011      
  2.7             3.06e-012       -5.58e-012     
  2.6             2.24e-012       3.74e-012      
  2.5             2.36e-012       1.976e-011     
  2.4             2.88e-012       5.84e-012      
  2.3             2.68e-012       3.9e-012       
  2.2             1.78e-012       1.004e-011     
  2.1             1.66e-012       6.64e-012      
  2               2.42e-012       9.22e-012      
  1.9             2.78e-012       1.242e-011     
  1.8             1.8e-012        1.1e-011       
  1.7             1.22e-012       -3.38e-012     
  1.6             1.24e-012       1.89e-011      
  1.5             2.02e-012       1.692e-011     
  1.4             2e-012          7.42e-012      
  1.3             1.12e-012       -4.6e-013      
  1.2             8.4e-013        1.906e-011     
  1.1             1.32e-012       2.098e-011     
  1               1.86e-012       2.306e-011     
  0.9             9.8e-013        7.8e-012       
  0.8             4.4e-013        1.018e-011     
  0.7             4e-013          2.046e-011     
  0.6             1.26e-012       2.086e-011     
  0.5             1.3e-012        7.38e-012      
  0.4             6.8e-013        9.04e-012      
  0.3             -1e-013         1.702e-011     
  0.2             5.6e-013        2.382e-011     
  0.1             8.6e-013        2.718e-011     
  0               -1e-013         9.36e-012      
END_DB

