! VERSION = 6.00
BEGIN_HEADER
 ICCAP_INPUTS
  vc         V  cathode GROUND SMU1 0.1 CON        0
  va         V  anode GROUND SMU2 0.1 LIN        1    0          -1         51   -0.02     
 ICCAP_OUTPUTS
  ia         I  anode GROUND SMU2 B
  ic         I  cathode GROUND SMU1 B
 ICCAP_VALUES
  DataOrigin "Measure"
  ___CONTEXT ""
  Date "Jan 13 Thu 13:39:20 2022"
  Version "WaferPro.2016.01"
  Bench "B1500_B2200"
  Temperature "27"
  Lot "M135205"
  Reticle "M135205"
  Wafer "01D2"
  Die "X-3-Y0"
  DieList "TargetDie"
  Block "WholeDie"
  Subsite "diod1-5V"
  Routine "DIODE_EXTR_Measure"
  MeasCond "Set1"
  Device "6"
  DeviceName "ndiode_Dn5_A320B320"
  DevTechno "DIO"
  DevPolarity "N"
  Setup "iv_fwd"
  Type "1"
  ___SPICE_INSTANCE ""
  A "3.2E-005"
  B "3.2E-005"
  ___TECHNO_INSTANCE ""
  ___CALIBRATION ""
END_HEADER

BEGIN_DB
 ICCAP_VAR vc         0              

 #va              ia              ic             
  0               1e-013          -1.018e-011    
  -0.02           4.6e-013        -4.84e-012     
  -0.04           -4.6e-013       2e-013         
  -0.06           4e-014          -9.02e-012     
  -0.08           -2e-014         2.78e-012      
  -0.1            -6e-013         -1.74e-012     
  -0.12           -1.28e-012      -7.86e-012     
  -0.14           -2.04e-012      9.74e-012      
  -0.16           -4.04e-012      -8.16e-012     
  -0.18           -6.74e-012      -5.66e-012     
  -0.2            -1.08e-011      1.458e-011     
  -0.22           -1.814e-011     1.012e-011     
  -0.24           -3.068e-011     2.674e-011     
  -0.26           -5.136e-011     3.702e-011     
  -0.28           -8.808e-011     9.454e-011     
  -0.3            -1.5096e-010    1.5192e-010    
  -0.32           -2.6002e-010    2.5442e-010    
  -0.34           -4.4886e-010    4.5858e-010    
  -0.36           -7.7892e-010    7.735e-010     
  -0.38           -1.3518e-009    1.3414e-009    
  -0.4            -2.3688e-009    2.362e-009     
  -0.42           -4.1794e-009    4.18e-009      
  -0.44           -7.4194e-009    7.4152e-009    
  -0.46           -1.3336e-008    1.3324e-008    
  -0.48           -2.427e-008     2.4252e-008    
  -0.5            -4.5028e-008    4.4964e-008    
  -0.52           -8.4962e-008    8.478e-008     
  -0.54           -1.6248e-007    1.622e-007     
  -0.56           -3.1664e-007    3.1608e-007    
  -0.58           -6.2448e-007    6.241e-007     
  -0.6            -1.2358e-006    1.2372e-006    
  -0.62           -2.4562e-006    2.455e-006     
  -0.64           -4.8366e-006    4.8344e-006    
  -0.66           -9.4296e-006    9.4256e-006    
  -0.68           -1.8074e-005    1.8096e-005    
  -0.7            -3.4222e-005    3.4234e-005    
  -0.72           -6.3556e-005    6.3568e-005    
  -0.74           -0.00011556     0.00011566     
  -0.76           -0.00020326     0.00020338     
  -0.78           -0.00034202     0.00034212     
  -0.8            -0.00054708     0.00054716     
  -0.82           -0.00082494     0.00082504     
  -0.84           -0.001179       0.0011804      
  -0.86           -0.001605       0.0016064      
  -0.88           -0.0021014      0.0021026      
  -0.9            -0.0026588      0.00266        
  -0.92           -0.0032764      0.0032776      
  -0.94           -0.0039442      0.0039454      
  -0.96           -0.0046624      0.0046634      
  -0.98           -0.0054208      0.005422       
  -1              -0.0062204      0.0062218      
END_DB

