! VERSION = 6.00
BEGIN_HEADER
 ICCAP_INPUTS
  vc         V  cathode GROUND SMU1 0.1 CON        0
  va         V  anode GROUND SMU2 0.1 LIN        1    15         0          151  -0.1      
 ICCAP_OUTPUTS
  ia         I  anode GROUND SMU2 B
  ic         I  cathode GROUND SMU1 B
 ICCAP_VALUES
  DataOrigin "Measure"
  ___CONTEXT ""
  Date "Jan 13 Thu 13:42:02 2022"
  Version "WaferPro.2016.01"
  Bench "B1500_B2200"
  Temperature "27"
  Lot "M135205"
  Reticle "M135205"
  Wafer "01D2"
  Die "X-3-Y0"
  DieList "TargetDie"
  Block "WholeDie"
  Subsite "diod1-5V"
  Routine "DIODE_EXTR_Measure"
  MeasCond "Set1"
  Device "7"
  DeviceName "ndiode_Dn5_A032B640"
  DevTechno "DIO"
  DevPolarity "N"
  Setup "iv_rev"
  Type "1"
  ___SPICE_INSTANCE ""
  A "3.2E-007"
  B "6.4E-005"
  ___TECHNO_INSTANCE ""
  ___CALIBRATION ""
END_HEADER

BEGIN_DB
 ICCAP_VAR vc         0              

 #va              ia              ic             
  15              0.0075178       -0.0075866     
  14.9            0.0069322       -0.0069808     
  14.8            0.0063574       -0.0063908     
  14.7            0.0057926       -0.0058242     
  14.6            0.0052424       -0.0052668     
  14.5            0.0046866       -0.0047068     
  14.4            0.0041306       -0.0041506     
  14.3            0.0035778       -0.0035942     
  14.2            0.0030254       -0.003033      
  14.1            0.0024644       -0.0024786     
  14              0.0018934       -0.0019034     
  13.9            0.0013078       -0.001319      
  13.8            0.0006634       -0.00068006    
  13.7            1.8834e-005     -2.422e-005    
  13.6            1.1018e-007     -1.3334e-007   
  13.5            3.1056e-008     -3.2856e-008   
  13.4            1.7154e-008     -1.7584e-008   
  13.3            1.1522e-008     -1.1724e-008   
  13.2            8.248e-009      -8.4816e-009   
  13.1            6.4556e-009     -6.5058e-009   
  13              5.2284e-009     -5.257e-009    
  12.9            4.3442e-009     -4.3714e-009   
  12.8            3.7198e-009     -3.7448e-009   
  12.7            3.2146e-009     -3.2292e-009   
  12.6            2.8074e-009     -2.8336e-009   
  12.5            2.4846e-009     -2.4998e-009   
  12.4            2.2076e-009     -2.2014e-009   
  12.3            1.9816e-009     -1.9936e-009   
  12.2            1.7902e-009     -1.7972e-009   
  12.1            1.6292e-009     -1.6256e-009   
  12              1.4886e-009     -1.482e-009    
  11.9            1.365e-009      -1.3824e-009   
  11.8            1.2532e-009     -1.2442e-009   
  11.7            1.1558e-009     -1.154e-009    
  11.6            1.069e-009      -1.0686e-009   
  11.5            9.8736e-010     -9.824e-010    
  11.4            9.1176e-010     -9.172e-010    
  11.3            8.475e-010      -8.52e-010     
  11.2            7.9106e-010     -7.766e-010    
  11.1            7.3856e-010     -7.166e-010    
  11              6.9008e-010     -6.812e-010    
  10.9            6.4626e-010     -6.432e-010    
  10.8            6.082e-010      -6.1858e-010   
  10.7            5.723e-010      -5.6844e-010   
  10.6            5.404e-010      -5.355e-010    
  10.5            5.0614e-010     -5.154e-010    
  10.4            4.7526e-010     -4.8336e-010   
  10.3            4.5038e-010     -4.4688e-010   
  10.2            4.244e-010      -4.23e-010     
  10.1            4.032e-010      -4.102e-010    
  10              3.8154e-010     -3.8544e-010   
  9.9             3.6164e-010     -3.5446e-010   
  9.8             3.4274e-010     -3.3556e-010   
  9.7             3.269e-010      -3.2684e-010   
  9.6             3.1004e-010     -3.172e-010    
  9.5             2.95e-010       -3.0284e-010   
  9.4             2.8138e-010     -2.7422e-010   
  9.3             2.6786e-010     -2.6264e-010   
  9.2             2.5544e-010     -2.454e-010    
  9.1             2.4338e-010     -2.3716e-010   
  9               2.3158e-010     -2.2284e-010   
  8.9             2.212e-010      -2.0598e-010   
  8.8             2.1076e-010     -2.1086e-010   
  8.7             2.008e-010      -2.0644e-010   
  8.6             1.918e-010      -1.9996e-010   
  8.5             1.831e-010      -1.6058e-010   
  8.4             1.7484e-010     -1.699e-010    
  8.3             1.6698e-010     -1.7254e-010   
  8.2             1.598e-010      -1.6194e-010   
  8.1             1.5268e-010     -1.4482e-010   
  8               1.4584e-010     -1.3148e-010   
  7.9             1.395e-010      -1.7512e-010   
  7.8             1.3334e-010     -1.4412e-010   
  7.7             1.2756e-010     -1.2828e-010   
  7.6             1.2254e-010     -1.0778e-010   
  7.5             1.1698e-010     -1.0342e-010   
  7.4             1.1148e-010     -1.0966e-010   
  7.3             1.0686e-010     -1.057e-010    
  7.2             1.0246e-010     -9.696e-011    
  7.1             9.782e-011      -9.01e-011     
  7               9.404e-011      -8.502e-011    
  6.9             8.936e-011      -1.0268e-010   
  6.8             8.612e-011      -8.298e-011    
  6.7             8.254e-011      -7.772e-011    
  6.6             7.906e-011      -5.742e-011    
  6.5             7.566e-011      -7.362e-011    
  6.4             7.216e-011      -7.608e-011    
  6.3             6.946e-011      -5.812e-011    
  6.2             6.646e-011      -5.868e-011    
  6.1             6.346e-011      -5.544e-011    
  6               6.016e-011      -6.904e-011    
  5.9             5.796e-011      -4.808e-011    
  5.8             5.536e-011      -4.062e-011    
  5.7             5.358e-011      -2.792e-011    
  5.6             5.118e-011      -4.96e-011     
  5.5             4.892e-011      -4.94e-011     
  5.4             4.632e-011      -3.456e-011    
  5.3             4.472e-011      -4.064e-011    
  5.2             4.264e-011      -3.372e-011    
  5.1             4.118e-011      -4.172e-011    
  5               3.928e-011      -3.054e-011    
  4.9             3.746e-011      -2.112e-011    
  4.8             3.61e-011       -2.712e-011    
  4.7             3.468e-011      -1.666e-011    
  4.6             3.328e-011      -3.624e-011    
  4.5             3.13e-011       -3.068e-011    
  4.4             3.026e-011      -1.172e-011    
  4.3             2.884e-011      -3.74e-012     
  4.2             2.816e-011      -3.57e-011     
  4.1             2.666e-011      -2.046e-011    
  4               2.556e-011      8.54e-012      
  3.9             2.43e-011       -1.484e-011    
  3.8             2.318e-011      -2.292e-011    
  3.7             2.244e-011      -2.236e-011    
  3.6             2.136e-011      -1.8e-013      
  3.5             2.046e-011      -8.96e-012     
  3.4             1.924e-011      -1.094e-011    
  3.3             1.904e-011      -6.6e-013      
  3.2             1.786e-011      -1.44e-011     
  3.1             1.75e-011       -2e-012        
  3               1.628e-011      9.4e-012       
  2.9             1.562e-011      4e-014         
  2.8             1.494e-011      -8.54e-012     
  2.7             1.466e-011      6.66e-012      
  2.6             1.374e-011      1.798e-011     
  2.5             1.33e-011       7.24e-012      
  2.4             1.278e-011      7e-013         
  2.3             1.212e-011      3.4e-012       
  2.2             1.192e-011      9.62e-012      
  2.1             1.088e-011      2.088e-011     
  2               1.036e-011      5.54e-012      
  1.9             9.56e-012       4.24e-012      
  1.8             9.8e-012        1.532e-011     
  1.7             8.92e-012       1.944e-011     
  1.6             8.92e-012       2.254e-011     
  1.5             8.16e-012       3.18e-012      
  1.4             7.76e-012       2.256e-011     
  1.3             7.42e-012       1.79e-011      
  1.2             6.88e-012       3.284e-011     
  1.1             6.1e-012        8.66e-012      
  1               5.82e-012       1.618e-011     
  0.9             5.9e-012        1.158e-011     
  0.8             5.2e-012        3.46e-011      
  0.7             5.16e-012       4.014e-011     
  0.6             4.34e-012       1.896e-011     
  0.5             4.06e-012       1.914e-011     
  0.4             3.64e-012       2.666e-011     
  0.3             3.22e-012       4.3e-011       
  0.2             2.4e-012        2.52e-011      
  0.1             1.7e-012        3.08e-011      
  0               -4e-014         3.912e-011     
END_DB

