! VERSION = 6.00
BEGIN_HEADER
 ICCAP_INPUTS
  vc         V  cathode GROUND SMU1 0.1 CON        0
  va         V  anode GROUND SMU2 0.1 LIN        1    15         0          151  -0.1      
 ICCAP_OUTPUTS
  ia         I  anode GROUND SMU2 B
  ic         I  cathode GROUND SMU1 B
 ICCAP_VALUES
  DataOrigin "Measure"
  ___CONTEXT ""
  Date "Jan 13 Thu 13:49:46 2022"
  Version "WaferPro.2016.01"
  Bench "B1500_B2200"
  Temperature "27"
  Lot "M135205"
  Reticle "M135205"
  Wafer "01D2"
  Die "X-3-Y0"
  DieList "TargetDie"
  Block "WholeDie"
  Subsite "diod1-5V"
  Routine "DIODE_EXTR_Measure"
  MeasCond "Set1"
  Device "10"
  DeviceName "ndiode_Dn5_A32B640"
  DevTechno "DIO"
  DevPolarity "N"
  Setup "iv_rev"
  Type "1"
  ___SPICE_INSTANCE ""
  A "3.2E-006"
  B "6.4E-005"
  ___TECHNO_INSTANCE ""
  ___CALIBRATION ""
END_HEADER

BEGIN_DB
 ICCAP_VAR vc         0              

 #va              ia              ic             
  15              0.01621         -0.01623       
  14.9            0.015428        -0.015428      
  14.8            0.014644        -0.01464       
  14.7            0.013858        -0.01385       
  14.6            0.013072        -0.013064      
  14.5            0.012272        -0.012262      
  14.4            0.011466        -0.011456      
  14.3            0.01066         -0.010648      
  14.2            0.0098324       -0.0098306     
  14.1            0.0090098       -0.0090066     
  14              0.0081746       -0.0081716     
  13.9            0.007332        -0.007329      
  13.8            0.0064918       -0.0064886     
  13.7            0.005641        -0.0056378     
  13.6            0.004795        -0.004792      
  13.5            0.003942        -0.0039386     
  13.4            0.0030906       -0.0030874     
  13.3            0.002248        -0.002245      
  13.2            0.0013954       -0.0013924     
  13.1            0.00043578      -0.0004334     
  13              1.1934e-008     -1.228e-008    
  12.9            4.9838e-009     -5.0934e-009   
  12.8            3.4922e-009     -3.5088e-009   
  12.7            2.6812e-009     -2.6954e-009   
  12.6            2.1574e-009     -2.1654e-009   
  12.5            1.793e-009      -1.7908e-009   
  12.4            1.517e-009      -1.526e-009    
  12.3            1.3076e-009     -1.3126e-009   
  12.2            1.1378e-009     -1.13e-009     
  12.1            9.994e-010      -1.0116e-009   
  12              8.8156e-010     -8.768e-010    
  11.9            7.8608e-010     -7.804e-010    
  11.8            7.0702e-010     -7.242e-010    
  11.7            6.3484e-010     -6.3132e-010   
  11.6            5.756e-010      -5.7438e-010   
  11.5            5.2598e-010     -5.2896e-010   
  11.4            4.799e-010      -4.871e-010    
  11.3            4.3872e-010     -4.3672e-010   
  11.2            4.036e-010      -3.9678e-010   
  11.1            3.7298e-010     -3.6712e-010   
  11              3.4312e-010     -3.4086e-010   
  10.9            3.1802e-010     -3.3168e-010   
  10.8            2.952e-010      -3.0316e-010   
  10.7            2.7504e-010     -2.9434e-010   
  10.6            2.5564e-010     -2.4944e-010   
  10.5            2.3778e-010     -2.4896e-010   
  10.4            2.2312e-010     -2.2634e-010   
  10.3            2.0874e-010     -1.9596e-010   
  10.2            1.9528e-010     -1.8782e-010   
  10.1            1.8238e-010     -1.9072e-010   
  10              1.715e-010      -1.8346e-010   
  9.9             1.6136e-010     -1.5788e-010   
  9.8             1.5178e-010     -1.475e-010    
  9.7             1.424e-010      -1.405e-010    
  9.6             1.3484e-010     -1.4176e-010   
  9.5             1.281e-010      -1.2732e-010   
  9.4             1.2096e-010     -1.1202e-010   
  9.3             1.1334e-010     -1.0706e-010   
  9.2             1.073e-010      -1.2318e-010   
  9.1             1.0242e-010     -1.1818e-010   
  9               9.654e-011      -8.996e-011    
  8.9             9.14e-011       -9.136e-011    
  8.8             8.646e-011      -7.798e-011    
  8.7             8.304e-011      -8.808e-011    
  8.6             7.848e-011      -7.87e-011     
  8.5             7.408e-011      -7.152e-011    
  8.4             7.032e-011      -5.94e-011     
  8.3             6.782e-011      -6.526e-011    
  8.2             6.432e-011      -7.61e-011     
  8.1             6.046e-011      -5.838e-011    
  8               5.762e-011      -4.334e-011    
  7.9             5.522e-011      -3.408e-011    
  7.8             5.338e-011      -6.242e-011    
  7.7             4.99e-011       -4.54e-011     
  7.6             4.718e-011      -3.768e-011    
  7.5             4.502e-011      -5.202e-011    
  7.4             4.364e-011      -4.31e-011     
  7.3             4.052e-011      -4.138e-011    
  7.2             3.854e-011      -3.788e-011    
  7.1             3.752e-011      -2.57e-011     
  7               3.644e-011      -2.09e-011     
  6.9             3.452e-011      -3.98e-011     
  6.8             3.206e-011      -3.932e-011    
  6.7             3.09e-011       -2.306e-011    
  6.6             2.994e-011      -4.632e-011    
  6.5             2.882e-011      -2.868e-011    
  6.4             2.578e-011      -2.864e-011    
  6.3             2.546e-011      -1.746e-011    
  6.2             2.474e-011      0              
  6.1             2.43e-011       -1.708e-011    
  6               2.186e-011      -1.648e-011    
  5.9             2.076e-011      -1.796e-011    
  5.8             2.02e-011       -9.66e-012     
  5.7             1.964e-011      -8.4e-012      
  5.6             1.846e-011      -2.564e-011    
  5.5             1.682e-011      -1.416e-011    
  5.4             1.728e-011      -3.82e-012     
  5.3             1.646e-011      -8.24e-012     
  5.2             1.588e-011      -4.36e-012     
  5.1             1.394e-011      -9.96e-012     
  5               1.428e-011      -7.8e-012      
  4.9             1.34e-011       -7.8e-013      
  4.8             1.308e-011      5.96e-012      
  4.7             1.132e-011      -8.6e-012      
  4.6             1.146e-011      -6.4e-012      
  4.5             1.188e-011      1.746e-011     
  4.4             1.072e-011      1.836e-011     
  4.3             9.6e-012        -9.08e-012     
  4.2             8.58e-012       -1.092e-011    
  4.1             9.54e-012       1.32e-011      
  4               8.44e-012       1.266e-011     
  3.9             8.3e-012        7e-012         
  3.8             7.02e-012       4.42e-012      
  3.7             8.82e-012       1.652e-011     
  3.6             7.56e-012       3.42e-012      
  3.5             7.3e-012        2.438e-011     
  3.4             5.98e-012       9.86e-012      
  3.3             6.86e-012       -4.74e-012     
  3.2             6.36e-012       8e-012         
  3.1             5.36e-012       2.344e-011     
  3               4.88e-012       2.072e-011     
  2.9             4.98e-012       -3.7e-012      
  2.8             6.14e-012       1.766e-011     
  2.7             4.6e-012        2.514e-011     
  2.6             4.2e-012        3.256e-011     
  2.5             3.62e-012       5.28e-012      
  2.4             5.16e-012       1.034e-011     
  2.3             3.36e-012       2.438e-011     
  2.2             3.74e-012       2.546e-011     
  2.1             3.06e-012       2.458e-011     
  2               4.38e-012       1.444e-011     
  1.9             3.84e-012       3.12e-011      
  1.8             2.8e-012        3.01e-011      
  1.7             2.48e-012       3.266e-011     
  1.6             2.68e-012       2.58e-011      
  1.5             3.04e-012       2.178e-011     
  1.4             1.22e-012       3.574e-011     
  1.3             2.16e-012       3.678e-011     
  1.2             2.14e-012       3.532e-011     
  1.1             3.02e-012       2.984e-011     
  1               9.8e-013        2.95e-011      
  0.9             1.26e-012       3.896e-011     
  0.8             1.28e-012       3.838e-011     
  0.7             2.56e-012       2.9e-011       
  0.6             6.4e-013        2.416e-011     
  0.5             3.4e-013        4.502e-011     
  0.4             1.3e-012        5.306e-011     
  0.3             1.84e-012       4.69e-011      
  0.2             1.44e-012       2.38e-011      
  0.1             -4e-013         3.488e-011     
  0               -3e-013         4.816e-011     
END_DB

