! VERSION = 6.00
BEGIN_HEADER
 ICCAP_INPUTS
  vc         V  cathode GROUND SMU1 0.1 CON        0
  va         V  anode GROUND SMU2 0.1 LIN        1    15         0          151  -0.1      
 ICCAP_OUTPUTS
  ia         I  anode GROUND SMU2 B
  ic         I  cathode GROUND SMU1 B
 ICCAP_VALUES
  DataOrigin "Measure"
  ___CONTEXT ""
  Date "Jan 13 Thu 13:28:22 2022"
  Version "WaferPro.2016.01"
  Bench "B1500_B2200"
  Temperature "27"
  Lot "M135205"
  Reticle "M135205"
  Wafer "01D2"
  Die "X-3-Y0"
  DieList "TargetDie"
  Block "WholeDie"
  Subsite "diod1-5V"
  Routine "DIODE_EXTR_Measure"
  MeasCond "Set1"
  Device "2"
  DeviceName "ndiode_Dn5_A032B32"
  DevTechno "DIO"
  DevPolarity "N"
  Setup "iv_rev"
  Type "1"
  ___SPICE_INSTANCE ""
  A "3.2E-007"
  B "3.2E-006"
  ___TECHNO_INSTANCE ""
  ___CALIBRATION ""
END_HEADER

BEGIN_DB
 ICCAP_VAR vc         0              

 #va              ia              ic             
  15              0.00049216      -0.00049922    
  14.9            0.0004483       -0.00045252    
  14.8            0.00040704      -0.00041028    
  14.7            0.00036754      -0.00036918    
  14.6            0.00032678      -0.00032846    
  14.5            0.00028796      -0.0002893     
  14.4            0.0002491       -0.00025062    
  14.3            0.00021128      -0.0002126     
  14.2            0.00017152      -0.0001737     
  14.1            0.00013354      -0.00013366    
  14              9.3804e-005     -9.583e-005    
  13.9            5.2592e-005     -5.4184e-005   
  13.8            1.6276e-006     -2.5018e-006   
  13.7            1.4242e-008     -1.8568e-008   
  13.6            2.9012e-009     -3.2078e-009   
  13.5            1.5052e-009     -1.5282e-009   
  13.4            9.996e-010      -1.0234e-009   
  13.3            7.0088e-010     -7.24e-010     
  13.2            5.383e-010      -5.352e-010    
  13.1            4.3712e-010     -4.3722e-010   
  13              3.61e-010       -3.6362e-010   
  12.9            3.0966e-010     -3.1148e-010   
  12.8            2.6436e-010     -2.5818e-010   
  12.7            2.3186e-010     -2.2938e-010   
  12.6            2.0652e-010     -2.2618e-010   
  12.5            1.847e-010      -1.8396e-010   
  12.4            1.6696e-010     -1.6068e-010   
  12.3            1.4962e-010     -1.5218e-010   
  12.2            1.3414e-010     -1.3596e-010   
  12.1            1.2304e-010     -1.267e-010    
  12              1.1276e-010     -1.0208e-010   
  11.9            1.032e-010      -1.0182e-010   
  11.8            9.552e-011      -9.612e-011    
  11.7            8.88e-011       -1.0434e-010   
  11.6            8.136e-011      -8.484e-011    
  11.5            7.562e-011      -8.122e-011    
  11.4            7.126e-011      -6.052e-011    
  11.3            6.674e-011      -6.816e-011    
  11.2            6.246e-011      -7.3e-011      
  11.1            5.836e-011      -5.868e-011    
  11              5.456e-011      -4.798e-011    
  10.9            5.166e-011      -4.806e-011    
  10.8            4.88e-011       -6.072e-011    
  10.7            4.52e-011       -4.934e-011    
  10.6            4.28e-011       -3.706e-011    
  10.5            4.094e-011      -1.906e-011    
  10.4            3.888e-011      -4.86e-011     
  10.3            3.668e-011      -3.474e-011    
  10.2            3.404e-011      -2.732e-011    
  10.1            3.224e-011      -2.646e-011    
  10              3.068e-011      -3.18e-011     
  9.9             2.918e-011      -3.72e-011     
  9.8             2.706e-011      -2.654e-011    
  9.7             2.572e-011      -2.296e-011    
  9.6             2.508e-011      -1.63e-011     
  9.5             2.378e-011      -3.156e-011    
  9.4             2.236e-011      -2.59e-011     
  9.3             2.106e-011      -2.374e-011    
  9.2             2.034e-011      -9.74e-012     
  9.1             1.944e-011      -2.31e-011     
  9               1.856e-011      -2.482e-011    
  8.9             1.748e-011      -2.02e-011     
  8.8             1.676e-011      -9.6e-013      
  8.7             1.606e-011      -7.3e-012      
  8.6             1.528e-011      -2.456e-011    
  8.5             1.432e-011      -2.086e-011    
  8.4             1.382e-011      -1.482e-011    
  8.3             1.318e-011      -4.94e-012     
  8.2             1.256e-011      -2.516e-011    
  8.1             1.184e-011      -1.42e-012     
  8               1.116e-011      -1.104e-011    
  7.9             1.086e-011      -5.08e-012     
  7.8             1.042e-011      1.82e-012      
  7.7             9.84e-012       -8.9e-012      
  7.6             9.22e-012       -2.084e-011    
  7.5             9.08e-012       -1.426e-011    
  7.4             8.94e-012       -4e-013        
  7.3             8.32e-012       -6.62e-012     
  7.2             7.72e-012       -8.4e-012      
  7.1             7.56e-012       -2.03e-011     
  7               7.44e-012       7.66e-012      
  6.9             7.14e-012       -3.24e-012     
  6.8             6.5e-012        -1.354e-011    
  6.7             6.16e-012       -1.202e-011    
  6.6             6.22e-012       -8.04e-012     
  6.5             6.1e-012        2.92e-012      
  6.4             5.72e-012       -5.54e-012     
  6.3             5.26e-012       -7.28e-012     
  6.2             5.3e-012        -1.356e-011    
  6.1             5.24e-012       4.4e-013       
  6               4.68e-012       1.34e-012      
  5.9             4.46e-012       -9.94e-012     
  5.8             4.44e-012       -9.76e-012     
  5.7             4.5e-012        -5.66e-012     
  5.6             4.04e-012       2.7e-012       
  5.5             3.7e-012        4.04e-012      
  5.4             3.56e-012       -1.068e-011    
  5.3             3.72e-012       -9.08e-012     
  5.2             3.5e-012        4.48e-012      
  5.1             3.12e-012       1.16e-012      
  5               3.08e-012       -2.32e-012     
  4.9             3.26e-012       -1.11e-011     
  4.8             3e-012          -9.62e-012     
  4.7             2.6e-012        8.88e-012      
  4.6             2.54e-012       1.018e-011     
  4.5             2.76e-012       -9.12e-012     
  4.4             2.66e-012       -9.44e-012     
  4.3             2.3e-012        4.66e-012      
  4.2             2.06e-012       7.42e-012      
  4.1             2.24e-012       -3.6e-012      
  4               2.32e-012       -1.532e-011    
  3.9             2e-012          8.16e-012      
  3.8             1.64e-012       2.22e-012      
  3.7             1.74e-012       1.484e-011     
  3.6             2e-012          -2e-014        
  3.5             1.84e-012       -1.09e-011     
  3.4             1.44e-012       5.8e-012       
  3.3             1.36e-012       1.608e-011     
  3.2             1.58e-012       -3.3e-012      
  3.1             1.58e-012       -5.7e-012      
  3               1.12e-012       6.4e-012       
  2.9             1.12e-012       1.832e-011     
  2.8             1.3e-012        1.95e-011      
  2.7             1.42e-012       -4.36e-012     
  2.6             9.8e-013        -8e-013        
  2.5             7.6e-013        5.14e-012      
  2.4             1.02e-012       1.49e-011      
  2.3             1.06e-012       1.308e-011     
  2.2             9.2e-013        9.02e-012      
  2.1             6.2e-013        4.16e-012      
  2               8.6e-013        2.73e-011      
  1.9             1.06e-012       2.484e-011     
  1.8             8.8e-013        3.14e-012      
  1.7             5e-013          9.24e-012      
  1.6             5.4e-013        1.122e-011     
  1.5             8.4e-013        1.7e-011       
  1.4             7.4e-013        2.142e-011     
  1.3             3.2e-013        1.838e-011     
  1.2             2.8e-013        1.21e-011      
  1.1             6.8e-013        3.782e-011     
  1               7e-013          2.236e-011     
  0.9             3.2e-013        2.178e-011     
  0.8             6e-014          7.58e-012      
  0.7             3.4e-013        1.866e-011     
  0.6             6.6e-013        4.29e-011      
  0.5             3.6e-013        2.696e-011     
  0.4             8e-014          1.932e-011     
  0.3             2.4e-013        1.988e-011     
  0.2             5e-013          3.38e-011      
  0.1             3.2e-013        3.77e-011      
  0               -2.6e-013       2.634e-011     
END_DB

