! VERSION = 6.00
BEGIN_HEADER
 ICCAP_INPUTS
  vc         V  cathode GROUND SMU1 0.1 CON        0
  va         V  anode GROUND SMU2 0.1 LIN        1    0          -1         51   -0.02     
 ICCAP_OUTPUTS
  ia         I  anode GROUND SMU2 B
  ic         I  cathode GROUND SMU1 B
 ICCAP_VALUES
  DataOrigin "Measure"
  ___CONTEXT ""
  Date "Jan 13 Thu 13:42:02 2022"
  Version "WaferPro.2016.01"
  Bench "B1500_B2200"
  Temperature "27"
  Lot "M135205"
  Reticle "M135205"
  Wafer "01D2"
  Die "X-3-Y0"
  DieList "TargetDie"
  Block "WholeDie"
  Subsite "diod1-5V"
  Routine "DIODE_EXTR_Measure"
  MeasCond "Set1"
  Device "7"
  DeviceName "ndiode_Dn5_A032B640"
  DevTechno "DIO"
  DevPolarity "N"
  Setup "iv_fwd"
  Type "1"
  ___SPICE_INSTANCE ""
  A "3.2E-007"
  B "6.4E-005"
  ___TECHNO_INSTANCE ""
  ___CALIBRATION ""
END_HEADER

BEGIN_DB
 ICCAP_VAR vc         0              

 #va              ia              ic             
  0               -3e-013         -1.26e-011     
  -0.02           4e-014          -8.46e-012     
  -0.04           -1.4e-013       3.48e-012      
  -0.06           -5.2e-013       -4.646e-011    
  -0.08           -5.2e-013       9e-013         
  -0.1            -1.58e-012      2.84e-012      
  -0.12           -3.08e-012      -1.026e-011    
  -0.14           -5.2e-012       9.6e-013       
  -0.16           -8.68e-012      1.262e-011     
  -0.18           -1.57e-011      2.44e-012      
  -0.2            -2.584e-011     2.702e-011     
  -0.22           -4.35e-011      3.466e-011     
  -0.24           -7.418e-011     7.482e-011     
  -0.26           -1.2422e-010    1.2504e-010    
  -0.28           -2.073e-010     2.0088e-010    
  -0.3            -3.449e-010     3.5246e-010    
  -0.32           -5.679e-010     5.5812e-010    
  -0.34           -9.303e-010     9.198e-010     
  -0.36           -1.5126e-009    1.4996e-009    
  -0.38           -2.443e-009     2.4262e-009    
  -0.4            -3.9342e-009    3.9172e-009    
  -0.42           -6.314e-009     6.2852e-009    
  -0.44           -1.01096e-008   1.00074e-008   
  -0.46           -1.6204e-008    1.6e-008       
  -0.48           -2.6056e-008    2.5592e-008    
  -0.5            -4.2308e-008    4.1272e-008    
  -0.52           -6.9494e-008    6.7414e-008    
  -0.54           -1.1566e-007    1.1574e-007    
  -0.56           -1.9666e-007    1.9678e-007    
  -0.58           -3.4208e-007    3.421e-007     
  -0.6            -6.0812e-007    6.0816e-007    
  -0.62           -1.10974e-006   1.10946e-006   
  -0.64           -2.0658e-006    2.068e-006     
  -0.66           -3.9278e-006    3.9262e-006    
  -0.68           -7.5346e-006    7.5354e-006    
  -0.7            -1.4536e-005    1.456e-005     
  -0.72           -2.7878e-005    2.7894e-005    
  -0.74           -5.2864e-005    5.2872e-005    
  -0.76           -9.762e-005     9.7628e-005    
  -0.78           -0.00017384     0.00017396     
  -0.8            -0.000297       0.00029714     
  -0.82           -0.00048076     0.00048088     
  -0.84           -0.0007388      0.0007389      
  -0.86           -0.0010772      0.0010773      
  -0.88           -0.0015016      0.0015028      
  -0.9            -0.002009       0.0020102      
  -0.92           -0.002599       0.0026002      
  -0.94           -0.0032612      0.0032624      
  -0.96           -0.0039936      0.0039948      
  -0.98           -0.0047842      0.0047854      
  -1              -0.0056332      0.005634       
END_DB

