! VERSION = 6.00
BEGIN_HEADER
 ICCAP_INPUTS
  vc         V  cathode GROUND SMU1 0.1 CON        0
  va         V  anode GROUND SMU2 0.1 LIN        1    0          -1         51   -0.02     
 ICCAP_OUTPUTS
  ia         I  anode GROUND SMU2 B
  ic         I  cathode GROUND SMU1 B
 ICCAP_VALUES
  DataOrigin "Measure"
  ___CONTEXT ""
  Date "Jan 13 Thu 13:36:34 2022"
  Version "WaferPro.2016.01"
  Bench "B1500_B2200"
  Temperature "27"
  Lot "M135205"
  Reticle "M135205"
  Wafer "01D2"
  Die "X-3-Y0"
  DieList "TargetDie"
  Block "WholeDie"
  Subsite "diod1-5V"
  Routine "DIODE_EXTR_Measure"
  MeasCond "Set1"
  Device "5"
  DeviceName "ndiode_Dn5_A32B320"
  DevTechno "DIO"
  DevPolarity "N"
  Setup "iv_fwd"
  Type "1"
  ___SPICE_INSTANCE ""
  A "3.2E-006"
  B "3.2E-005"
  ___TECHNO_INSTANCE ""
  ___CALIBRATION ""
END_HEADER

BEGIN_DB
 ICCAP_VAR vc         0              

 #va              ia              ic             
  0               1.2e-013        1.07e-011      
  -0.02           -1.8e-013       1.8e-012       
  -0.04           -1.6e-013       5e-013         
  -0.06           -1e-013         1.36e-012      
  -0.08           -4e-013         4.68e-012      
  -0.1            -1.22e-012      -7.78e-012     
  -0.12           -1.04e-012      7.76e-012      
  -0.14           -2e-012         -4.18e-012     
  -0.16           -3.34e-012      -3.94e-012     
  -0.18           -5.3e-012       5.04e-012      
  -0.2            -8.68e-012      -2.38e-012     
  -0.22           -1.55e-011      1.99e-011      
  -0.24           -2.59e-011      1.652e-011     
  -0.26           -4.376e-011     4.702e-011     
  -0.28           -7.418e-011     7.132e-011     
  -0.3            -1.2516e-010    1.1798e-010    
  -0.32           -2.1006e-010    2.1694e-010    
  -0.34           -3.5318e-010    3.4718e-010    
  -0.36           -5.9232e-010    5.9134e-010    
  -0.38           -9.8738e-010    9.906e-010     
  -0.4            -1.6486e-009    1.6424e-009    
  -0.42           -2.7564e-009    2.7628e-009    
  -0.44           -4.6176e-009    4.602e-009     
  -0.46           -7.8056e-009    7.8094e-009    
  -0.48           -1.3318e-008    1.33e-008      
  -0.5            -2.3182e-008    2.3118e-008    
  -0.52           -4.1168e-008    4.0984e-008    
  -0.54           -7.4632e-008    7.4194e-008    
  -0.56           -1.3892e-007    1.3782e-007    
  -0.58           -2.6482e-007    2.6188e-007    
  -0.6            -5.1382e-007    5.1324e-007    
  -0.62           -1.01406e-006   1.01374e-006   
  -0.64           -2.0116e-006    2.013e-006     
  -0.66           -3.9976e-006    3.9956e-006    
  -0.68           -7.8562e-006    7.8558e-006    
  -0.7            -1.5248e-005    1.5272e-005    
  -0.72           -2.8986e-005    2.9e-005       
  -0.74           -5.3978e-005    5.4002e-005    
  -0.76           -9.752e-005     9.7528e-005    
  -0.78           -0.00017002     0.00017016     
  -0.8            -0.00028546     0.00028556     
  -0.82           -0.00045642     0.00045652     
  -0.84           -0.00069606     0.00069614     
  -0.86           -0.0010109      0.00101098     
  -0.88           -0.0014072      0.0014084      
  -0.9            -0.001884       0.0018854      
  -0.92           -0.0024426      0.0024438      
  -0.94           -0.0030744      0.0030754      
  -0.96           -0.0037784      0.0037794      
  -0.98           -0.0045438      0.004545       
  -1              -0.0053704      0.0053716      
END_DB

