! VERSION = 6.00
BEGIN_HEADER
 ICCAP_INPUTS
  vc         V  cathode GROUND SMU1 0.1 CON        0
  va         V  anode GROUND SMU2 0.1 LIN        1    15         0          151  -0.1      
 ICCAP_OUTPUTS
  ia         I  anode GROUND SMU2 B
  ic         I  cathode GROUND SMU1 B
 ICCAP_VALUES
  DataOrigin "Measure"
  ___CONTEXT ""
  Date "Jan 13 Thu 13:25:39 2022"
  Version "WaferPro.2016.01"
  Bench "B1500_B2200"
  Temperature "27"
  Lot "M135205"
  Reticle "M135205"
  Wafer "01D2"
  Die "X-3-Y0"
  DieList "TargetDie"
  Block "WholeDie"
  Subsite "diod1-5V"
  Routine "DIODE_EXTR_Measure"
  MeasCond "Set1"
  Device "1"
  DeviceName "ndiode_Dn5_A032B032"
  DevTechno "DIO"
  DevPolarity "N"
  Setup "iv_rev"
  Type "1"
  ___SPICE_INSTANCE ""
  A "3.2E-007"
  B "3.2E-007"
  ___TECHNO_INSTANCE ""
  ___CALIBRATION ""
END_HEADER

BEGIN_DB
 ICCAP_VAR vc         0              

 #va              ia              ic             
  15              8.0304e-005     -8.2612e-005   
  14.9            7.2406e-005     -7.3156e-005   
  14.8            6.4492e-005     -6.5668e-005   
  14.7            5.8072e-005     -5.8388e-005   
  14.6            5.1494e-005     -5.1752e-005   
  14.5            4.3854e-005     -4.4678e-005   
  14.4            3.7096e-005     -3.7512e-005   
  14.3            3.138e-005      -3.0908e-005   
  14.2            2.405e-005      -2.4546e-005   
  14.1            1.7396e-005     -1.8086e-005   
  14              5.7414e-006     -6.958e-006    
  13.9            3.5916e-007     -5.482e-007    
  13.8            2.8242e-008     -3.0364e-008   
  13.7            4.9134e-009     -5.1668e-009   
  13.6            1.6664e-009     -1.692e-009    
  13.5            7.528e-010      -8.262e-010    
  13.4            4.545e-010      -4.4428e-010   
  13.3            3.3074e-010     -3.3986e-010   
  13.2            2.4668e-010     -2.7042e-010   
  13.1            1.9958e-010     -1.9446e-010   
  13              1.6684e-010     -1.5996e-010   
  12.9            1.386e-010      -1.4156e-010   
  12.8            1.2168e-010     -1.318e-010    
  12.7            1.0332e-010     -1.01e-010     
  12.6            8.898e-011      -8.782e-011    
  12.5            7.926e-011      -7.902e-011    
  12.4            7.31e-011       -7.734e-011    
  12.3            6.484e-011      -7.032e-011    
  12.2            5.978e-011      -5.814e-011    
  12.1            5.468e-011      -5.286e-011    
  12              4.994e-011      -5.048e-011    
  11.9            4.566e-011      -6.398e-011    
  11.8            4.25e-011       -4.69e-011     
  11.7            3.842e-011      -2.69e-011     
  11.6            3.624e-011      -3.362e-011    
  11.5            3.184e-011      -3.936e-011    
  11.4            3.07e-011       -4.104e-011    
  11.3            2.9e-011        -2.238e-011    
  11.2            2.728e-011      -1.96e-011     
  11.1            2.546e-011      -2.27e-011     
  11              2.352e-011      -3.388e-011    
  10.9            2.156e-011      -2.726e-011    
  10.8            2.078e-011      -2.566e-011    
  10.7            1.952e-011      -1.508e-011    
  10.6            1.816e-011      -1.864e-011    
  10.5            1.696e-011      -2.654e-011    
  10.4            1.628e-011      -1.596e-011    
  10.3            1.496e-011      -8.52e-012     
  10.2            1.426e-011      -1.32e-011     
  10.1            1.332e-011      -2.406e-011    
  10              1.266e-011      -1.9e-011      
  9.9             1.224e-011      -1.154e-011    
  9.8             1.1e-011        1.94e-012      
  9.7             1.08e-011       -1.33e-011     
  9.6             1.012e-011      -1.586e-011    
  9.5             1.014e-011      -7.46e-012     
  9.4             9.44e-012       -7.48e-012     
  9.3             8.92e-012       2e-013         
  9.2             8.5e-012        -1.62e-011     
  9.1             8.22e-012       -2.552e-011    
  9               7.62e-012       -1.42e-012     
  8.9             7.2e-012        -7.54e-012     
  8.8             6.9e-012        -3.84e-012     
  8.7             6.82e-012       -1.546e-011    
  8.6             6.26e-012       -6.42e-012     
  8.5             5.56e-012       4.4e-012       
  8.4             5.48e-012       1.56e-012      
  8.3             5.44e-012       -1.092e-011    
  8.2             5.3e-012        -1.458e-011    
  8.1             4.78e-012       -8.6e-013      
  8               4.5e-012        -7.6e-013      
  7.9             4.44e-012       4.36e-012      
  7.8             4.42e-012       -1.486e-011    
  7.7             3.92e-012       -6.2e-012      
  7.6             3.58e-012       7.6e-013       
  7.5             3.58e-012       6.76e-012      
  7.4             3.7e-012        -1.796e-011    
  7.3             3.44e-012       -5.52e-012     
  7.2             2.86e-012       -2.18e-012     
  7.1             2.86e-012       6.42e-012      
  7               2.9e-012        -3.58e-012     
  6.9             2.9e-012        -1.19e-011     
  6.8             2.34e-012       4.78e-012      
  6.7             2.28e-012       4.14e-012      
  6.6             2.44e-012       2.02e-012      
  6.5             2.44e-012       -2.032e-011    
  6.4             2.16e-012       -2.76e-012     
  6.3             2e-012          -4e-013        
  6.2             2.02e-012       1.686e-011     
  6.1             1.98e-012       -2.68e-012     
  6               1.92e-012       -5.06e-012     
  5.9             1.62e-012       4.28e-012      
  5.8             1.74e-012       -2.32e-012     
  5.7             1.82e-012       -2.14e-012     
  5.6             1.7e-012        -1.108e-011    
  5.5             1.2e-012        2e-013         
  5.4             1.46e-012       4e-014         
  5.3             1.5e-012        7.3e-012       
  5.2             1.4e-012        8.3e-012       
  5.1             1.1e-012        -7.96e-012     
  5               1.08e-012       -3e-012        
  4.9             1.28e-012       1.09e-011      
  4.8             1.32e-012       1.474e-011     
  4.7             9.2e-013        -1.468e-011    
  4.6             7e-013          -3.62e-012     
  4.5             1.2e-012        1.402e-011     
  4.4             1.18e-012       1.884e-011     
  4.3             8.6e-013        -2.78e-012     
  4.2             4.8e-013        -2.4e-012      
  4.1             8.6e-013        -3.12e-012     
  4               9.8e-013        5.72e-012      
  3.9             9.6e-013        4.44e-012      
  3.8             5.8e-013        4.74e-012      
  3.7             4.6e-013        -8e-014        
  3.6             7.8e-013        5.64e-012      
  3.5             7.6e-013        1.536e-011     
  3.4             5e-013          2.98e-012      
  3.3             3.8e-013        -8.4e-012      
  3.2             6.2e-013        2.82e-012      
  3.1             7.2e-013        1.704e-011     
  3               5.6e-013        -1.32e-012     
  2.9             2.4e-013        5.16e-012      
  2.8             6.2e-013        7.22e-012      
  2.7             5e-013          1.746e-011     
  2.6             3.6e-013        1.396e-011     
  2.5             3e-013          7.9e-012       
  2.4             4.4e-013        -5.44e-012     
  2.3             6.4e-013        8.64e-012      
  2.2             3.8e-013        1.19e-011      
  2.1             2.8e-013        2.192e-011     
  2               3.2e-013        7.74e-012      
  1.9             5e-013          3.14e-012      
  1.8             2e-013          1.874e-011     
  1.7             6e-014          2.636e-011     
  1.6             1.8e-013        1.532e-011     
  1.5             5.4e-013        5.04e-012      
  1.4             4.8e-013        1.802e-011     
  1.3             1.4e-013        1.98e-011      
  1.2             -4e-014         2.952e-011     
  1.1             3.6e-013        1.25e-011      
  1               3.8e-013        1.85e-011      
  0.9             2.4e-013        2.58e-011      
  0.8             4e-014          2.422e-011     
  0.7             1.4e-013        2.142e-011     
  0.6             4.8e-013        1.306e-011     
  0.5             2.6e-013        2.214e-011     
  0.4             -4e-014         2.632e-011     
  0.3             -6e-014         8.198e-011     
  0.2             3.8e-013        2.168e-011     
  0.1             1.8e-013        2.898e-011     
  0               0               3.052e-011     
END_DB

