! VERSION = 6.00
BEGIN_HEADER
 ICCAP_INPUTS
  vc         V  cathode GROUND SMU1 0.1 CON        0
  va         V  anode GROUND SMU2 0.1 LIN        1    15         0          151  -0.1      
 ICCAP_OUTPUTS
  ia         I  anode GROUND SMU2 B
  ic         I  cathode GROUND SMU1 B
 ICCAP_VALUES
  DataOrigin "Measure"
  ___CONTEXT ""
  Date "Jan 13 Thu 13:44:40 2022"
  Version "WaferPro.2016.01"
  Bench "B1500_B2200"
  Temperature "27"
  Lot "M135205"
  Reticle "M135205"
  Wafer "01D2"
  Die "X-3-Y0"
  DieList "TargetDie"
  Block "WholeDie"
  Subsite "diod1-5V"
  Routine "DIODE_EXTR_Measure"
  MeasCond "Set1"
  Device "8"
  DeviceName "ndiode_Dn5_A064B640"
  DevTechno "DIO"
  DevPolarity "N"
  Setup "iv_rev"
  Type "1"
  ___SPICE_INSTANCE ""
  A "6.4E-007"
  B "6.4E-005"
  ___TECHNO_INSTANCE ""
  ___CALIBRATION ""
END_HEADER

BEGIN_DB
 ICCAP_VAR vc         0              

 #va              ia              ic             
  15              0.010318        -0.010332      
  14.9            0.0096612       -0.0096962     
  14.8            0.0090318       -0.0090538     
  14.7            0.0084108       -0.0084238     
  14.6            0.0077896       -0.0078028     
  14.5            0.0071664       -0.0071748     
  14.4            0.0065388       -0.0065456     
  14.3            0.0059126       -0.0059184     
  14.2            0.0052824       -0.0052864     
  14.1            0.004646        -0.0046514     
  14              0.0040002       -0.0040024     
  13.9            0.0033484       -0.0033494     
  13.8            0.0026934       -0.0026952     
  13.7            0.002023        -0.002024      
  13.6            0.0013346       -0.001337      
  13.5            0.00054356      -0.00054814    
  13.4            6.6156e-007     -8.954e-007    
  13.3            3.2272e-008     -3.4274e-008   
  13.2            1.4518e-008     -1.4828e-008   
  13.1            8.9836e-009     -9.294e-009    
  13              6.3318e-009     -6.378e-009    
  12.9            4.87e-009       -4.9116e-009   
  12.8            3.9356e-009     -3.9662e-009   
  12.7            3.2682e-009     -3.2754e-009   
  12.6            2.78e-009       -2.7978e-009   
  12.5            2.402e-009      -2.4162e-009   
  12.4            2.093e-009      -2.1002e-009   
  12.3            1.8494e-009     -1.8602e-009   
  12.2            1.6516e-009     -1.653e-009    
  12.1            1.482e-009      -1.4698e-009   
  12              1.3404e-009     -1.3538e-009   
  11.9            1.2166e-009     -1.2058e-009   
  11.8            1.1102e-009     -1.1052e-009   
  11.7            1.018e-009      -1.0284e-009   
  11.6            9.2996e-010     -9.314e-010    
  11.5            8.5856e-010     -8.79e-010     
  11.4            7.9562e-010     -7.902e-010    
  11.3            7.3832e-010     -7.33e-010     
  11.2            6.8558e-010     -6.81e-010     
  11.1            6.3938e-010     -6.374e-010    
  11              5.9762e-010     -5.916e-010    
  10.9            5.534e-010      -5.5128e-010   
  10.8            5.1932e-010     -5.1712e-010   
  10.7            4.8682e-010     -4.7966e-010   
  10.6            4.5946e-010     -4.5512e-010   
  10.5            4.32e-010       -4.3388e-010   
  10.4            4.0668e-010     -4.0926e-010   
  10.3            3.8264e-010     -3.7894e-010   
  10.2            3.6284e-010     -3.5466e-010   
  10.1            3.4228e-010     -3.4682e-010   
  10              3.2442e-010     -3.348e-010    
  9.9             3.0542e-010     -3.1434e-010   
  9.8             2.902e-010      -2.8114e-010   
  9.7             2.76e-010       -2.519e-010    
  9.6             2.6558e-010     -2.898e-010    
  9.5             2.4802e-010     -2.5352e-010   
  9.4             2.3392e-010     -2.416e-010    
  9.3             2.2324e-010     -2.309e-010    
  9.2             2.1132e-010     -2.0782e-010   
  9.1             2.0092e-010     -2.1772e-010   
  9               1.918e-010      -1.827e-010    
  8.9             1.8234e-010     -1.748e-010    
  8.8             1.7264e-010     -1.5572e-010   
  8.7             1.6498e-010     -1.7378e-010   
  8.6             1.5736e-010     -1.5778e-010   
  8.5             1.4984e-010     -1.3724e-010   
  8.4             1.4234e-010     -1.3562e-010   
  8.3             1.365e-010      -1.4154e-010   
  8.2             1.2956e-010     -1.3746e-010   
  8.1             1.2344e-010     -1.0046e-010   
  8               1.1752e-010     -1.262e-010    
  7.9             1.1366e-010     -1.154e-010    
  7.8             1.0794e-010     -1.0842e-010   
  7.7             1.0284e-010     -8.778e-011    
  7.6             9.802e-011      -1.0618e-010   
  7.5             9.418e-011      -9.212e-011    
  7.4             8.982e-011      -9.312e-011    
  7.3             8.456e-011      -7.638e-011    
  7.2             8.138e-011      -1.4956e-010   
  7.1             7.846e-011      -8.512e-011    
  7               7.484e-011      -7.152e-011    
  6.9             7.104e-011      -6.446e-011    
  6.8             6.806e-011      -7.936e-011    
  6.7             6.538e-011      -7.714e-011    
  6.6             6.262e-011      -5.708e-011    
  6.5             5.92e-011       -6.072e-011    
  6.4             5.696e-011      -6.486e-011    
  6.3             5.49e-011       -5.086e-011    
  6.2             5.23e-011       -4.478e-011    
  6.1             4.952e-011      -4.072e-011    
  6               4.796e-011      -5.19e-011     
  5.9             4.622e-011      -3.84e-011     
  5.8             4.348e-011      -3.864e-011    
  5.7             4.154e-011      -2.482e-011    
  5.6             4.008e-011      -5.418e-011    
  5.5             3.922e-011      -2.608e-011    
  5.4             3.628e-011      -2.364e-011    
  5.3             3.492e-011      -3.184e-011    
  5.2             3.326e-011      -3.452e-011    
  5.1             3.242e-011      -1.266e-011    
  5               2.314e-011      -2.114e-011    
  4.9             2.908e-011      -2.074e-011    
  4.8             2.598e-011      -2.052e-011    
  4.7             2.724e-011      -1.556e-011    
  4.6             2.504e-011      3.296e-011     
  4.5             2.47e-011       -2.066e-011    
  4.4             2.376e-011      -1.69e-011     
  4.3             2.184e-011      -2.92e-012     
  4.2             2.144e-011      -1.59e-011     
  4.1             2.07e-011       -1.526e-011    
  4               1.982e-011      -3.1e-012      
  3.9             1.794e-011      3.4e-012       
  3.8             1.822e-011      -6e-012        
  3.7             1.674e-011      -1.02e-011     
  3.6             1.648e-011      3.74e-012      
  3.5             1.27e-011       -2.04e-012     
  3.4             1.5e-011        -1.292e-011    
  3.3             1.386e-011      3.2e-013       
  3.2             1.362e-011      -5.02e-012     
  3.1             1.286e-011      1.08e-012      
  3               1.242e-011      -7.58e-012     
  2.9             1.222e-011      -1.78e-012     
  2.8             1.094e-011      1.338e-011     
  2.7             1.046e-011      4.14e-012      
  2.6             1.062e-011      -1.134e-011    
  2.5             9.92e-012       3.4e-012       
  2.4             9.06e-012       1.852e-011     
  2.3             9.06e-012       1.52e-012      
  2.2             8.52e-012       -3.94e-012     
  2.1             8.64e-012       1.222e-011     
  2               7.16e-012       1.422e-011     
  1.9             7.3e-012        2.2e-012       
  1.8             6.92e-012       2.24e-012      
  1.7             6.88e-012       1.624e-011     
  1.6             5.46e-012       1.878e-011     
  1.5             5.78e-012       -3.6e-013      
  1.4             5.62e-012       8.24e-012      
  1.3             4.46e-012       1.272e-011     
  1.2             5e-012          -5.98e-012     
  1.1             4.92e-012       1.472e-011     
  1               3.62e-012       1.686e-011     
  0.9             3.4e-012        2.052e-011     
  0.8             3.76e-012       1.4e-013       
  0.7             3.76e-012       1.944e-011     
  0.6             2.56e-012       2.452e-011     
  0.5             2.14e-012       1.466e-011     
  0.4             1.88e-012       8e-012         
  0.3             1.44e-012       2.08e-011      
  0.2             1.66e-012       1.462e-011     
  0.1             4.58e-012       2.272e-011     
  0               -9.4e-013       3.09e-011      
END_DB

