! VERSION = 6.00
BEGIN_HEADER
 ICCAP_INPUTS
  vc         V  cathode GROUND SMU1 0.1 CON        0
  va         V  anode GROUND SMU2 0.1 LIN        1    15         0          151  -0.1      
 ICCAP_OUTPUTS
  ia         I  anode GROUND SMU2 B
  ic         I  cathode GROUND SMU1 B
 ICCAP_VALUES
  DataOrigin "Measure"
  ___CONTEXT ""
  Date "Jan 13 Thu 13:31:02 2022"
  Version "WaferPro.2016.01"
  Bench "B1500_B2200"
  Temperature "27"
  Lot "M135205"
  Reticle "M135205"
  Wafer "01D2"
  Die "X-3-Y0"
  DieList "TargetDie"
  Block "WholeDie"
  Subsite "diod1-5V"
  Routine "DIODE_EXTR_Measure"
  MeasCond "Set1"
  Device "3"
  DeviceName "ndiode_Dn5_A032B320"
  DevTechno "DIO"
  DevPolarity "N"
  Setup "iv_rev"
  Type "1"
  ___SPICE_INSTANCE ""
  A "3.2E-007"
  B "3.2E-005"
  ___TECHNO_INSTANCE ""
  ___CALIBRATION ""
END_HEADER

BEGIN_DB
 ICCAP_VAR vc         0              

 #va              ia              ic             
  15              0.0038586       -0.003899      
  14.9            0.0035382       -0.0035664     
  14.8            0.0032314       -0.003247      
  14.7            0.0029248       -0.002941      
  14.6            0.0026244       -0.0026354     
  14.5            0.0023264       -0.0023366     
  14.4            0.0020276       -0.0020362     
  14.3            0.0017274       -0.0017368     
  14.2            0.0014278       -0.0014336     
  14.1            0.001124        -0.0011304     
  14              0.00080926      -0.00081616    
  13.9            0.00048062      -0.00048792    
  13.8            7.2766e-005     -8.0888e-005   
  13.7            1.1862e-007     -1.641e-007    
  13.6            2.162e-008      -2.3322e-008   
  13.5            1.0726e-008     -1.101e-008    
  13.4            6.5778e-009     -6.8542e-009   
  13.3            4.706e-009      -4.7794e-009   
  13.2            3.6422e-009     -3.6758e-009   
  13.1            2.9308e-009     -2.9466e-009   
  13              2.4226e-009     -2.4314e-009   
  12.9            2.046e-009      -2.0594e-009   
  12.8            1.7698e-009     -1.7756e-009   
  12.7            1.5414e-009     -1.553e-009    
  12.6            1.3504e-009     -1.3474e-009   
  12.5            1.1976e-009     -1.2094e-009   
  12.4            1.0744e-009     -1.0888e-009   
  12.3            9.6448e-010     -9.706e-010    
  12.2            8.7208e-010     -8.214e-010    
  12.1            7.9294e-010     -7.922e-010    
  12              7.2338e-010     -7.296e-010    
  11.9            6.6168e-010     -6.6462e-010   
  11.8            6.1276e-010     -6.2702e-010   
  11.7            5.6528e-010     -5.6314e-010   
  11.6            5.209e-010      -5.2802e-010   
  11.5            4.866e-010      -4.83e-010     
  11.4            4.5096e-010     -4.4856e-010   
  11.3            4.2372e-010     -4.118e-010    
  11.2            3.9458e-010     -4.0846e-010   
  11.1            3.7176e-010     -3.7638e-010   
  11              3.4732e-010     -3.4926e-010   
  10.9            3.2556e-010     -3.2066e-010   
  10.8            3.0676e-010     -3.0856e-010   
  10.7            2.8944e-010     -2.913e-010    
  10.6            2.7316e-010     -2.7906e-010   
  10.5            2.5768e-010     -2.5454e-010   
  10.4            2.4342e-010     -2.5204e-010   
  10.3            2.3078e-010     -2.469e-010    
  10.2            2.1886e-010     -2.2328e-010   
  10.1            2.0666e-010     -2.066e-010    
  10              1.9584e-010     -1.9466e-010   
  9.9             1.851e-010      -1.839e-010    
  9.8             1.7672e-010     -1.909e-010    
  9.7             1.6838e-010     -1.6098e-010   
  9.6             1.6062e-010     -1.5346e-010   
  9.5             1.5234e-010     -1.5572e-010   
  9.4             1.4452e-010     -1.567e-010    
  9.3             1.3736e-010     -1.4328e-010   
  9.2             1.315e-010      -1.2482e-010   
  9.1             1.2506e-010     -1.1872e-010   
  9               1.1836e-010     -1.1814e-010   
  8.9             1.1358e-010     -1.2362e-010   
  8.8             1.09e-010       -1.056e-010    
  8.7             1.0406e-010     -9.506e-011    
  8.6             9.906e-011      -9.966e-011    
  8.5             9.426e-011      -1.0368e-010   
  8.4             9.046e-011      -9.784e-011    
  8.3             8.634e-011      -7.894e-011    
  8.2             8.278e-011      -6.846e-011    
  8.1             7.876e-011      -8.61e-011     
  8               7.54e-011       -7.88e-011     
  7.9             7.3e-011        -6.374e-011    
  7.8             6.93e-011       -7.384e-011    
  7.7             6.568e-011      -6.236e-011    
  7.6             6.306e-011      -7.55e-011     
  7.5             6.08e-011       -5.708e-011    
  7.4             5.866e-011      -5.254e-011    
  7.3             5.606e-011      -5.116e-011    
  7.2             5.302e-011      -5.822e-011    
  7.1             5.126e-011      -5.786e-011    
  7               4.93e-011       -4.936e-011    
  6.9             4.698e-011      -4.06e-011     
  6.8             4.434e-011      -4.746e-011    
  6.7             4.268e-011      -5.908e-011    
  6.6             4.144e-011      -3.66e-011     
  6.5             4.028e-011      -3.034e-011    
  6.4             3.788e-011      -3.338e-011    
  6.3             3.56e-011       -4.142e-011    
  6.2             3.476e-011      -4.53e-011     
  6.1             3.346e-011      -2.75e-011     
  6               3.204e-011      -2.342e-011    
  5.9             2.988e-011      -4.506e-011    
  5.8             2.912e-011      -3.742e-011    
  5.7             2.83e-011       -2.686e-011    
  5.6             2.762e-011      -1.838e-011    
  5.5             2.59e-011       -1.644e-011    
  5.4             2.46e-011       -2.328e-011    
  5.3             2.378e-011      -2.818e-011    
  5.2             2.332e-011      -2.056e-011    
  5.1             2.188e-011      -1.316e-011    
  5               2.038e-011      -1.416e-011    
  4.9             2.03e-011       -1.898e-011    
  4.8             1.954e-011      -1.892e-011    
  4.7             1.918e-011      -5.36e-012     
  4.6             1.73e-011       -1.03e-011     
  4.5             1.686e-011      -2.214e-011    
  4.4             1.616e-011      -2.558e-011    
  4.3             1.608e-011      -7.3e-012      
  4.2             1.474e-011      -5.12e-012     
  4.1             1.402e-011      -8.8e-012      
  4               1.384e-011      -1.798e-011    
  3.9             1.374e-011      -1.384e-011    
  3.8             1.304e-011      -3.7e-012      
  3.7             1.156e-011      -3.4e-013      
  3.6             1.136e-011      -1.502e-011    
  3.5             1.136e-011      -1.288e-011    
  3.4             1.112e-011      -6.4e-012      
  3.3             9.76e-012       2.04e-012      
  3.2             9.6e-012        5.94e-012      
  3.1             9.48e-012       -1.14e-011     
  3               9.66e-012       2.1e-012       
  2.9             8.56e-012       2.08e-012      
  2.8             7.76e-012       8.44e-012      
  2.7             7.78e-012       -8.08e-012     
  2.6             7.9e-012        -7.06e-012     
  2.5             7.38e-012       5.36e-012      
  2.4             6.46e-012       1.152e-011     
  2.3             6.48e-012       1.138e-011     
  2.2             6.7e-012        -3.72e-012     
  2.1             6.74e-012       4.84e-012      
  2               5.3e-012        6.7e-012       
  1.9             5.14e-012       1.89e-011      
  1.8             5.08e-012       1.466e-011     
  1.7             5.66e-012       -3.84e-012     
  1.6             4.64e-012       1.368e-011     
  1.5             4.06e-012       1.688e-011     
  1.4             4.02e-012       1.708e-011     
  1.3             4.52e-012       1.03e-011      
  1.2             4.3e-012        1.158e-011     
  1.1             3.04e-012       1.21e-011      
  1               2.8e-012        2.872e-011     
  0.9             3.14e-012       1.208e-011     
  0.8             3.48e-012       1.264e-011     
  0.7             2.5e-012        1.89e-011      
  0.6             2.22e-012       2.418e-011     
  0.5             2.12e-012       3.39e-011      
  0.4             2.82e-012       1.466e-011     
  0.3             1.82e-012       1.29e-011      
  0.2             1.24e-012       -5.54e-012     
  0.1             5e-013          3.352e-011     
  0               1.2e-013        3.334e-011     
END_DB

