! VERSION = 6.00
BEGIN_HEADER
 ICCAP_INPUTS
  vc         V  cathode GROUND SMU1 0.1 CON        0
  va         V  anode GROUND SMU2 0.1 LIN        1    15         0          151  -0.1      
 ICCAP_OUTPUTS
  ia         I  anode GROUND SMU2 B
  ic         I  cathode GROUND SMU1 B
 ICCAP_VALUES
  DataOrigin "Measure"
  ___CONTEXT ""
  Date "Jan 13 Thu 13:33:47 2022"
  Version "WaferPro.2016.01"
  Bench "B1500_B2200"
  Temperature "27"
  Lot "M135205"
  Reticle "M135205"
  Wafer "01D2"
  Die "X-3-Y0"
  DieList "TargetDie"
  Block "WholeDie"
  Subsite "diod1-5V"
  Routine "DIODE_EXTR_Measure"
  MeasCond "Set1"
  Device "4"
  DeviceName "ndiode_Dn5_A32B32"
  DevTechno "DIO"
  DevPolarity "N"
  Setup "iv_rev"
  Type "1"
  ___SPICE_INSTANCE ""
  A "3.2E-006"
  B "3.2E-006"
  ___TECHNO_INSTANCE ""
  ___CALIBRATION ""
END_HEADER

BEGIN_DB
 ICCAP_VAR vc         0              

 #va              ia              ic             
  15              0.001769        -0.0017714     
  14.9            0.0016742       -0.001676      
  14.8            0.0015804       -0.001581      
  14.7            0.001486        -0.0014864     
  14.6            0.001392        -0.001392      
  14.5            0.0012978       -0.0012968     
  14.4            0.001203        -0.0012026     
  14.3            0.0011082       -0.0011078     
  14.2            0.0010132       -0.0010124     
  14.1            0.00091788      -0.00091786    
  14              0.00082184      -0.00082198    
  13.9            0.00072636      -0.00072646    
  13.8            0.00063172      -0.00063192    
  13.7            0.00053682      -0.00053682    
  13.6            0.00044368      -0.00044376    
  13.5            0.00035132      -0.00035122    
  13.4            0.00026082      -0.00026076    
  13.3            0.00017418      -0.00017402    
  13.2            9.1554e-005     -9.1552e-005   
  13.1            6.102e-009      -6.691e-009    
  13              8.2916e-010     -9.162e-010    
  12.9            5.6056e-010     -5.95e-010     
  12.8            4.2594e-010     -4.1926e-010   
  12.7            3.3662e-010     -3.3386e-010   
  12.6            2.7792e-010     -2.7494e-010   
  12.5            2.3866e-010     -2.4756e-010   
  12.4            2.0936e-010     -2.1776e-010   
  12.3            1.826e-010      -1.9362e-010   
  12.2            1.6076e-010     -1.5546e-010   
  12.1            1.4286e-010     -1.5396e-010   
  12              1.2948e-010     -1.3128e-010   
  11.9            1.1728e-010     -1.2786e-010   
  11.8            1.0688e-010     -1.0098e-010   
  11.7            9.752e-011      -9.63e-011     
  11.6            8.868e-011      -9.982e-011    
  11.5            8.192e-011      -8.746e-011    
  11.4            7.5e-011        -6.996e-011    
  11.3            6.934e-011      -6.572e-011    
  11.2            6.396e-011      -7.558e-011    
  11.1            5.984e-011      -5.928e-011    
  11              5.488e-011      -6.442e-011    
  10.9            5.168e-011      -4.7e-011      
  10.8            4.82e-011       -4.526e-011    
  10.7            4.52e-011       -4.942e-011    
  10.6            4.2e-011        -5.81e-011     
  10.5            3.98e-011       -4.042e-011    
  10.4            3.696e-011      -3.726e-011    
  10.3            3.508e-011      -4.436e-011    
  10.2            3.258e-011      -3.88e-011     
  10.1            3.064e-011      -6.63e-011     
  10              2.986e-011      -2.77e-011     
  9.9             2.792e-011      -2.742e-011    
  9.8             2.622e-011      -3.18e-011     
  9.7             2.41e-011       -4.148e-011    
  9.6             2.312e-011      -1.452e-011    
  9.5             2.166e-011      -2.564e-011    
  9.4             2.064e-011      -2.174e-011    
  9.3             1.936e-011      -3.44e-011     
  9.2             1.868e-011      -1.82e-011     
  9.1             1.762e-011      -1.502e-011    
  9               1.688e-011      -1.686e-011    
  8.9             1.562e-011      -2.704e-011    
  8.8             1.472e-011      -2.728e-011    
  8.7             1.418e-011      -1.58e-011     
  8.6             1.362e-011      -1.574e-011    
  8.5             1.308e-011      -2.04e-012     
  8.4             1.22e-011       -2.498e-011    
  8.3             1.208e-011      -1.596e-011    
  8.2             1.13e-011       -4.66e-012     
  8.1             1.08e-011       -1.116e-011    
  8               9.9e-012        -2.55e-011     
  7.9             9.92e-012       -1.728e-011    
  7.8             9.42e-012       -1.088e-011    
  7.7             9.06e-012       3.46e-012      
  7.6             8.66e-012       -5.2e-012      
  7.5             8.36e-012       -2.314e-011    
  7.4             7.9e-012        -4.86e-012     
  7.3             7.28e-012       -6.34e-012     
  7.2             7.14e-012       -7.3e-012      
  7.1             6.6e-012        -1.956e-011    
  7               6.58e-012       -1.24e-011     
  6.9             6.08e-012       -1e-013        
  6.8             6.1e-012        -1.96e-012     
  6.7             5.84e-012       -1.142e-011    
  6.6             5.56e-012       -7.54e-012     
  6.5             5.18e-012       -1.124e-011    
  6.4             4.9e-012        1.4e-012       
  6.3             4.8e-012        3.78e-012      
  6.2             4.5e-012        -1.842e-011    
  6.1             4.44e-012       -1.412e-011    
  6               3.98e-012       6.06e-012      
  5.9             4.08e-012       6.56e-012      
  5.8             3.96e-012       -1.008e-011    
  5.7             3.92e-012       -3.52e-012     
  5.6             3.38e-012       -1.44e-011     
  5.5             3.08e-012       4.32e-012      
  5.4             3.08e-012       -3.56e-012     
  5.3             3.02e-012       -7.46e-012     
  5.2             3.12e-012       -7.9e-012      
  5.1             2.8e-012        2.6e-012       
  5               2.78e-012       1.154e-011     
  4.9             2.64e-012       -2.64e-012     
  4.8             2.48e-012       -8.96e-012     
  4.7             2.22e-012       -3.4e-013      
  4.6             2.08e-012       8.68e-012      
  4.5             2.08e-012       -4.76e-012     
  4.4             2.1e-012        5.34e-012      
  4.3             1.98e-012       4.54e-012      
  4.2             1.86e-012       -6.8e-013      
  4.1             2.1e-012        1.716e-011     
  4               1.72e-012       4.74e-012      
  3.9             1.58e-012       -1.118e-011    
  3.8             1.32e-012       5.8e-013       
  3.7             1.52e-012       1.27e-011      
  3.6             1.36e-012       8.9e-012       
  3.5             1.34e-012       1.96e-012      
  3.4             1.22e-012       6.2e-013       
  3.3             1.2e-012        1.614e-011     
  3.2             1.4e-012        1.864e-011     
  3.1             1.06e-012       1.74e-012      
  3               8.6e-013        8.74e-012      
  2.9             6.4e-013        2.22e-012      
  2.8             1.12e-012       2.15e-011      
  2.7             8e-013          1.834e-011     
  2.6             1.04e-012       7.84e-012      
  2.5             7.8e-013        3.1e-012       
  2.4             1.04e-012       2.526e-011     
  2.3             7.8e-013        1.986e-011     
  2.2             7e-013          6.82e-012      
  2.1             5.8e-013        1.78e-012      
  2               3.6e-013        1.514e-011     
  1.9             8.8e-013        4.202e-011     
  1.8             4.8e-013        1.358e-011     
  1.7             7.6e-013        9.02e-012      
  1.6             4.8e-013        2.636e-011     
  1.5             8.4e-013        2.29e-011      
  1.4             4e-013          1.566e-011     
  1.3             4.2e-013        2.3e-011       
  1.2             0               1.252e-011     
  1.1             5e-013          1.582e-011     
  1               4.2e-013        3.156e-011     
  0.9             4.8e-013        3.892e-011     
  0.8             5e-013          1.648e-011     
  0.7             2.6e-013        2.52e-011      
  0.6             3.2e-013        2.454e-011     
  0.5             -4e-014         3.488e-011     
  0.4             1e-013          3.268e-011     
  0.3             -1.6e-013       2.308e-011     
  0.2             4.2e-013        2.568e-011     
  0.1             -1e-013         3.892e-011     
  0               2.6e-013        5.17e-011      
END_DB

