! VERSION = 6.00
BEGIN_HEADER
 ICCAP_INPUTS
  vc         V  cathode GROUND SMU1 0.1 CON        0
  va         V  anode GROUND SMU2 0.1 LIN        1    15         0          151  -0.1      
 ICCAP_OUTPUTS
  ia         I  anode GROUND SMU2 B
  ic         I  cathode GROUND SMU1 B
 ICCAP_VALUES
  DataOrigin "Measure"
  ___CONTEXT ""
  Date "Jan 13 Thu 13:36:34 2022"
  Version "WaferPro.2016.01"
  Bench "B1500_B2200"
  Temperature "27"
  Lot "M135205"
  Reticle "M135205"
  Wafer "01D2"
  Die "X-3-Y0"
  DieList "TargetDie"
  Block "WholeDie"
  Subsite "diod1-5V"
  Routine "DIODE_EXTR_Measure"
  MeasCond "Set1"
  Device "5"
  DeviceName "ndiode_Dn5_A32B320"
  DevTechno "DIO"
  DevPolarity "N"
  Setup "iv_rev"
  Type "1"
  ___SPICE_INSTANCE ""
  A "3.2E-006"
  B "3.2E-005"
  ___TECHNO_INSTANCE ""
  ___CALIBRATION ""
END_HEADER

BEGIN_DB
 ICCAP_VAR vc         0              

 #va              ia              ic             
  15              0.0098092       -0.0098228     
  14.9            0.0093398       -0.009345      
  14.8            0.0088662       -0.0088692     
  14.7            0.0083906       -0.0083912     
  14.6            0.0079136       -0.007914      
  14.5            0.0074296       -0.0074292     
  14.4            0.006941        -0.0069398     
  14.3            0.0064508       -0.0064496     
  14.2            0.0059532       -0.0059518     
  14.1            0.0054532       -0.0054516     
  14              0.0049454       -0.0049432     
  13.9            0.004433        -0.0044308     
  13.8            0.003921        -0.0039192     
  13.7            0.003402        -0.0034        
  13.6            0.0028856       -0.0028836     
  13.5            0.0023644       -0.0023624     
  13.4            0.001845        -0.001843      
  13.3            0.001333        -0.001331      
  13.2            0.00082162      -0.00082096    
  13.1            0.00026558      -0.00026466    
  13              2.9548e-009     -3.0974e-009   
  12.9            1.809e-009      -1.8382e-009   
  12.8            1.385e-009      -1.3984e-009   
  12.7            1.1148e-009     -1.1124e-009   
  12.6            9.1764e-010     -9.358e-010    
  12.5            7.8112e-010     -7.728e-010    
  12.4            6.7492e-010     -6.808e-010    
  12.3            5.8678e-010     -5.9908e-010   
  12.2            5.145e-010      -5.082e-010    
  12.1            4.546e-010      -4.59e-010     
  12              4.0746e-010     -3.988e-010    
  11.9            3.674e-010      -3.7582e-010   
  11.8            3.3288e-010     -3.4906e-010   
  11.7            3.0206e-010     -2.9986e-010   
  11.6            2.7666e-010     -2.7186e-010   
  11.5            2.5252e-010     -2.5878e-010   
  11.4            2.3138e-010     -2.4844e-010   
  11.3            2.1314e-010     -2.0764e-010   
  11.2            1.9794e-010     -2.0022e-010   
  11.1            1.8396e-010     -1.7184e-010   
  11              1.7028e-010     -1.812e-010    
  10.9            1.5796e-010     -1.7674e-010   
  10.8            1.472e-010      -1.4808e-010   
  10.7            1.3732e-010     -1.351e-010    
  10.6            1.2836e-010     -1.3226e-010   
  10.5            1.196e-010      -1.2602e-010   
  10.4            1.126e-010      -1.1152e-010   
  10.3            1.0568e-010     -1.0214e-010   
  10.2            9.882e-011      -1.0012e-010   
  10.1            9.226e-011      -1.1012e-010   
  10              8.616e-011      -9.468e-011    
  9.9             8.282e-011      -8.804e-011    
  9.8             7.754e-011      -6.54e-011     
  9.7             7.312e-011      -7.324e-011    
  9.6             6.914e-011      -7.566e-011    
  9.5             6.576e-011      -7.448e-011    
  9.4             6.2e-011        -5.642e-011    
  9.3             5.844e-011      -5.788e-011    
  9.2             5.538e-011      -6.588e-011    
  9.1             5.268e-011      -6.56e-011     
  9               5.006e-011      -4.892e-011    
  8.9             4.718e-011      -3.552e-011    
  8.8             4.436e-011      -5.318e-011    
  8.7             4.29e-011       -5.73e-011     
  8.6             4.034e-011      -3.82e-011     
  8.5             3.802e-011      -3.498e-011    
  8.4             3.632e-011      -4.502e-011    
  8.3             3.444e-011      -4.714e-011    
  8.2             3.298e-011      -4.162e-011    
  8.1             3.142e-011      -3.104e-011    
  8               3e-011          -2.298e-011    
  7.9             2.85e-011       -3.058e-011    
  7.8             2.74e-011       -3.458e-011    
  7.7             2.618e-011      -2.104e-011    
  7.6             2.464e-011      -2.106e-011    
  7.5             2.326e-011      -2.664e-011    
  7.4             2.204e-011      -2.936e-011    
  7.3             2.13e-011       -2.678e-011    
  7.2             2.012e-011      -7.16e-012     
  7.1             1.934e-011      -1.768e-011    
  7               1.866e-011      -2.16e-011     
  6.9             1.776e-011      -2.442e-011    
  6.8             1.668e-011      -1.884e-011    
  6.7             1.584e-011      -2.166e-011    
  6.6             1.524e-011      -9.8e-012      
  6.5             1.434e-011      -2.524e-011    
  6.4             1.39e-011       -1.876e-011    
  6.3             1.3e-011        -5.04e-012     
  6.2             1.3e-011        -2.92e-012     
  6.1             1.218e-011      -2.186e-011    
  6               1.164e-011      -1.322e-011    
  5.9             1.078e-011      -1.35e-011     
  5.8             1.058e-011      -4.22e-012     
  5.7             1e-011          -1.344e-011    
  5.6             9.7e-012        -1.696e-011    
  5.5             9.18e-012       -2.75e-011     
  5.4             8.56e-012       -9.3e-012      
  5.3             8.5e-012        -2.4e-013      
  5.2             7.74e-012       -2.42e-012     
  5.1             7.78e-012       -4.26e-012     
  5               7.24e-012       -9.76e-012     
  4.9             7.32e-012       3.4e-012       
  4.8             6.62e-012       2.98e-012      
  4.7             6.58e-012       -5.98e-012     
  4.6             5.92e-012       -1.642e-011    
  4.5             6.18e-012       -4.8e-012      
  4.4             5.48e-012       6.58e-012      
  4.3             5.32e-012       5.26e-012      
  4.2             5.14e-012       -5.7e-012      
  4.1             4.94e-012       -5.02e-012     
  4               5.04e-012       1.016e-011     
  3.9             4.24e-012       -5.34e-012     
  3.8             4.34e-012       4e-013         
  3.7             3.7e-012        -7.8e-012      
  3.6             4.18e-012       1.038e-011     
  3.5             3.56e-012       1.46e-011      
  3.4             3.86e-012       1.78e-011      
  3.3             3.32e-012       -2e-013        
  3.2             3.52e-012       1.68e-012      
  3.1             3e-012          1.114e-011     
  3               3.02e-012       1.484e-011     
  2.9             2.8e-012        4.204e-011     
  2.8             2.7e-012        -8.44e-012     
  2.7             2.54e-012       1.926e-011     
  2.6             2.3e-012        1.938e-011     
  2.5             2.68e-012       1.378e-011     
  2.4             2.26e-012       5.88e-012      
  2.3             2.44e-012       5.034e-011     
  2.2             1.86e-012       1.612e-011     
  2.1             1.92e-012       2.632e-011     
  2               1.6e-012        4.62e-012      
  1.9             1.9e-012        7.44e-012      
  1.8             1.42e-012       2.894e-011     
  1.7             1.76e-012       2.908e-011     
  1.6             1.62e-012       2.59e-011      
  1.5             1.44e-012       1.784e-011     
  1.4             1.24e-012       2.16e-011      
  1.3             9.2e-013        2.914e-011     
  1.2             1.24e-012       3.998e-011     
  1.1             8.2e-013        2.194e-011     
  1               1.06e-012       1.972e-011     
  0.9             5.4e-013        3.314e-011     
  0.8             1.26e-012       4.124e-011     
  0.7             8.4e-013        3.854e-011     
  0.6             9.2e-013        1.854e-011     
  0.5             3.4e-013        2.972e-011     
  0.4             4.8e-013        3.356e-011     
  0.3             2.8e-013        3.924e-011     
  0.2             4e-013          4.124e-011     
  0.1             1.4e-013        4.28e-011      
  0               -6e-014         3.492e-011     
END_DB

