! VERSION = 6.00
BEGIN_HEADER
 ICCAP_INPUTS
  vc         V  cathode GROUND SMU1 0.1 CON        0
  va         V  anode GROUND SMU2 0.1 LIN        1    0          -1         51   -0.02     
 ICCAP_OUTPUTS
  ia         I  anode GROUND SMU2 B
  ic         I  cathode GROUND SMU1 B
 ICCAP_VALUES
  DataOrigin "Measure"
  ___CONTEXT ""
  Date "Jan 13 Thu 13:47:15 2022"
  Version "WaferPro.2016.01"
  Bench "B1500_B2200"
  Temperature "27"
  Lot "M135205"
  Reticle "M135205"
  Wafer "01D2"
  Die "X-3-Y0"
  DieList "TargetDie"
  Block "WholeDie"
  Subsite "diod1-5V"
  Routine "DIODE_EXTR_Measure"
  MeasCond "Set1"
  Device "9"
  DeviceName "ndiode_Dn5_A128B640"
  DevTechno "DIO"
  DevPolarity "N"
  Setup "iv_fwd"
  Type "1"
  ___SPICE_INSTANCE ""
  A "1.28E-006"
  B "6.4E-005"
  ___TECHNO_INSTANCE ""
  ___CALIBRATION ""
END_HEADER

BEGIN_DB
 ICCAP_VAR vc         0              

 #va              ia              ic             
  0               1.2e-013        -1.28e-012     
  -0.02           1.2e-013        -1.716e-011    
  -0.04           -1e-013         1.544e-011     
  -0.06           -5.4e-013       -3.94e-012     
  -0.08           -9.8e-013       -7.52e-012     
  -0.1            -1.48e-012      1.314e-011     
  -0.12           -2.44e-012      -7.9e-012      
  -0.14           -4e-012         4.26e-012      
  -0.16           -6.66e-012      4.58e-012      
  -0.18           -1.17e-011      1e-011         
  -0.2            -2.004e-011     2.772e-011     
  -0.22           -3.414e-011     1.534e-011     
  -0.24           -5.81e-011      5.974e-011     
  -0.26           -9.804e-011     9.986e-011     
  -0.28           -1.645e-010     1.6222e-010    
  -0.3            -2.7652e-010    2.7904e-010    
  -0.32           -4.62e-010      4.5918e-010    
  -0.34           -7.6974e-010    7.862e-010     
  -0.36           -1.276e-009     1.254e-009     
  -0.38           -2.1004e-009    2.078e-009     
  -0.4            -3.4556e-009    3.4154e-009    
  -0.42           -5.668e-009     5.5536e-009    
  -0.44           -9.2764e-009    9.0342e-009    
  -0.46           -1.5252e-008    1.4714e-008    
  -0.48           -2.5186e-008    2.4018e-008    
  -0.5            -4.2134e-008    4.1346e-008    
  -0.52           -7.1606e-008    7.149e-008     
  -0.54           -1.2372e-007    1.2364e-007    
  -0.56           -2.193e-007     2.1884e-007    
  -0.58           -3.9772e-007    3.961e-007     
  -0.6            -7.3682e-007    7.3624e-007    
  -0.62           -1.3968e-006    1.398e-006     
  -0.64           -2.6888e-006    2.6888e-006    
  -0.66           -5.2334e-006    5.2326e-006    
  -0.68           -1.01778e-005   1.01792e-005   
  -0.7            -1.9708e-005    1.9744e-005    
  -0.72           -3.759e-005     3.761e-005     
  -0.74           -7.0316e-005    7.0336e-005    
  -0.76           -0.00012712     0.00012722     
  -0.78           -0.00022044     0.00022054     
  -0.8            -0.00036416     0.0003643      
  -0.82           -0.00056782     0.00056792     
  -0.84           -0.00083872     0.00083878     
  -0.86           -0.0011752      0.0011766      
  -0.88           -0.0015778      0.001579       
  -0.9            -0.0020378      0.002039       
  -0.92           -0.002552       0.0025532      
  -0.94           -0.0031106      0.0031118      
  -0.96           -0.0037116      0.0037126      
  -0.98           -0.0043446      0.0043458      
  -1              -0.0050106      0.0050118      
END_DB

