! VERSION = 6.00
BEGIN_HEADER
 ICCAP_INPUTS
  vc         V  cathode GROUND SMU1 0.1 CON        0
  va         V  anode GROUND SMU2 0.1 LIN        1    0          -1         51   -0.02     
 ICCAP_OUTPUTS
  ia         I  anode GROUND SMU2 B
  ic         I  cathode GROUND SMU1 B
 ICCAP_VALUES
  DataOrigin "Measure"
  ___CONTEXT ""
  Date "Jan 13 Thu 13:31:02 2022"
  Version "WaferPro.2016.01"
  Bench "B1500_B2200"
  Temperature "27"
  Lot "M135205"
  Reticle "M135205"
  Wafer "01D2"
  Die "X-3-Y0"
  DieList "TargetDie"
  Block "WholeDie"
  Subsite "diod1-5V"
  Routine "DIODE_EXTR_Measure"
  MeasCond "Set1"
  Device "3"
  DeviceName "ndiode_Dn5_A032B320"
  DevTechno "DIO"
  DevPolarity "N"
  Setup "iv_fwd"
  Type "1"
  ___SPICE_INSTANCE ""
  A "3.2E-007"
  B "3.2E-005"
  ___TECHNO_INSTANCE ""
  ___CALIBRATION ""
END_HEADER

BEGIN_DB
 ICCAP_VAR vc         0              

 #va              ia              ic             
  0               -4e-013         -1.09e-011     
  -0.02           4.4e-013        1.8e-012       
  -0.04           5.6e-013        -4.86e-012     
  -0.06           3e-013          6.84e-012      
  -0.08           2e-014          -1.684e-011    
  -0.1            -9.6e-013       1.116e-011     
  -0.12           -2.32e-012      -2.26e-012     
  -0.14           -3.54e-012      4.04e-012      
  -0.16           -5.38e-012      1.048e-011     
  -0.18           -8.84e-012      2.48e-012      
  -0.2            -1.496e-011     7.12e-012      
  -0.22           -2.542e-011     3.04e-011      
  -0.24           -4.392e-011     3.296e-011     
  -0.26           -7.366e-011     8.032e-011     
  -0.28           -1.2246e-010    1.1044e-010    
  -0.3            -2.0158e-010    2.0016e-010    
  -0.32           -3.2942e-010    3.2168e-010    
  -0.34           -5.3494e-010    5.2436e-010    
  -0.36           -8.658e-010     8.686e-010     
  -0.38           -1.3906e-009    1.3744e-009    
  -0.4            -2.226e-009     2.2344e-009    
  -0.42           -3.5562e-009    3.5602e-009    
  -0.44           -5.6606e-009    5.6646e-009    
  -0.46           -9.0352e-009    9.0304e-009    
  -0.48           -1.4452e-008    1.4442e-008    
  -0.5            -2.3358e-008    2.3366e-008    
  -0.52           -3.8216e-008    3.8194e-008    
  -0.54           -6.3276e-008    6.3262e-008    
  -0.56           -1.07094e-007   1.07122e-007   
  -0.58           -1.8536e-007    1.8548e-007    
  -0.6            -3.2864e-007    3.2864e-007    
  -0.62           -5.9892e-007    5.9866e-007    
  -0.64           -1.11656e-006   1.1155e-006    
  -0.66           -2.126e-006     2.1264e-006    
  -0.68           -4.0968e-006    4.0962e-006    
  -0.7            -7.9608e-006    7.9586e-006    
  -0.72           -1.537e-005     1.5398e-005    
  -0.74           -2.9416e-005    2.9434e-005    
  -0.76           -5.4914e-005    5.494e-005     
  -0.78           -9.9154e-005    9.9166e-005    
  -0.8            -0.00017202     0.00017216     
  -0.82           -0.00028376     0.00028388     
  -0.84           -0.00044516     0.00044528     
  -0.86           -0.000663       0.00066314     
  -0.88           -0.00094404     0.00094416     
  -0.9            -0.0012878      0.001289       
  -0.92           -0.0016978      0.001699       
  -0.94           -0.0021676      0.0021688      
  -0.96           -0.002697       0.0026982      
  -0.98           -0.0032778      0.003279       
  -1              -0.0039096      0.0039106      
END_DB

