! VERSION = 6.00
BEGIN_HEADER
 ICCAP_INPUTS
  vc         V  cathode GROUND SMU1 0.1 CON        0
  va         V  anode GROUND SMU2 0.1 LIN        1    -15        0          151  0.1       
 ICCAP_OUTPUTS
  ia         I  anode GROUND SMU2 B
  ic         I  cathode GROUND SMU1 B
 ICCAP_VALUES
  DataOrigin "Measure"
  ___CONTEXT ""
  Date "Jan 12 Wed 14:12:25 2022"
  Version "WaferPro.2016.01"
  Bench "B1500_B2200"
  Temperature "85"
  Lot "M135205"
  Reticle "M135205"
  Wafer "01D2"
  Die "X-3-Y0"
  DieList "TargetDie"
  Block "WholeDie"
  Subsite "diod2-5V"
  Routine "DIODE_EXTR_Measure"
  MeasCond "Set1"
  Device "7"
  DeviceName "pdiode_Dp5_A032B640"
  DevTechno "DIO"
  DevPolarity "P"
  Setup "iv_rev"
  Type "-1"
  ___SPICE_INSTANCE ""
  A "3.2E-007"
  B "6.4E-005"
  ___TECHNO_INSTANCE ""
  ___CALIBRATION ""
END_HEADER

BEGIN_DB
 ICCAP_VAR vc         0              

 #va              ia              ic             
  -15             -0.010148       0.010298       
  -14.9           -0.009541       0.009582       
  -14.8           -0.0089908      0.0090106      
  -14.7           -0.0084358      0.0084518      
  -14.6           -0.007878       0.0078896      
  -14.5           -0.0073082      0.0073214      
  -14.4           -0.0067316      0.00674        
  -14.3           -0.0061412      0.0061462      
  -14.2           -0.0055416      0.005545       
  -14.1           -0.0049244      0.004928       
  -14             -0.0043034      0.0043006      
  -13.9           -0.0036676      0.0036672      
  -13.8           -0.0030148      0.003014       
  -13.7           -0.0023656      0.0023576      
  -13.6           -0.0016926      0.0016848      
  -13.5           -0.00100834     0.00099018     
  -13.4           -0.00022112     0.00020566     
  -13.3           -2.557e-007     2.0758e-007    
  -13.2           -6.6482e-008    6.405e-008     
  -13.1           -3.635e-008     3.5746e-008    
  -13             -2.4712e-008    2.4416e-008    
  -12.9           -1.8536e-008    1.8324e-008    
  -12.8           -1.4766e-008    1.458e-008     
  -12.7           -1.2196e-008    1.2042e-008    
  -12.6           -1.0346e-008    1.0236e-008    
  -12.5           -8.9492e-009    8.8646e-009    
  -12.4           -7.854e-009     7.786e-009     
  -12.3           -6.9736e-009    6.9098e-009    
  -12.2           -6.2462e-009    6.1836e-009    
  -12.1           -5.6456e-009    5.5878e-009    
  -12             -5.1312e-009    5.09e-009      
  -11.9           -4.6984e-009    4.6566e-009    
  -11.8           -4.3264e-009    4.28e-009      
  -11.7           -3.9938e-009    3.9578e-009    
  -11.6           -3.6956e-009    3.6562e-009    
  -11.5           -3.4348e-009    3.3938e-009    
  -11.4           -3.1972e-009    3.1628e-009    
  -11.3           -2.9826e-009    2.9512e-009    
  -11.2           -2.7948e-009    2.7604e-009    
  -11.1           -2.633e-009     2.5986e-009    
  -11             -2.476e-009     2.4448e-009    
  -10.9           -2.331e-009     2.2984e-009    
  -10.8           -2.2012e-009    2.1732e-009    
  -10.7           -2.0846e-009    2.0536e-009    
  -10.6           -1.97e-009      1.9396e-009    
  -10.5           -1.8726e-009    1.8422e-009    
  -10.4           -1.7774e-009    1.7466e-009    
  -10.3           -1.6888e-009    1.6592e-009    
  -10.2           -1.6096e-009    1.5786e-009    
  -10.1           -1.531e-009     1.5038e-009    
  -10             -1.4646e-009    1.4338e-009    
  -9.9            -1.3946e-009    1.3682e-009    
  -9.8            -1.3354e-009    1.3064e-009    
  -9.7            -1.2754e-009    1.2496e-009    
  -9.6            -1.2208e-009    1.1918e-009    
  -9.5            -1.169e-009     1.1406e-009    
  -9.4            -1.1206e-009    1.0918e-009    
  -9.3            -1.0754e-009    1.0466e-009    
  -9.2            -1.0322e-009    1.0038e-009    
  -9.1            -9.932e-010     9.6634e-010    
  -9              -9.5454e-010    9.2692e-010    
  -8.9            -9.1972e-010    8.931e-010     
  -8.8            -8.8286e-010    8.5706e-010    
  -8.7            -8.493e-010     8.2342e-010    
  -8.6            -8.1832e-010    7.9166e-010    
  -8.5            -7.8758e-010    7.6104e-010    
  -8.4            -7.5948e-010    7.3198e-010    
  -8.3            -7.305e-010     7.0382e-010    
  -8.2            -7.0396e-010    6.7738e-010    
  -8.1            -6.7906e-010    6.5214e-010    
  -8              -6.5652e-010    6.297e-010     
  -7.9            -6.326e-010     6.0622e-010    
  -7.8            -6.1236e-010    5.8428e-010    
  -7.7            -5.9046e-010    5.6302e-010    
  -7.6            -5.7224e-010    5.4308e-010    
  -7.5            -5.5434e-010    5.254e-010     
  -7.4            -5.3564e-010    5.0664e-010    
  -7.3            -5.1764e-010    4.888e-010     
  -7.2            -5.0052e-010    4.7294e-010    
  -7.1            -4.8498e-010    4.5728e-010    
  -7              -4.6978e-010    4.4216e-010    
  -6.9            -4.548e-010     4.2638e-010    
  -6.8            -4.405e-010     4.111e-010     
  -6.7            -4.2592e-010    3.9694e-010    
  -6.6            -4.1398e-010    3.8418e-010    
  -6.5            -4.0256e-010    3.7274e-010    
  -6.4            -3.9054e-010    3.6056e-010    
  -6.3            -3.7882e-010    3.4916e-010    
  -6.2            -3.6652e-010    3.3708e-010    
  -6.1            -3.5626e-010    3.2708e-010    
  -6              -3.4592e-010    3.1692e-010    
  -5.9            -3.3792e-010    3.0738e-010    
  -5.8            -3.273e-010     2.9716e-010    
  -5.7            -3.1886e-010    2.8706e-010    
  -5.6            -3.1008e-010    2.7918e-010    
  -5.5            -3.0204e-010    2.7052e-010    
  -5.4            -2.9452e-010    2.6374e-010    
  -5.3            -2.8624e-010    2.5452e-010    
  -5.2            -2.7864e-010    2.4784e-010    
  -5.1            -2.7112e-010    2.3978e-010    
  -5              -2.6474e-010    2.3324e-010    
  -4.9            -2.5778e-010    2.2626e-010    
  -4.8            -2.5246e-010    2.1866e-010    
  -4.7            -2.4444e-010    2.123e-010     
  -4.6            -2.391e-010     2.0526e-010    
  -4.5            -2.3314e-010    2.0074e-010    
  -4.4            -2.2784e-010    1.9428e-010    
  -4.3            -2.2282e-010    1.8952e-010    
  -4.2            -2.165e-010     1.8266e-010    
  -4.1            -2.1182e-010    1.789e-010     
  -4              -2.0684e-010    1.7338e-010    
  -3.9            -2.0316e-010    1.6832e-010    
  -3.8            -1.9814e-010    1.6378e-010    
  -3.7            -1.9402e-010    1.5788e-010    
  -3.6            -1.8938e-010    1.5444e-010    
  -3.5            -1.8544e-010    1.4942e-010    
  -3.4            -1.8216e-010    1.4712e-010    
  -3.3            -1.7816e-010    1.4176e-010    
  -3.2            -1.7404e-010    1.3868e-010    
  -3.1            -1.6984e-010    1.3398e-010    
  -3              -1.6668e-010    1.3036e-010    
  -2.9            -1.633e-010     1.2634e-010    
  -2.8            -1.607e-010     1.2218e-010    
  -2.7            -1.563e-010     1.189e-010     
  -2.6            -1.5328e-010    1.1474e-010    
  -2.5            -1.5002e-010    1.1258e-010    
  -2.4            -1.4694e-010    1.0848e-010    
  -2.3            -1.4436e-010    1.066e-010     
  -2.2            -1.4042e-010    1.0192e-010    
  -2.1            -1.3738e-010    9.892e-011     
  -2              -1.3354e-010    9.462e-011     
  -1.9            -1.311e-010     9.098e-011     
  -1.8            -1.278e-010     8.794e-011     
  -1.7            -1.2484e-010    8.354e-011     
  -1.6            -1.207e-010     8.048e-011     
  -1.5            -1.166e-010     7.634e-011     
  -1.4            -1.1274e-010    7.294e-011     
  -1.3            -1.0838e-010    6.784e-011     
  -1.2            -1.0382e-010    6.336e-011     
  -1.1            -9.822e-011     5.668e-011     
  -1              -9.266e-011     5.106e-011     
  -0.9            -8.696e-011     4.534e-011     
  -0.8            -8.146e-011     3.87e-011      
  -0.7            -7.438e-011     3.146e-011     
  -0.6            -6.716e-011     2.444e-011     
  -0.5            -5.942e-011     1.748e-011     
  -0.4            -5.168e-011     9.42e-012      
  -0.3            -4.42e-011      2.02e-012      
  -0.2            -3.562e-011     -7.68e-012     
  -0.1            -2.588e-011     -1.762e-011    
  0               2.4e-013        -4.346e-011    
END_DB

