! VERSION = 6.00
BEGIN_HEADER
 ICCAP_INPUTS
  vc         V  cathode GROUND SMU1 0.1 CON        0
  va         V  anode GROUND SMU2 0.1 LIN        1    0          1          51   0.02      
 ICCAP_OUTPUTS
  ia         I  anode GROUND SMU2 B
  ic         I  cathode GROUND SMU1 B
 ICCAP_VALUES
  DataOrigin "Measure"
  ___CONTEXT ""
  Date "Jan 12 Wed 14:12:25 2022"
  Version "WaferPro.2016.01"
  Bench "B1500_B2200"
  Temperature "85"
  Lot "M135205"
  Reticle "M135205"
  Wafer "01D2"
  Die "X-3-Y0"
  DieList "TargetDie"
  Block "WholeDie"
  Subsite "diod2-5V"
  Routine "DIODE_EXTR_Measure"
  MeasCond "Set1"
  Device "7"
  DeviceName "pdiode_Dp5_A032B640"
  DevTechno "DIO"
  DevPolarity "P"
  Setup "iv_fwd"
  Type "-1"
  ___SPICE_INSTANCE ""
  A "3.2E-007"
  B "6.4E-005"
  ___TECHNO_INSTANCE ""
  ___CALIBRATION ""
END_HEADER

BEGIN_DB
 ICCAP_VAR vc         0              

 #va              ia              ic             
  0               0               3.822e-011     
  0.02            1.266e-011      2.164e-011     
  0.04            3.254e-011      7.6e-013       
  0.06            6.33e-011       -3.104e-011    
  0.08            1.099e-010      -7.906e-011    
  0.1             1.823e-010      -1.5126e-010   
  0.12            2.9562e-010     -2.6304e-010   
  0.14            4.7002e-010     -4.3334e-010   
  0.16            7.3898e-010     -6.9272e-010   
  0.18            1.1502e-009     -1.0858e-009   
  0.2             1.7802e-009     -1.6802e-009   
  0.22            2.7322e-009     -2.5722e-009   
  0.24            4.1708e-009     -3.8974e-009   
  0.26            6.3478e-009     -5.876e-009    
  0.28            9.604e-009      -8.7852e-009   
  0.3             1.4508e-008     -1.3096e-008   
  0.32            2.1954e-008     -1.9426e-008   
  0.34            3.322e-008      -2.8622e-008   
  0.36            5.0588e-008     -4.209e-008    
  0.38            7.7148e-008     -6.1636e-008   
  0.4             1.1888e-007     -1.1738e-007   
  0.42            1.8558e-007     -1.8428e-007   
  0.44            2.93e-007       -2.9182e-007   
  0.46            4.702e-007      -4.684e-007    
  0.48            7.6404e-007     -7.6086e-007   
  0.5             1.2646e-006     -1.262e-006    
  0.52            2.115e-006      -2.1132e-006   
  0.54            3.584e-006      -3.584e-006    
  0.56            6.1406e-006     -6.1384e-006   
  0.58            1.05604e-005    -1.0551e-005   
  0.6             1.8214e-005     -1.8208e-005   
  0.62            3.1222e-005     -3.1216e-005   
  0.64            5.3096e-005     -5.3102e-005   
  0.66            8.8756e-005     -8.8724e-005   
  0.68            0.0001453       -0.00014524    
  0.7             0.00023106      -0.00023096    
  0.72            0.00035418      -0.00035408    
  0.74            0.0005236       -0.00052348    
  0.76            0.00074376      -0.00074366    
  0.78            0.00101972      -0.00101952    
  0.8             0.0013534       -0.001352      
  0.82            0.001741        -0.00174       
  0.84            0.0021842       -0.0021828     
  0.86            0.0026804       -0.002679      
  0.88            0.0032238       -0.0032224     
  0.9             0.0038142       -0.003813      
  0.92            0.0044446       -0.0044434     
  0.94            0.0051162       -0.0051148     
  0.96            0.0058204       -0.005819      
  0.98            0.0065586       -0.0065574     
  1               0.0073242       -0.0073232     
END_DB

