! VERSION = 6.00
BEGIN_HEADER
 ICCAP_INPUTS
  vc         V  cathode GROUND SMU1 0.1 CON        0
  va         V  anode GROUND SMU2 0.1 LIN        1    -15        0          151  0.1       
 ICCAP_OUTPUTS
  ia         I  anode GROUND SMU2 B
  ic         I  cathode GROUND SMU1 B
 ICCAP_VALUES
  DataOrigin "Measure"
  ___CONTEXT ""
  Date "Jan 12 Wed 14:16:06 2022"
  Version "WaferPro.2016.01"
  Bench "B1500_B2200"
  Temperature "85"
  Lot "M135205"
  Reticle "M135205"
  Wafer "01D2"
  Die "X-3-Y0"
  DieList "TargetDie"
  Block "WholeDie"
  Subsite "diod2-5V"
  Routine "DIODE_EXTR_Measure"
  MeasCond "Set1"
  Device "10"
  DeviceName "pdiode_Dp5_A32B640"
  DevTechno "DIO"
  DevPolarity "P"
  Setup "iv_rev"
  Type "-1"
  ___SPICE_INSTANCE ""
  A "3.2E-006"
  B "6.4E-005"
  ___TECHNO_INSTANCE ""
  ___CALIBRATION ""
END_HEADER

BEGIN_DB
 ICCAP_VAR vc         0              

 #va              ia              ic             
  -15             -0.011528       0.011616       
  -14.9           -0.011084       0.011112       
  -14.8           -0.010662       0.01068        
  -14.7           -0.01023        0.010246       
  -14.6           -0.0098022      0.0098068      
  -14.5           -0.0093578      0.009359       
  -14.4           -0.0089064      0.0089076      
  -14.3           -0.0084382      0.0084398      
  -14.2           -0.007964       0.0079642      
  -14.1           -0.0074738      0.007473       
  -14             -0.0069716      0.006971       
  -13.9           -0.0064608      0.00646        
  -13.8           -0.005934       0.0059334      
  -13.7           -0.0054004      0.0054002      
  -13.6           -0.0048524      0.0048522      
  -13.5           -0.0042982      0.0042978      
  -13.4           -0.0037306      0.00373        
  -13.3           -0.0031592      0.003159       
  -13.2           -0.0025768      0.0025768      
  -13.1           -0.0019896      0.0019896      
  -13             -0.0014036      0.0014038      
  -12.9           -0.00081078     0.00080984     
  -12.8           -8.2548e-006    8.2012e-006    
  -12.7           -1.3702e-008    1.5058e-008    
  -12.6           -6.3262e-009    6.429e-009     
  -12.5           -4.4642e-009    4.4772e-009    
  -12.4           -3.5088e-009    3.5378e-009    
  -12.3           -2.904e-009     2.9452e-009    
  -12.2           -2.478e-009     2.53e-009      
  -12.1           -2.1568e-009    2.2138e-009    
  -12             -1.9124e-009    1.965e-009     
  -11.9           -1.7098e-009    1.7656e-009    
  -11.8           -1.5462e-009    1.5978e-009    
  -11.7           -1.412e-009     1.4556e-009    
  -11.6           -1.294e-009     1.3434e-009    
  -11.5           -1.1886e-009    1.2356e-009    
  -11.4           -1.0956e-009    1.1422e-009    
  -11.3           -1.019e-009     1.0628e-009    
  -11.2           -9.4778e-010    9.882e-010     
  -11.1           -8.9066e-010    9.2404e-010    
  -11             -8.327e-010     8.6364e-010    
  -10.9           -7.7742e-010    8.1044e-010    
  -10.8           -7.3274e-010    7.6082e-010    
  -10.7           -6.9146e-010    7.155e-010     
  -10.6           -6.5062e-010    6.7096e-010    
  -10.5           -6.1398e-010    6.3346e-010    
  -10.4           -5.7722e-010    5.9868e-010    
  -10.3           -5.4702e-010    5.64e-010      
  -10.2           -5.2192e-010    5.3438e-010    
  -10.1           -4.9774e-010    5.0624e-010    
  -10             -4.7236e-010    4.7996e-010    
  -9.9            -4.4818e-010    4.5494e-010    
  -9.8            -4.2466e-010    4.3396e-010    
  -9.7            -4.0666e-010    4.109e-010     
  -9.6            -3.904e-010     3.911e-010     
  -9.5            -3.7046e-010    3.704e-010     
  -9.4            -3.5382e-010    3.538e-010     
  -9.3            -3.367e-010     3.3648e-010    
  -9.2            -3.2574e-010    3.2158e-010    
  -9.1            -3.1284e-010    3.0636e-010    
  -9              -3.006e-010     2.9146e-010    
  -8.9            -2.8552e-010    2.7888e-010    
  -8.8            -2.7294e-010    2.655e-010     
  -8.7            -2.6364e-010    2.5528e-010    
  -8.6            -2.5468e-010    2.4308e-010    
  -8.5            -2.4658e-010    2.332e-010     
  -8.4            -2.338e-010     2.217e-010     
  -8.3            -2.2412e-010    2.1216e-010    
  -8.2            -2.1722e-010    2.0316e-010    
  -8.1            -2.123e-010     1.9458e-010    
  -8              -2.0464e-010    1.8678e-010    
  -7.9            -1.9562e-010    1.7704e-010    
  -7.8            -1.8626e-010    1.703e-010     
  -7.7            -1.797e-010     1.6232e-010    
  -7.6            -1.7634e-010    1.5692e-010    
  -7.5            -1.7066e-010    1.4954e-010    
  -7.4            -1.648e-010     1.4332e-010    
  -7.3            -1.5664e-010    1.3644e-010    
  -7.2            -1.5294e-010    1.3134e-010    
  -7.1            -1.494e-010     1.2626e-010    
  -7              -1.4636e-010    1.2114e-010    
  -6.9            -1.3974e-010    1.1632e-010    
  -6.8            -1.3278e-010    1.1034e-010    
  -6.7            -1.2898e-010    1.0682e-010    
  -6.6            -1.2684e-010    1.0256e-010    
  -6.5            -1.2508e-010    9.822e-011     
  -6.4            -1.1992e-010    9.332e-011     
  -6.3            -1.1412e-010    8.894e-011     
  -6.2            -1.1004e-010    8.51e-011      
  -6.1            -1.0902e-010    8.174e-011     
  -6              -1.0784e-010    7.95e-011      
  -5.9            -1.041e-010     7.586e-011     
  -5.8            -9.838e-011     7.286e-011     
  -5.7            -9.444e-011     6.946e-011     
  -5.6            -9.37e-011      6.68e-011      
  -5.5            -9.274e-011     6.412e-011     
  -5.4            -9.082e-011     6.076e-011     
  -5.3            -8.582e-011     5.758e-011     
  -5.2            -8.252e-011     5.46e-011      
  -5.1            -8.22e-011      5.338e-011     
  -5              -8.194e-011     5.138e-011     
  -4.9            -7.992e-011     4.98e-011      
  -4.8            -7.52e-011      4.684e-011     
  -4.7            -7.216e-011     4.422e-011     
  -4.6            -7.116e-011     4.274e-011     
  -4.5            -7.228e-011     4.058e-011     
  -4.4            -7.136e-011     3.89e-011      
  -4.3            -6.752e-011     3.62e-011      
  -4.2            -6.442e-011     3.462e-011     
  -4.1            -6.29e-011      3.294e-011     
  -4              -6.416e-011     3.242e-011     
  -3.9            -6.286e-011     3.054e-011     
  -3.8            -6.03e-011      2.88e-011      
  -3.7            -5.702e-011     2.698e-011     
  -3.6            -5.612e-011     2.476e-011     
  -3.5            -5.688e-011     2.426e-011     
  -3.4            -5.698e-011     2.19e-011      
  -3.3            -5.49e-011      2.098e-011     
  -3.2            -5.108e-011     1.882e-011     
  -3.1            -5.018e-011     1.87e-011      
  -3              -5.026e-011     1.758e-011     
  -2.9            -5.13e-011      1.704e-011     
  -2.8            -4.878e-011     1.484e-011     
  -2.7            -4.612e-011     1.244e-011     
  -2.6            -4.408e-011     1.188e-011     
  -2.5            -4.566e-011     1.042e-011     
  -2.4            -4.67e-011      1.04e-011      
  -2.3            -4.496e-011     7.94e-012      
  -2.2            -4.248e-011     7.28e-012      
  -2.1            -3.872e-011     5.54e-012      
  -2              -3.962e-011     5.62e-012      
  -1.9            -3.984e-011     4.16e-012      
  -1.8            -3.994e-011     2.7e-012       
  -1.7            -3.664e-011     7.2e-013       
  -1.6            -3.414e-011     -2.1e-012      
  -1.5            -3.328e-011     -1.98e-012     
  -1.4            -3.396e-011     -4.32e-012     
  -1.3            -3.374e-011     -4.62e-012     
  -1.2            -3.03e-011      -7.62e-012     
  -1.1            -2.718e-011     -9.1e-012      
  -1              -2.37e-011      -1.188e-011    
  -0.9            -2.38e-011      -1.35e-011     
  -0.8            -2.21e-011      -1.614e-011    
  -0.7            -1.982e-011     -1.976e-011    
  -0.6            -1.534e-011     -2.182e-011    
  -0.5            -1.302e-011     -2.554e-011    
  -0.4            -1.198e-011     -2.648e-011    
  -0.3            -1.046e-011     -2.97e-011     
  -0.2            -8.5e-012       -3.14e-011     
  -0.1            -3.44e-012      -3.482e-011    
  0               1.62e-012       -3.874e-011    
END_DB

