! VERSION = 6.00
BEGIN_HEADER
 ICCAP_INPUTS
  vc         V  cathode GROUND SMU1 0.1 CON        0
  va         V  anode GROUND SMU2 0.1 LIN        1    -15        0          151  0.1       
 ICCAP_OUTPUTS
  ia         I  anode GROUND SMU2 B
  ic         I  cathode GROUND SMU1 B
 ICCAP_VALUES
  DataOrigin "Measure"
  ___CONTEXT ""
  Date "Jan 12 Wed 14:14:52 2022"
  Version "WaferPro.2016.01"
  Bench "B1500_B2200"
  Temperature "85"
  Lot "M135205"
  Reticle "M135205"
  Wafer "01D2"
  Die "X-3-Y0"
  DieList "TargetDie"
  Block "WholeDie"
  Subsite "diod2-5V"
  Routine "DIODE_EXTR_Measure"
  MeasCond "Set1"
  Device "9"
  DeviceName "pdiode_Dp5_A128B640"
  DevTechno "DIO"
  DevPolarity "P"
  Setup "iv_rev"
  Type "-1"
  ___SPICE_INSTANCE ""
  A "1.28E-006"
  B "6.4E-005"
  ___TECHNO_INSTANCE ""
  ___CALIBRATION ""
END_HEADER

BEGIN_DB
 ICCAP_VAR vc         0              

 #va              ia              ic             
  -15             -0.011842       0.011932       
  -14.9           -0.011374       0.0114         
  -14.8           -0.010926       0.010946       
  -14.7           -0.010472       0.010488       
  -14.6           -0.010016       0.01003        
  -14.5           -0.0095536      0.009558       
  -14.4           -0.0090788      0.0090804      
  -14.3           -0.008588       0.0085896      
  -14.2           -0.0080892      0.0080896      
  -14.1           -0.0075734      0.0075734      
  -14             -0.0070464      0.0070458      
  -13.9           -0.0065124      0.0065112      
  -13.8           -0.0059606      0.0059598      
  -13.7           -0.0054014      0.005401       
  -13.6           -0.0048262      0.0048252      
  -13.5           -0.0042446      0.0042438      
  -13.4           -0.0036474      0.003647       
  -13.3           -0.0030458      0.003045       
  -13.2           -0.00243        0.0024296      
  -13.1           -0.0018044      0.001804       
  -13             -0.0011698      0.0011692      
  -12.9           -0.00044964     0.00044734     
  -12.8           -5.808e-008     5.928e-008     
  -12.7           -1.2492e-008    1.2458e-008    
  -12.6           -7.8194e-009    7.8396e-009    
  -12.5           -5.8778e-009    5.9022e-009    
  -12.4           -4.749e-009     4.7872e-009    
  -12.3           -4.002e-009     4.048e-009     
  -12.2           -3.4478e-009    3.4968e-009    
  -12.1           -3.0246e-009    3.0758e-009    
  -12             -2.6902e-009    2.7446e-009    
  -11.9           -2.4146e-009    2.471e-009     
  -11.8           -2.1836e-009    2.2376e-009    
  -11.7           -1.9928e-009    2.0436e-009    
  -11.6           -1.8264e-009    1.8748e-009    
  -11.5           -1.68e-009      1.727e-009     
  -11.4           -1.5552e-009    1.5996e-009    
  -11.3           -1.4386e-009    1.484e-009     
  -11.2           -1.3382e-009    1.3792e-009    
  -11.1           -1.2498e-009    1.2884e-009    
  -11             -1.1698e-009    1.205e-009     
  -10.9           -1.0976e-009    1.1304e-009    
  -10.8           -1.0314e-009    1.064e-009     
  -10.7           -9.7292e-010    1.0006e-009    
  -10.6           -9.1478e-010    9.4162e-010    
  -10.5           -8.6448e-010    8.9e-010       
  -10.4           -8.1914e-010    8.4076e-010    
  -10.3           -7.7516e-010    7.9368e-010    
  -10.2           -7.3494e-010    7.5084e-010    
  -10.1           -6.9634e-010    7.1134e-010    
  -10             -6.639e-010     6.7518e-010    
  -9.9            -6.3166e-010    6.4236e-010    
  -9.8            -6.0306e-010    6.105e-010     
  -9.7            -5.7436e-010    5.8166e-010    
  -9.6            -5.4702e-010    5.534e-010     
  -9.5            -5.2236e-010    5.2778e-010    
  -9.4            -4.9802e-010    5.0078e-010    
  -9.3            -4.768e-010     4.765e-010     
  -9.2            -4.5614e-010    4.5502e-010    
  -9.1            -4.3798e-010    4.357e-010     
  -9              -4.2054e-010    4.1736e-010    
  -8.9            -4.0448e-010    3.9864e-010    
  -8.8            -3.887e-010     3.8258e-010    
  -8.7            -3.7222e-010    3.6396e-010    
  -8.6            -3.5666e-010    3.498e-010     
  -8.5            -3.4154e-010    3.3242e-010    
  -8.4            -3.2914e-010    3.1902e-010    
  -8.3            -3.172e-010     3.0548e-010    
  -8.2            -3.0676e-010    2.9128e-010    
  -8.1            -2.9386e-010    2.79e-010      
  -8              -2.8304e-010    2.6754e-010    
  -7.9            -2.7226e-010    2.5674e-010    
  -7.8            -2.6316e-010    2.4516e-010    
  -7.7            -2.5414e-010    2.3666e-010    
  -7.6            -2.4448e-010    2.2586e-010    
  -7.5            -2.3604e-010    2.17e-010      
  -7.4            -2.275e-010     2.0768e-010    
  -7.3            -2.2122e-010    1.9906e-010    
  -7.2            -2.1362e-010    1.9088e-010    
  -7.1            -2.0592e-010    1.8254e-010    
  -7              -1.987e-010     1.7612e-010    
  -6.9            -1.9224e-010    1.6864e-010    
  -6.8            -1.8666e-010    1.6336e-010    
  -6.7            -1.8062e-010    1.5532e-010    
  -6.6            -1.748e-010     1.4998e-010    
  -6.5            -1.687e-010     1.432e-010     
  -6.4            -1.6404e-010    1.3802e-010    
  -6.3            -1.5954e-010    1.3334e-010    
  -6.2            -1.555e-010     1.2772e-010    
  -6.1            -1.502e-010     1.2318e-010    
  -6              -1.4546e-010    1.1764e-010    
  -5.9            -1.4114e-010    1.1464e-010    
  -5.8            -1.3732e-010    1.0926e-010    
  -5.7            -1.339e-010     1.0604e-010    
  -5.6            -1.298e-010     1.0116e-010    
  -5.5            -1.258e-010     9.694e-011     
  -5.4            -1.2158e-010    9.314e-011     
  -5.3            -1.1966e-010    8.958e-011     
  -5.2            -1.168e-010     8.668e-011     
  -5.1            -1.1388e-010    8.292e-011     
  -5              -1.1004e-010    8.028e-011     
  -4.9            -1.0662e-010    7.684e-011     
  -4.8            -1.0468e-010    7.532e-011     
  -4.7            -1.0284e-010    7.186e-011     
  -4.6            -1.0036e-010    6.946e-011     
  -4.5            -9.678e-011     6.532e-011     
  -4.4            -9.45e-011      6.256e-011     
  -4.3            -9.218e-011     6.076e-011     
  -4.2            -9.11e-011      5.878e-011     
  -4.1            -8.884e-011     5.664e-011     
  -4              -8.632e-011     5.368e-011     
  -3.9            -8.374e-011     5.196e-011     
  -3.8            -8.188e-011     4.97e-011      
  -3.7            -8.094e-011     4.88e-011      
  -3.6            -7.938e-011     4.62e-011      
  -3.5            -7.73e-011      4.328e-011     
  -3.4            -7.478e-011     4.14e-011      
  -3.3            -7.356e-011     3.936e-011     
  -3.2            -7.238e-011     3.856e-011     
  -3.1            -7.122e-011     3.686e-011     
  -3              -6.906e-011     3.46e-011      
  -2.9            -6.682e-011     3.262e-011     
  -2.8            -6.562e-011     3.162e-011     
  -2.7            -6.488e-011     3.014e-011     
  -2.6            -6.414e-011     2.858e-011     
  -2.5            -6.262e-011     2.648e-011     
  -2.4            -6.072e-011     2.432e-011     
  -2.3            -5.924e-011     2.326e-011     
  -2.2            -5.848e-011     2.248e-011     
  -2.1            -5.758e-011     2.138e-011     
  -2              -5.58e-011      1.938e-011     
  -1.9            -5.394e-011     1.736e-011     
  -1.8            -5.218e-011     1.536e-011     
  -1.7            -5.11e-011      1.42e-011      
  -1.6            -4.998e-011     1.218e-011     
  -1.5            -4.828e-011     9.72e-012      
  -1.4            -4.594e-011     7.52e-012      
  -1.3            -4.35e-011      5.14e-012      
  -1.2            -4.13e-011      3.64e-012      
  -1.1            -3.924e-011     1.32e-012      
  -1              -3.678e-011     -1.64e-012     
  -0.9            -3.312e-011     -5.34e-012     
  -0.8            -2.982e-011     -9.06e-012     
  -0.7            -2.664e-011     -1.24e-011     
  -0.6            -2.39e-011      -1.584e-011    
  -0.5            -2.09e-011      -1.89e-011     
  -0.4            -1.73e-011      -2.278e-011    
  -0.3            -1.378e-011     -2.59e-011     
  -0.2            -1.032e-011     -2.946e-011    
  -0.1            -7.36e-012      -3.238e-011    
  0               4e-014          -3.98e-011     
END_DB

