! VERSION = 6.00
BEGIN_HEADER
 ICCAP_INPUTS
  vc         V  cathode GROUND SMU1 0.1 CON        0
  va         V  anode GROUND SMU2 0.1 LIN        1    -15        0          151  0.1       
 ICCAP_OUTPUTS
  ia         I  anode GROUND SMU2 B
  ic         I  cathode GROUND SMU1 B
 ICCAP_VALUES
  DataOrigin "Measure"
  ___CONTEXT ""
  Date "Jan 12 Wed 14:07:34 2022"
  Version "WaferPro.2016.01"
  Bench "B1500_B2200"
  Temperature "85"
  Lot "M135205"
  Reticle "M135205"
  Wafer "01D2"
  Die "X-3-Y0"
  DieList "TargetDie"
  Block "WholeDie"
  Subsite "diod2-5V"
  Routine "DIODE_EXTR_Measure"
  MeasCond "Set1"
  Device "3"
  DeviceName "pdiode_Dp5_A032B320"
  DevTechno "DIO"
  DevPolarity "P"
  Setup "iv_rev"
  Type "-1"
  ___SPICE_INSTANCE ""
  A "3.2E-007"
  B "3.2E-005"
  ___TECHNO_INSTANCE ""
  ___CALIBRATION ""
END_HEADER

BEGIN_DB
 ICCAP_VAR vc         0              

 #va              ia              ic             
  -15             -0.0054394      0.0054936      
  -14.9           -0.0051398      0.0051572      
  -14.8           -0.0048508      0.0048622      
  -14.7           -0.0045572      0.004568       
  -14.6           -0.0042602      0.0042668      
  -14.5           -0.0039582      0.0039626      
  -14.4           -0.0036514      0.0036576      
  -14.3           -0.0033356      0.0033374      
  -14.2           -0.0030194      0.0030224      
  -14.1           -0.002692       0.0026938      
  -14             -0.0023546      0.0023562      
  -13.9           -0.002016       0.0020166      
  -13.8           -0.0016708      0.0016706      
  -13.7           -0.0013208      0.0013186      
  -13.6           -0.00096774     0.00096432     
  -13.5           -0.00060386     0.00059748     
  -13.4           -0.0001858      0.0001615      
  -13.3           -2.0012e-007    1.4514e-007    
  -13.2           -3.9546e-008    3.7482e-008    
  -13.1           -2.051e-008     1.986e-008     
  -13             -1.373e-008     1.329e-008     
  -12.9           -1.0256e-008    9.987e-009     
  -12.8           -8.1796e-009    7.9156e-009    
  -12.7           -6.727e-009     6.5612e-009    
  -12.6           -5.68e-009      5.5524e-009    
  -12.5           -4.904e-009     4.781e-009     
  -12.4           -4.2934e-009    4.1868e-009    
  -12.3           -3.8086e-009    3.7116e-009    
  -12.2           -3.4074e-009    3.313e-009     
  -12.1           -3.0788e-009    2.998e-009     
  -12             -2.8018e-009    2.72e-009      
  -11.9           -2.5602e-009    2.4852e-009    
  -11.8           -2.3494e-009    2.279e-009     
  -11.7           -2.1744e-009    2.1052e-009    
  -11.6           -2.0096e-009    1.945e-009     
  -11.5           -1.867e-009     1.8056e-009    
  -11.4           -1.7376e-009    1.6812e-009    
  -11.3           -1.6274e-009    1.5656e-009    
  -11.2           -1.5246e-009    1.466e-009     
  -11.1           -1.4278e-009    1.3736e-009    
  -11             -1.3442e-009    1.2896e-009    
  -10.9           -1.2634e-009    1.2134e-009    
  -10.8           -1.1934e-009    1.1426e-009    
  -10.7           -1.1268e-009    1.0782e-009    
  -10.6           -1.0702e-009    1.019e-009     
  -10.5           -1.0128e-009    9.6906e-010    
  -10.4           -9.6188e-010    9.1776e-010    
  -10.3           -9.1928e-010    8.7098e-010    
  -10.2           -8.745e-010     8.2944e-010    
  -10.1           -8.3162e-010    7.87e-010      
  -10             -7.925e-010     7.4976e-010    
  -9.9            -7.5656e-010    7.1324e-010    
  -9.8            -7.2264e-010    6.7864e-010    
  -9.7            -6.9068e-010    6.454e-010     
  -9.6            -6.6122e-010    6.1828e-010    
  -9.5            -6.2974e-010    5.8768e-010    
  -9.4            -6.0562e-010    5.6192e-010    
  -9.3            -5.8018e-010    5.3612e-010    
  -9.2            -5.5772e-010    5.1194e-010    
  -9.1            -5.3494e-010    4.9246e-010    
  -9              -5.1062e-010    4.686e-010     
  -8.9            -4.9284e-010    4.5064e-010    
  -8.8            -4.7568e-010    4.3142e-010    
  -8.7            -4.5862e-010    4.1408e-010    
  -8.6            -4.3958e-010    3.9622e-010    
  -8.5            -4.224e-010     3.8046e-010    
  -8.4            -4.0622e-010    3.6364e-010    
  -8.3            -3.9354e-010    3.487e-010     
  -8.2            -3.7892e-010    3.3462e-010    
  -8.1            -3.6504e-010    3.2144e-010    
  -8              -3.5042e-010    3.0962e-010    
  -7.9            -3.3832e-010    2.953e-010     
  -7.8            -3.2788e-010    2.8366e-010    
  -7.7            -3.1672e-010    2.7166e-010    
  -7.6            -3.0658e-010    2.6164e-010    
  -7.5            -2.9448e-010    2.5096e-010    
  -7.4            -2.8486e-010    2.4064e-010    
  -7.3            -2.7728e-010    2.3166e-010    
  -7.2            -2.6952e-010    2.2238e-010    
  -7.1            -2.6002e-010    2.1488e-010    
  -7              -2.4972e-010    2.0578e-010    
  -6.9            -2.42e-010      1.978e-010     
  -6.8            -2.3492e-010    1.8862e-010    
  -6.7            -2.29e-010      1.8142e-010    
  -6.6            -2.219e-010     1.7438e-010    
  -6.5            -2.1466e-010    1.6802e-010    
  -6.4            -2.0732e-010    1.6138e-010    
  -6.3            -2.0262e-010    1.5456e-010    
  -6.2            -1.9736e-010    1.495e-010     
  -6.1            -1.9218e-010    1.4368e-010    
  -6              -1.8484e-010    1.3794e-010    
  -5.9            -1.7866e-010    1.3244e-010    
  -5.8            -1.7448e-010    1.2624e-010    
  -5.7            -1.7054e-010    1.2064e-010    
  -5.6            -1.6652e-010    1.1626e-010    
  -5.5            -1.6116e-010    1.1142e-010    
  -5.4            -1.5618e-010    1.0732e-010    
  -5.3            -1.5202e-010    1.033e-010     
  -5.2            -1.4898e-010    9.822e-011     
  -5.1            -1.457e-010     9.458e-011     
  -5              -1.4102e-010    9.004e-011     
  -4.9            -1.367e-010     8.672e-011     
  -4.8            -1.3332e-010    8.328e-011     
  -4.7            -1.3136e-010    7.878e-011     
  -4.6            -1.2888e-010    7.526e-011     
  -4.5            -1.2542e-010    7.264e-011     
  -4.4            -1.2098e-010    7.016e-011     
  -4.3            -1.1784e-010    6.654e-011     
  -4.2            -1.163e-010     6.368e-011     
  -4.1            -1.1438e-010    6.03e-011      
  -4              -1.113e-010     5.806e-011     
  -3.9            -1.0744e-010    5.576e-011     
  -3.8            -1.0472e-010    5.188e-011     
  -3.7            -1.0346e-010    4.938e-011     
  -3.6            -1.025e-010     4.672e-011     
  -3.5            -9.994e-011     4.494e-011     
  -3.4            -9.64e-011      4.314e-011     
  -3.3            -9.402e-011     4.132e-011     
  -3.2            -9.26e-011      3.838e-011     
  -3.1            -9.172e-011     3.59e-011      
  -3              -8.966e-011     3.438e-011     
  -2.9            -8.678e-011     3.16e-011      
  -2.8            -8.402e-011     3.016e-011     
  -2.7            -8.294e-011     2.744e-011     
  -2.6            -8.268e-011     2.608e-011     
  -2.5            -8.086e-011     2.406e-011     
  -2.4            -7.864e-011     2.292e-011     
  -2.3            -7.508e-011     2.06e-011      
  -2.2            -7.388e-011     1.938e-011     
  -2.1            -7.34e-011      1.738e-011     
  -2              -7.26e-011      1.488e-011     
  -1.9            -6.98e-011      1.386e-011     
  -1.8            -6.718e-011     1.088e-011     
  -1.7            -6.55e-011      9.64e-012      
  -1.6            -6.474e-011     7.12e-012      
  -1.5            -6.388e-011     5.68e-012      
  -1.4            -6.048e-011     3.82e-012      
  -1.3            -5.74e-011      1.96e-012      
  -1.2            -5.448e-011     -2.8e-013      
  -1.1            -5.332e-011     -4.46e-012     
  -1              -5.15e-011      -6.9e-012      
  -0.9            -4.856e-011     -1.046e-011    
  -0.8            -4.42e-011      -1.238e-011    
  -0.7            -4.01e-011      -1.646e-011    
  -0.6            -3.76e-011      -1.978e-011    
  -0.5            -3.428e-011     -2.448e-011    
  -0.4            -3.054e-011     -2.786e-011    
  -0.3            -2.44e-011      -3.186e-011    
  -0.2            -1.952e-011     -3.676e-011    
  -0.1            -1.456e-011     -4.23e-011     
  0               -8.8e-013       -5.904e-011    
END_DB

