! VERSION = 6.00
BEGIN_HEADER
 ICCAP_INPUTS
  vc         V  cathode GROUND SMU1 0.1 CON        0
  va         V  anode GROUND SMU2 0.1 LIN        1    0          1          51   0.02      
 ICCAP_OUTPUTS
  ia         I  anode GROUND SMU2 B
  ic         I  cathode GROUND SMU1 B
 ICCAP_VALUES
  DataOrigin "Measure"
  ___CONTEXT ""
  Date "Jan 12 Wed 14:05:08 2022"
  Version "WaferPro.2016.01"
  Bench "B1500_B2200"
  Temperature "85"
  Lot "M135205"
  Reticle "M135205"
  Wafer "01D2"
  Die "X-3-Y0"
  DieList "TargetDie"
  Block "WholeDie"
  Subsite "diod2-5V"
  Routine "DIODE_EXTR_Measure"
  MeasCond "Set1"
  Device "1"
  DeviceName "pdiode_Dp5_A032B032"
  DevTechno "DIO"
  DevPolarity "P"
  Setup "iv_fwd"
  Type "-1"
  ___SPICE_INSTANCE ""
  A "3.2E-007"
  B "3.2E-007"
  ___TECHNO_INSTANCE ""
  ___CALIBRATION ""
END_HEADER

BEGIN_DB
 ICCAP_VAR vc         0              

 #va              ia              ic             
  0               5.4e-013        1.982e-011     
  0.02            3.6e-013        1.328e-011     
  0.04            4e-013          1.018e-011     
  0.06            6.2e-013        7.76e-012      
  0.08            1.28e-012       4.78e-012      
  0.1             2.92e-012       1.8e-012       
  0.12            5.04e-012       -2.2e-013      
  0.14            7.4e-012        -4.46e-012     
  0.16            1.064e-011      -9.84e-012     
  0.18            1.642e-011      -1.71e-011     
  0.2             2.534e-011      -2.63e-011     
  0.22            3.926e-011      -4.04e-011     
  0.24            5.976e-011      -5.95e-011     
  0.26            9.108e-011      -8.886e-011    
  0.28            1.362e-010      -1.3106e-010   
  0.3             2.0622e-010     -1.9396e-010   
  0.32            3.1164e-010     -2.85e-010     
  0.34            4.7358e-010     -4.1918e-010   
  0.36            7.2564e-010     -6.1688e-010   
  0.38            1.10812e-009    -8.9978e-010   
  0.4             1.711e-009      -1.3514e-009   
  0.42            2.6776e-009     -2.1204e-009   
  0.44            4.2178e-009     -3.4786e-009   
  0.46            6.7596e-009     -6.099e-009    
  0.48            1.09214e-008    -1.02568e-008  
  0.5             1.7968e-008     -1.7394e-008   
  0.52            2.9892e-008     -2.847e-008    
  0.54            5.002e-008      -4.8714e-008   
  0.56            8.4442e-008     -8.323e-008    
  0.58            1.4262e-007     -1.423e-007    
  0.6             2.4038e-007     -2.3954e-007   
  0.62            4.0084e-007     -4.0024e-007   
  0.64            6.609e-007      -6.6016e-007   
  0.66            1.07048e-006    -1.0698e-006   
  0.68            1.7022e-006     -1.7016e-006   
  0.7             2.6474e-006     -2.6484e-006   
  0.72            4.0158e-006     -4.0142e-006   
  0.74            5.9292e-006     -5.928e-006    
  0.76            8.4752e-006     -8.4762e-006   
  0.78            1.175e-005      -1.1732e-005   
  0.8             1.5726e-005     -1.5712e-005   
  0.82            2.037e-005      -2.0348e-005   
  0.84            2.5644e-005     -2.5624e-005   
  0.86            3.145e-005      -3.1436e-005   
  0.88            3.7674e-005     -3.766e-005    
  0.9             4.4288e-005     -4.4272e-005   
  0.92            5.1268e-005     -5.1208e-005   
  0.94            5.848e-005      -5.8458e-005   
  0.96            6.5914e-005     -6.5882e-005   
  0.98            7.3576e-005     -7.3578e-005   
  1               8.1438e-005     -8.1392e-005   
END_DB

