! VERSION = 6.00
BEGIN_HEADER
 ICCAP_INPUTS
  vc         V  cathode GROUND SMU1 0.1 CON        0
  va         V  anode GROUND SMU2 0.1 LIN        1    -15        0          151  0.1       
 ICCAP_OUTPUTS
  ia         I  anode GROUND SMU2 B
  ic         I  cathode GROUND SMU1 B
 ICCAP_VALUES
  DataOrigin "Measure"
  ___CONTEXT ""
  Date "Jan 12 Wed 14:11:12 2022"
  Version "WaferPro.2016.01"
  Bench "B1500_B2200"
  Temperature "85"
  Lot "M135205"
  Reticle "M135205"
  Wafer "01D2"
  Die "X-3-Y0"
  DieList "TargetDie"
  Block "WholeDie"
  Subsite "diod2-5V"
  Routine "DIODE_EXTR_Measure"
  MeasCond "Set1"
  Device "6"
  DeviceName "pdiode_Dp5_A320B320"
  DevTechno "DIO"
  DevPolarity "P"
  Setup "iv_rev"
  Type "-1"
  ___SPICE_INSTANCE ""
  A "3.2E-005"
  B "3.2E-005"
  ___TECHNO_INSTANCE ""
  ___CALIBRATION ""
END_HEADER

BEGIN_DB
 ICCAP_VAR vc         0              

 #va              ia              ic             
  -15             -0.005922       0.005928       
  -14.9           -0.0056944      0.005706       
  -14.8           -0.0054738      0.0054814      
  -14.7           -0.0052496      0.0052566      
  -14.6           -0.0050338      0.005036       
  -14.5           -0.0047978      0.0048         
  -14.4           -0.0045698      0.0045666      
  -14.3           -0.0043252      0.0043264      
  -14.2           -0.0040824      0.0040832      
  -14.1           -0.0038206      0.0038202      
  -14             -0.0035622      0.0035656      
  -13.9           -0.0033022      0.0033018      
  -13.8           -0.0030322      0.0030318      
  -13.7           -0.002757       0.002753       
  -13.6           -0.0024714      0.0024764      
  -13.5           -0.0021878      0.0021856      
  -13.4           -0.0018974      0.0019004      
  -13.3           -0.001605       0.001602       
  -13.2           -0.0013074      0.0013074      
  -13.1           -0.00100828     0.0010068      
  -13             -0.00070928     0.00070918     
  -12.9           -0.00039962     0.00040478     
  -12.8           -3.775e-006     3.7016e-006    
  -12.7           -1.5122e-007    1.5158e-007    
  -12.6           -1.174e-008     1.1826e-008    
  -12.5           -4.5862e-009    4.6776e-009    
  -12.4           -3.0298e-009    3.1218e-009    
  -12.3           -2.338e-009     2.426e-009     
  -12.2           -1.9148e-009    1.9976e-009    
  -12.1           -1.621e-009     1.7e-009       
  -12             -1.4096e-009    1.4798e-009    
  -11.9           -1.2426e-009    1.3122e-009    
  -11.8           -1.1074e-009    1.1692e-009    
  -11.7           -9.958e-010     1.0524e-009    
  -11.6           -9.057e-010     9.5516e-010    
  -11.5           -8.28e-010      8.7572e-010    
  -11.4           -7.5664e-010    8.0272e-010    
  -11.3           -6.982e-010     7.3844e-010    
  -11.2           -6.4514e-010    6.8326e-010    
  -11.1           -5.9902e-010    6.3154e-010    
  -11             -5.563e-010     5.8862e-010    
  -10.9           -5.183e-010     5.4616e-010    
  -10.8           -4.8506e-010    5.0938e-010    
  -10.7           -4.5442e-010    4.7638e-010    
  -10.6           -4.2624e-010    4.4754e-010    
  -10.5           -4.0132e-010    4.2032e-010    
  -10.4           -3.7786e-010    3.9486e-010    
  -10.3           -3.5642e-010    3.71e-010      
  -10.2           -3.3856e-010    3.4912e-010    
  -10.1           -3.1942e-010    3.2898e-010    
  -10             -3.0362e-010    3.0986e-010    
  -9.9            -2.8702e-010    2.9332e-010    
  -9.8            -2.7268e-010    2.7744e-010    
  -9.7            -2.6016e-010    2.6212e-010    
  -9.6            -2.4712e-010    2.4848e-010    
  -9.5            -2.3562e-010    2.3558e-010    
  -9.4            -2.233e-010     2.2266e-010    
  -9.3            -2.1302e-010    2.1068e-010    
  -9.2            -2.04e-010      1.9994e-010    
  -9.1            -1.9564e-010    1.895e-010     
  -9              -1.8832e-010    1.804e-010     
  -8.9            -1.7928e-010    1.7176e-010    
  -8.8            -1.717e-010     1.6294e-010    
  -8.7            -1.6376e-010    1.5444e-010    
  -8.6            -1.5814e-010    1.4718e-010    
  -8.5            -1.516e-010     1.4058e-010    
  -8.4            -1.4538e-010    1.331e-010     
  -8.3            -1.3974e-010    1.2608e-010    
  -8.2            -1.341e-010     1.1956e-010    
  -8.1            -1.298e-010     1.136e-010     
  -8              -1.2592e-010    1.088e-010     
  -7.9            -1.2142e-010    1.0432e-010    
  -7.8            -1.1662e-010    9.956e-011     
  -7.7            -1.1156e-010    9.368e-011     
  -7.6            -1.0758e-010    8.914e-011     
  -7.5            -1.0406e-010    8.46e-011      
  -7.4            -1.0104e-010    8.078e-011     
  -7.3            -9.696e-011     7.642e-011     
  -7.2            -9.46e-011      7.216e-011     
  -7.1            -9.114e-011     6.814e-011     
  -7              -8.84e-011      6.476e-011     
  -6.9            -8.506e-011     6.218e-011     
  -6.8            -8.156e-011     5.842e-011     
  -6.7            -7.89e-011      5.57e-011      
  -6.6            -7.636e-011     5.178e-011     
  -6.5            -7.504e-011     4.968e-011     
  -6.4            -7.192e-011     4.692e-011     
  -6.3            -7.082e-011     4.476e-011     
  -6.2            -6.746e-011     4.12e-011      
  -6.1            -6.658e-011     3.848e-011     
  -6              -6.41e-011      3.676e-011     
  -5.9            -6.212e-011     3.458e-011     
  -5.8            -6.028e-011     3.362e-011     
  -5.7            -5.748e-011     2.96e-011      
  -5.6            -5.674e-011     2.844e-011     
  -5.5            -5.444e-011     2.574e-011     
  -5.4            -5.446e-011     2.454e-011     
  -5.3            -5.198e-011     2.292e-011     
  -5.2            -5.178e-011     2.094e-011     
  -5.1            -4.934e-011     1.944e-011     
  -5              -4.828e-011     1.756e-011     
  -4.9            -4.69e-011      1.674e-011     
  -4.8            -4.524e-011     1.478e-011     
  -4.7            -4.438e-011     1.444e-011     
  -4.6            -4.252e-011     1.166e-011     
  -4.5            -4.29e-011      1.054e-011     
  -4.4            -4.06e-011      8.68e-012      
  -4.3            -4.152e-011     7.64e-012      
  -4.2            -3.914e-011     6.52e-012      
  -4.1            -3.9e-011       5.36e-012      
  -4              -3.79e-011      4.72e-012      
  -3.9            -3.636e-011     3.06e-012      
  -3.8            -3.616e-011     3.62e-012      
  -3.7            -3.418e-011     1.18e-012      
  -3.6            -3.43e-011      3.2e-013       
  -3.5            -3.298e-011     -1.84e-012     
  -3.4            -3.344e-011     -2.88e-012     
  -3.3            -3.204e-011     -3.18e-012     
  -3.2            -3.184e-011     -3.98e-012     
  -3.1            -3.068e-011     -4.46e-012     
  -3              -2.986e-011     -6.18e-012     
  -2.9            -2.938e-011     -6.04e-012     
  -2.8            -2.834e-011     -7.46e-012     
  -2.7            -2.812e-011     -7.62e-012     
  -2.6            -2.722e-011     -9.4e-012      
  -2.5            -2.732e-011     -1.102e-011    
  -2.4            -2.602e-011     -1.168e-011    
  -2.3            -2.654e-011     -1.246e-011    
  -2.2            -2.548e-011     -1.242e-011    
  -2.1            -2.468e-011     -1.324e-011    
  -2              -2.416e-011     -1.384e-011    
  -1.9            -2.304e-011     -1.546e-011    
  -1.8            -2.304e-011     -1.546e-011    
  -1.7            -2.21e-011      -1.66e-011     
  -1.6            -2.228e-011     -1.734e-011    
  -1.5            -2.148e-011     -1.848e-011    
  -1.4            -2.09e-011      -2.02e-011     
  -1.3            -1.99e-011      -2.028e-011    
  -1.2            -1.9e-011       -2.094e-011    
  -1.1            -1.788e-011     -2.18e-011     
  -1              -1.644e-011     -2.328e-011    
  -0.9            -1.558e-011     -2.466e-011    
  -0.8            -1.422e-011     -2.738e-011    
  -0.7            -1.334e-011     -2.764e-011    
  -0.6            -1.212e-011     -2.93e-011     
  -0.5            -1.08e-011      -3.176e-011    
  -0.4            -9.32e-012      -3.29e-011     
  -0.3            -7.9e-012       -3.458e-011    
  -0.2            -5.96e-012      -3.554e-011    
  -0.1            -3.64e-012      -3.726e-011    
  0               1.2e-012        -4.21e-011     
END_DB

