! VERSION = 6.00
BEGIN_HEADER
 ICCAP_INPUTS
  vc         V  cathode GROUND SMU1 0.1 CON        0
  va         V  anode GROUND SMU2 0.1 LIN        1    -15        0          151  0.1       
 ICCAP_OUTPUTS
  ia         I  anode GROUND SMU2 B
  ic         I  cathode GROUND SMU1 B
 ICCAP_VALUES
  DataOrigin "Measure"
  ___CONTEXT ""
  Date "Jan 12 Wed 14:17:20 2022"
  Version "WaferPro.2016.01"
  Bench "B1500_B2200"
  Temperature "85"
  Lot "M135205"
  Reticle "M135205"
  Wafer "01D2"
  Die "X-3-Y0"
  DieList "TargetDie"
  Block "WholeDie"
  Subsite "diod2-5V"
  Routine "DIODE_EXTR_Measure"
  MeasCond "Set1"
  Device "11"
  DeviceName "pdiode_Dp5_A320B640"
  DevTechno "DIO"
  DevPolarity "P"
  Setup "iv_rev"
  Type "-1"
  ___SPICE_INSTANCE ""
  A "3.2E-005"
  B "6.4E-005"
  ___TECHNO_INSTANCE ""
  ___CALIBRATION ""
END_HEADER

BEGIN_DB
 ICCAP_VAR vc         0              

 #va              ia              ic             
  -15             -0.010672       0.010754       
  -14.9           -0.010232       0.01026        
  -14.8           -0.0098494      0.0098396      
  -14.7           -0.0094378      0.0094438      
  -14.6           -0.0090206      0.0090226      
  -14.5           -0.0085984      0.0085972      
  -14.4           -0.008163       0.0081646      
  -14.3           -0.0077142      0.0077214      
  -14.2           -0.0072668      0.007267       
  -14.1           -0.0068024      0.0068062      
  -14             -0.0063284      0.0063284      
  -13.9           -0.0058544      0.0058514      
  -13.8           -0.0053638      0.0053644      
  -13.7           -0.00487        0.0048638      
  -13.6           -0.0043582      0.0043584      
  -13.5           -0.0038528      0.003853       
  -13.4           -0.0033306      0.0033298      
  -13.3           -0.0028084      0.0028072      
  -13.2           -0.0022798      0.0022774      
  -13.1           -0.0017462      0.0017464      
  -13             -0.001218       0.0012184      
  -12.9           -0.00068066     0.0006814      
  -12.8           -4.2084e-006    4.1064e-006    
  -12.7           -1.3996e-007    1.3916e-007    
  -12.6           -1.4434e-008    1.4474e-008    
  -12.5           -6.4506e-009    6.5084e-009    
  -12.4           -4.3672e-009    4.4466e-009    
  -12.3           -3.3708e-009    3.4514e-009    
  -12.2           -2.7724e-009    2.8482e-009    
  -12.1           -2.352e-009     2.4312e-009    
  -12             -2.04e-009      2.1168e-009    
  -11.9           -1.8034e-009    1.8718e-009    
  -11.8           -1.6096e-009    1.6752e-009    
  -11.7           -1.4514e-009    1.509e-009     
  -11.6           -1.3112e-009    1.3722e-009    
  -11.5           -1.201e-009     1.2546e-009    
  -11.4           -1.1032e-009    1.155e-009     
  -11.3           -1.0182e-009    1.0648e-009    
  -11.2           -9.425e-010     9.8642e-010    
  -11.1           -8.7524e-010    9.1406e-010    
  -11             -8.1572e-010    8.5158e-010    
  -10.9           -7.6532e-010    7.9678e-010    
  -10.8           -7.1514e-010    7.4618e-010    
  -10.7           -6.698e-010     6.9754e-010    
  -10.6           -6.2602e-010    6.5328e-010    
  -10.5           -5.9024e-010    6.1484e-010    
  -10.4           -5.5846e-010    5.8018e-010    
  -10.3           -5.2812e-010    5.4462e-010    
  -10.2           -4.984e-010     5.144e-010     
  -10.1           -4.7116e-010    4.8764e-010    
  -10             -4.46e-010      4.5954e-010    
  -9.9            -4.2588e-010    4.3638e-010    
  -9.8            -4.0524e-010    4.1224e-010    
  -9.7            -3.8518e-010    3.9164e-010    
  -9.6            -3.665e-010     3.7318e-010    
  -9.5            -3.4862e-010    3.5332e-010    
  -9.4            -3.3308e-010    3.356e-010     
  -9.3            -3.1858e-010    3.1856e-010    
  -9.2            -3.0478e-010    3.0378e-010    
  -9.1            -2.9112e-010    2.9058e-010    
  -9              -2.7782e-010    2.765e-010     
  -8.9            -2.658e-010     2.6174e-010    
  -8.8            -2.5636e-010    2.511e-010     
  -8.7            -2.462e-010     2.387e-010     
  -8.6            -2.3498e-010    2.2838e-010    
  -8.5            -2.2536e-010    2.1726e-010    
  -8.4            -2.166e-010     2.0792e-010    
  -8.3            -2.0912e-010    1.9748e-010    
  -8.2            -2.022e-010     1.8904e-010    
  -8.1            -1.9376e-010    1.8194e-010    
  -8              -1.8552e-010    1.725e-010     
  -7.9            -1.7888e-010    1.6502e-010    
  -7.8            -1.7334e-010    1.571e-010     
  -7.7            -1.6736e-010    1.5018e-010    
  -7.6            -1.6164e-010    1.433e-010     
  -7.5            -1.5424e-010    1.3752e-010    
  -7.4            -1.4852e-010    1.3042e-010    
  -7.3            -1.4426e-010    1.2406e-010    
  -7.2            -1.4116e-010    1.1948e-010    
  -7.1            -1.361e-010     1.1424e-010    
  -7              -1.306e-010     1.0976e-010    
  -6.9            -1.2602e-010    1.0288e-010    
  -6.8            -1.2176e-010    9.856e-011     
  -6.7            -1.1936e-010    9.266e-011     
  -6.6            -1.1492e-010    9.068e-011     
  -6.5            -1.1062e-010    8.592e-011     
  -6.4            -1.063e-010     8.254e-011     
  -6.3            -1.036e-010     7.826e-011     
  -6.2            -1.0172e-010    7.396e-011     
  -6.1            -9.91e-011      7.19e-011      
  -6              -9.53e-011      6.762e-011     
  -5.9            -9.146e-011     6.516e-011     
  -5.8            -8.942e-011     6.06e-011      
  -5.7            -8.726e-011     5.874e-011     
  -5.6            -8.608e-011     5.554e-011     
  -5.5            -8.25e-011      5.44e-011      
  -5.4            -7.96e-011      5.162e-011     
  -5.3            -7.718e-011     4.874e-011     
  -5.2            -7.64e-011      4.686e-011     
  -5.1            -7.498e-011     4.382e-011     
  -5              -7.26e-011      4.236e-011     
  -4.9            -6.996e-011     3.928e-011     
  -4.8            -6.76e-011      3.774e-011     
  -4.7            -6.726e-011     3.46e-011      
  -4.6            -6.582e-011     3.406e-011     
  -4.5            -6.462e-011     3.208e-011     
  -4.4            -6.16e-011      3.094e-011     
  -4.3            -5.97e-011      2.916e-011     
  -4.2            -5.904e-011     2.662e-011     
  -4.1            -5.852e-011     2.576e-011     
  -4              -5.738e-011     2.332e-011     
  -3.9            -5.49e-011      2.304e-011     
  -3.8            -5.316e-011     2.07e-011      
  -3.7            -5.2e-011       1.938e-011     
  -3.6            -5.228e-011     1.736e-011     
  -3.5            -5.136e-011     1.686e-011     
  -3.4            -4.972e-011     1.62e-011      
  -3.3            -4.752e-011     1.438e-011     
  -3.2            -4.67e-011      1.364e-011     
  -3.1            -4.652e-011     1.136e-011     
  -3              -4.654e-011     1.056e-011     
  -2.9            -4.512e-011     9.42e-012      
  -2.8            -4.258e-011     8.96e-012      
  -2.7            -4.178e-011     7.36e-012      
  -2.6            -4.122e-011     5.8e-012       
  -2.5            -4.196e-011     4.6e-012       
  -2.4            -4.068e-011     4.3e-012       
  -2.3            -3.868e-011     3.52e-012      
  -2.2            -3.734e-011     1.92e-012      
  -2.1            -3.71e-011      9.6e-013       
  -2              -3.744e-011     -1.18e-012     
  -1.9            -3.644e-011     -1.42e-012     
  -1.8            -3.436e-011     -2.28e-012     
  -1.7            -3.228e-011     -3.16e-012     
  -1.6            -3.228e-011     -4.72e-012     
  -1.5            -3.25e-011      -6.32e-012     
  -1.4            -3.148e-011     -7.32e-012     
  -1.3            -2.926e-011     -8.52e-012     
  -1.2            -2.66e-011      -1.02e-011     
  -1.1            -2.564e-011     -1.306e-011    
  -1              -2.52e-011      -1.52e-011     
  -0.9            -2.368e-011     -1.662e-011    
  -0.8            -2.078e-011     -1.818e-011    
  -0.7            -1.766e-011     -2.004e-011    
  -0.6            -1.53e-011      -2.292e-011    
  -0.5            -1.444e-011     -2.586e-011    
  -0.4            -1.334e-011     -2.782e-011    
  -0.3            -1.016e-011     -2.952e-011    
  -0.2            -6.86e-012      -3.246e-011    
  -0.1            -3.66e-012      -3.556e-011    
  0               2.1e-012        -4.14e-011     
END_DB

