! VERSION = 6.00
BEGIN_HEADER
 ICCAP_INPUTS
  vc         V  cathode GROUND SMU1 0.1 CON        0
  va         V  anode GROUND SMU2 0.1 LIN        1    -15        0          151  0.1       
 ICCAP_OUTPUTS
  ia         I  anode GROUND SMU2 B
  ic         I  cathode GROUND SMU1 B
 ICCAP_VALUES
  DataOrigin "Measure"
  ___CONTEXT ""
  Date "Jan 12 Wed 14:09:59 2022"
  Version "WaferPro.2016.01"
  Bench "B1500_B2200"
  Temperature "85"
  Lot "M135205"
  Reticle "M135205"
  Wafer "01D2"
  Die "X-3-Y0"
  DieList "TargetDie"
  Block "WholeDie"
  Subsite "diod2-5V"
  Routine "DIODE_EXTR_Measure"
  MeasCond "Set1"
  Device "5"
  DeviceName "pdiode_Dp5_A32B320"
  DevTechno "DIO"
  DevPolarity "P"
  Setup "iv_rev"
  Type "-1"
  ___SPICE_INSTANCE ""
  A "3.2E-006"
  B "3.2E-005"
  ___TECHNO_INSTANCE ""
  ___CALIBRATION ""
END_HEADER

BEGIN_DB
 ICCAP_VAR vc         0              

 #va              ia              ic             
  -15             -0.0063212      0.0063548      
  -14.9           -0.0060858      0.0060968      
  -14.8           -0.0058618      0.0058664      
  -14.7           -0.005631       0.0056348      
  -14.6           -0.0053992      0.005401       
  -14.5           -0.005159       0.0051602      
  -14.4           -0.004916       0.0049178      
  -14.3           -0.004663       0.0046638      
  -14.2           -0.0044058      0.0044058      
  -14.1           -0.0041378      0.0041382      
  -14             -0.0038626      0.0038628      
  -13.9           -0.0035824      0.003583       
  -13.8           -0.0032934      0.0032936      
  -13.7           -0.002999       0.003          
  -13.6           -0.0026974      0.002698       
  -13.5           -0.0023914      0.0023916      
  -13.4           -0.0020784      0.002079       
  -13.3           -0.0017626      0.0017636      
  -13.2           -0.0014412      0.001442       
  -13.1           -0.0011168      0.0011178      
  -13             -0.00079434     0.00079378     
  -12.9           -0.00046324     0.00046278     
  -12.8           -8.354e-006     9.07e-006      
  -12.7           -6.6368e-009    6.9448e-009    
  -12.6           -3.596e-009     3.5602e-009    
  -12.5           -2.6752e-009    2.6478e-009    
  -12.4           -2.1638e-009    2.1388e-009    
  -12.3           -1.8298e-009    1.8092e-009    
  -12.2           -1.577e-009     1.5596e-009    
  -12.1           -1.3832e-009    1.3698e-009    
  -12             -1.226e-009     1.2124e-009    
  -11.9           -1.102e-009     1.0874e-009    
  -11.8           -9.994e-010     9.7984e-010    
  -11.7           -9.07e-010      8.9196e-010    
  -11.6           -8.2812e-010    8.1612e-010    
  -11.5           -7.6664e-010    7.5032e-010    
  -11.4           -7.0862e-010    6.9156e-010    
  -11.3           -6.5636e-010    6.3778e-010    
  -11.2           -6.106e-010     5.8774e-010    
  -11.1           -5.6964e-010    5.4608e-010    
  -11             -5.3148e-010    5.0464e-010    
  -10.9           -4.968e-010     4.6912e-010    
  -10.8           -4.6536e-010    4.3882e-010    
  -10.7           -4.3928e-010    4.0954e-010    
  -10.6           -4.1402e-010    3.8356e-010    
  -10.5           -3.917e-010     3.5766e-010    
  -10.4           -3.7108e-010    3.3754e-010    
  -10.3           -3.506e-010     3.158e-010     
  -10.2           -3.3302e-010    2.9716e-010    
  -10.1           -3.1642e-010    2.7964e-010    
  -10             -3.0116e-010    2.6256e-010    
  -9.9            -2.8568e-010    2.4842e-010    
  -9.8            -2.7138e-010    2.3364e-010    
  -9.7            -2.58e-010      2.205e-010     
  -9.6            -2.4682e-010    2.0754e-010    
  -9.5            -2.3676e-010    1.9608e-010    
  -9.4            -2.2744e-010    1.856e-010     
  -9.3            -2.173e-010     1.775e-010     
  -9.2            -2.0718e-010    1.6648e-010    
  -9.1            -1.9906e-010    1.5766e-010    
  -9              -1.9036e-010    1.4876e-010    
  -8.9            -1.824e-010     1.4066e-010    
  -8.8            -1.747e-010     1.343e-010     
  -8.7            -1.6738e-010    1.2676e-010    
  -8.6            -1.6036e-010    1.2036e-010    
  -8.5            -1.549e-010     1.1296e-010    
  -8.4            -1.4956e-010    1.0722e-010    
  -8.3            -1.4338e-010    1.0114e-010    
  -8.2            -1.3782e-010    9.642e-011     
  -8.1            -1.3292e-010    9.078e-011     
  -8              -1.2804e-010    8.602e-011     
  -7.9            -1.2424e-010    8.244e-011     
  -7.8            -1.1928e-010    7.756e-011     
  -7.7            -1.146e-010     7.426e-011     
  -7.6            -1.101e-010     6.896e-011     
  -7.5            -1.0712e-010    6.476e-011     
  -7.4            -1.0388e-010    6.13e-011      
  -7.3            -1.0024e-010    5.736e-011     
  -7.2            -9.624e-011     5.424e-011     
  -7.1            -9.264e-011     5.05e-011      
  -7              -9.018e-011     4.782e-011     
  -6.9            -8.722e-011     4.452e-011     
  -6.8            -8.454e-011     4.32e-011      
  -6.7            -8.096e-011     3.948e-011     
  -6.6            -7.884e-011     3.698e-011     
  -6.5            -7.612e-011     3.342e-011     
  -6.4            -7.524e-011     3.098e-011     
  -6.3            -7.27e-011      2.938e-011     
  -6.2            -7.024e-011     2.74e-011      
  -6.1            -6.804e-011     2.556e-011     
  -6              -6.57e-011      2.268e-011     
  -5.9            -6.43e-011      2.148e-011     
  -5.8            -6.212e-011     1.872e-011     
  -5.7            -6.054e-011     1.786e-011     
  -5.6            -5.822e-011     1.526e-011     
  -5.5            -5.728e-011     1.282e-011     
  -5.4            -5.556e-011     1.146e-011     
  -5.3            -5.498e-011     9.66e-012      
  -5.2            -5.286e-011     9.2e-012       
  -5.1            -5.13e-011      6.96e-012      
  -5              -5.012e-011     6e-012         
  -4.9            -4.852e-011     3.98e-012      
  -4.8            -4.79e-011      3.2e-012       
  -4.7            -4.598e-011     1.16e-012      
  -4.6            -4.55e-011      -5e-013        
  -4.5            -4.36e-011      -2.04e-012     
  -4.4            -4.346e-011     -3.72e-012     
  -4.3            -4.242e-011     -4.3e-012      
  -4.2            -4.138e-011     -5.34e-012     
  -4.1            -4.024e-011     -5.3e-012      
  -4              -3.856e-011     -7.48e-012     
  -3.9            -3.836e-011     -7.98e-012     
  -3.8            -3.714e-011     -1.036e-011    
  -3.7            -3.706e-011     -1.062e-011    
  -3.6            -3.572e-011     -1.178e-011    
  -3.5            -3.532e-011     -1.344e-011    
  -3.4            -3.424e-011     -1.406e-011    
  -3.3            -3.4e-011       -1.6e-011      
  -3.2            -3.296e-011     -1.542e-011    
  -3.1            -3.202e-011     -1.684e-011    
  -3              -3.152e-011     -1.686e-011    
  -2.9            -3.038e-011     -1.904e-011    
  -2.8            -3.05e-011      -1.942e-011    
  -2.7            -2.944e-011     -2.088e-011    
  -2.6            -2.96e-011      -2.192e-011    
  -2.5            -2.826e-011     -2.242e-011    
  -2.4            -2.802e-011     -2.382e-011    
  -2.3            -2.706e-011     -2.386e-011    
  -2.2            -2.658e-011     -2.514e-011    
  -2.1            -2.624e-011     -2.454e-011    
  -2              -2.49e-011      -2.65e-011     
  -1.9            -2.476e-011     -2.682e-011    
  -1.8            -2.372e-011     -2.906e-011    
  -1.7            -2.392e-011     -2.95e-011     
  -1.6            -2.312e-011     -3.03e-011     
  -1.5            -2.244e-011     -3.14e-011     
  -1.4            -2.116e-011     -3.15e-011     
  -1.3            -2.026e-011     -3.402e-011    
  -1.2            -1.928e-011     -3.416e-011    
  -1.1            -1.82e-011      -3.602e-011    
  -1              -1.75e-011      -3.604e-011    
  -0.9            -1.552e-011     -3.866e-011    
  -0.8            -1.488e-011     -4.07e-011     
  -0.7            -1.31e-011      -4.254e-011    
  -0.6            -1.26e-011      -4.392e-011    
  -0.5            -1.05e-011      -4.464e-011    
  -0.4            -9.22e-012      -4.648e-011    
  -0.3            -7.12e-012      -4.772e-011    
  -0.2            -5.6e-012       -5.092e-011    
  -0.1            -4.08e-012      -5.152e-011    
  0               4e-013          -5.61e-011     
END_DB

