! VERSION = 6.00
BEGIN_HEADER
 ICCAP_INPUTS
  vc         V  cathode GROUND SMU1 0.1 CON        0
  va         V  anode GROUND SMU2 0.1 LIN        1    0          1          51   0.02      
 ICCAP_OUTPUTS
  ia         I  anode GROUND SMU2 B
  ic         I  cathode GROUND SMU1 B
 ICCAP_VALUES
  DataOrigin "Measure"
  ___CONTEXT ""
  Date "Jan 12 Wed 14:16:06 2022"
  Version "WaferPro.2016.01"
  Bench "B1500_B2200"
  Temperature "85"
  Lot "M135205"
  Reticle "M135205"
  Wafer "01D2"
  Die "X-3-Y0"
  DieList "TargetDie"
  Block "WholeDie"
  Subsite "diod2-5V"
  Routine "DIODE_EXTR_Measure"
  MeasCond "Set1"
  Device "10"
  DeviceName "pdiode_Dp5_A32B640"
  DevTechno "DIO"
  DevPolarity "P"
  Setup "iv_fwd"
  Type "-1"
  ___SPICE_INSTANCE ""
  A "3.2E-006"
  B "6.4E-005"
  ___TECHNO_INSTANCE ""
  ___CALIBRATION ""
END_HEADER

BEGIN_DB
 ICCAP_VAR vc         0              

 #va              ia              ic             
  0               1.84e-012       4.136e-011     
  0.02            4.92e-012       3.254e-011     
  0.04            1e-011          2.446e-011     
  0.06            1.626e-011      1.408e-011     
  0.08            2.788e-011      5.6e-013       
  0.1             4.904e-011      -1.886e-011    
  0.12            8.354e-011      -4.856e-011    
  0.14            1.355e-010      -9.124e-011    
  0.16            2.1918e-010     -1.555e-010    
  0.18            3.5184e-010     -2.5242e-010   
  0.2             5.725e-010      -3.995e-010    
  0.22            9.3728e-010     -6.225e-010    
  0.24            1.5492e-009     -9.6022e-010   
  0.26            2.5782e-009     -1.4752e-009   
  0.28            4.3308e-009     -2.2524e-009   
  0.3             7.3686e-009     -3.4356e-009   
  0.32            1.2646e-008     -5.2388e-009   
  0.34            2.1148e-008     -1.958e-008    
  0.36            3.7324e-008     -3.5798e-008   
  0.38            6.6516e-008     -6.5224e-008   
  0.4             1.1996e-007     -1.1912e-007   
  0.42            2.1862e-007     -2.1692e-007   
  0.44            4.0068e-007     -3.98e-007     
  0.46            7.4056e-007     -7.3582e-007   
  0.48            1.3712e-006     -1.3708e-006   
  0.5             2.5514e-006     -2.5494e-006   
  0.52            4.7404e-006     -4.7384e-006   
  0.54            8.7894e-006     -8.7848e-006   
  0.56            1.6244e-005     -1.6238e-005   
  0.58            2.961e-005      -2.9598e-005   
  0.6             5.3162e-005     -5.3148e-005   
  0.62            9.2854e-005     -9.2834e-005   
  0.64            0.0001571       -0.000157      
  0.66            0.0002544       -0.0002543     
  0.68            0.00039428      -0.00039416    
  0.7             0.00058346      -0.0005833     
  0.72            0.00082506      -0.0008249     
  0.74            0.00112284      -0.00112268    
  0.76            0.0014748       -0.0014734     
  0.78            0.0018794       -0.001878      
  0.8             0.0023336       -0.0023322     
  0.82            0.0028316       -0.0028304     
  0.84            0.003373        -0.0033716     
  0.86            0.0039524       -0.0039506     
  0.88            0.0045632       -0.0045612     
  0.9             0.0052064       -0.0052044     
  0.92            0.0058736       -0.0058716     
  0.94            0.0065676       -0.006566      
  0.96            0.0072808       -0.0072794     
  0.98            0.0080166       -0.0080146     
  1               0.0087674       -0.0087654     
END_DB

