! VERSION = 6.00
BEGIN_HEADER
 ICCAP_INPUTS
  vc         V  cathode GROUND SMU1 0.1 CON        0
  va         V  anode GROUND SMU2 0.1 LIN        1    0          1          51   0.02      
 ICCAP_OUTPUTS
  ia         I  anode GROUND SMU2 B
  ic         I  cathode GROUND SMU1 B
 ICCAP_VALUES
  DataOrigin "Measure"
  ___CONTEXT ""
  Date "Jan 12 Wed 14:17:20 2022"
  Version "WaferPro.2016.01"
  Bench "B1500_B2200"
  Temperature "85"
  Lot "M135205"
  Reticle "M135205"
  Wafer "01D2"
  Die "X-3-Y0"
  DieList "TargetDie"
  Block "WholeDie"
  Subsite "diod2-5V"
  Routine "DIODE_EXTR_Measure"
  MeasCond "Set1"
  Device "11"
  DeviceName "pdiode_Dp5_A320B640"
  DevTechno "DIO"
  DevPolarity "P"
  Setup "iv_fwd"
  Type "-1"
  ___SPICE_INSTANCE ""
  A "3.2E-005"
  B "6.4E-005"
  ___TECHNO_INSTANCE ""
  ___CALIBRATION ""
END_HEADER

BEGIN_DB
 ICCAP_VAR vc         0              

 #va              ia              ic             
  0               3.04e-012       3.89e-011      
  0.02            7.16e-012       2.932e-011     
  0.04            1.454e-011      2.232e-011     
  0.06            2.76e-011       1.24e-011      
  0.08            5.156e-011      -1.26e-012     
  0.1             9.398e-011      -2.042e-011    
  0.12            1.6778e-010     -4.904e-011    
  0.14            2.971e-010      -9.376e-011    
  0.16            5.295e-010      -1.634e-010    
  0.18            9.5026e-010     -2.7196e-010   
  0.2             1.724e-009      -4.4376e-010   
  0.22            3.1456e-009     -7.1776e-010   
  0.24            5.734e-009      -1.1632e-009   
  0.26            7.43e-009       -5.3978e-009   
  0.28            1.3382e-008     -1.2696e-008   
  0.3             2.4578e-008     -2.3416e-008   
  0.32            4.5386e-008     -4.416e-008    
  0.34            8.3944e-008     -8.2704e-008   
  0.36            1.5624e-007     -1.55e-007     
  0.38            2.9022e-007     -2.8796e-007   
  0.4             5.3942e-007     -5.3552e-007   
  0.42            1.00246e-006    -9.9894e-007   
  0.44            1.8558e-006     -1.8556e-006   
  0.46            3.4296e-006     -3.4274e-006   
  0.48            6.2724e-006     -6.27e-006     
  0.5             1.13718e-005    -1.13678e-005  
  0.52            2.024e-005      -2.0234e-005   
  0.54            3.5262e-005     -3.5248e-005   
  0.56            6.0002e-005     -5.9988e-005   
  0.58            9.8982e-005     -9.8968e-005   
  0.6             0.00015852      -0.00015838    
  0.62            0.00024504      -0.0002449     
  0.64            0.00036664      -0.0003665     
  0.66            0.00052952      -0.00052936    
  0.68            0.00074056      -0.0007404     
  0.7             0.00100278      -0.00100262    
  0.72            0.0013164       -0.001315      
  0.74            0.0016808       -0.0016794     
  0.76            0.002091        -0.0020896     
  0.78            0.0025456       -0.0025442     
  0.8             0.00304         -0.0030384     
  0.82            0.0035666       -0.003565      
  0.84            0.0041256       -0.0041242     
  0.86            0.0047118       -0.0047104     
  0.88            0.0053188       -0.0053174     
  0.9             0.0059498       -0.0059476     
  0.92            0.0065954       -0.0065936     
  0.94            0.0072598       -0.0072576     
  0.96            0.0079338       -0.0079336     
  0.98            0.0086228       -0.0086218     
  1               0.0093194       -0.009318      
END_DB

