! VERSION = 6.00
BEGIN_HEADER
 ICCAP_INPUTS
  vc         V  cathode GROUND SMU1 0.1 CON        0
  va         V  anode GROUND SMU2 0.1 LIN        1    0          1          51   0.02      
 ICCAP_OUTPUTS
  ia         I  anode GROUND SMU2 B
  ic         I  cathode GROUND SMU1 B
 ICCAP_VALUES
  DataOrigin "Measure"
  ___CONTEXT ""
  Date "Jan 12 Wed 14:06:21 2022"
  Version "WaferPro.2016.01"
  Bench "B1500_B2200"
  Temperature "85"
  Lot "M135205"
  Reticle "M135205"
  Wafer "01D2"
  Die "X-3-Y0"
  DieList "TargetDie"
  Block "WholeDie"
  Subsite "diod2-5V"
  Routine "DIODE_EXTR_Measure"
  MeasCond "Set1"
  Device "2"
  DeviceName "pdiode_Dp5_A032B32"
  DevTechno "DIO"
  DevPolarity "P"
  Setup "iv_fwd"
  Type "-1"
  ___SPICE_INSTANCE ""
  A "3.2E-007"
  B "3.2E-006"
  ___TECHNO_INSTANCE ""
  ___CALIBRATION ""
END_HEADER

BEGIN_DB
 ICCAP_VAR vc         0              

 #va              ia              ic             
  0               -6e-014         1.914e-011     
  0.02            5e-013          1.108e-011     
  0.04            2.14e-012       7.64e-012      
  0.06            5.16e-012       3.84e-012      
  0.08            9.1e-012        -2.52e-012     
  0.1             1.434e-011      -8.56e-012     
  0.12            2.21e-011       -1.76e-011     
  0.14            3.434e-011      -3.272e-011    
  0.16            5.366e-011      -5.262e-011    
  0.18            8.312e-011      -8.068e-011    
  0.2             1.272e-010      -1.243e-010    
  0.22            1.9368e-010     -1.8936e-010   
  0.24            2.914e-010      -2.8306e-010   
  0.26            4.3918e-010     -4.2276e-010   
  0.28            6.5906e-010     -6.2826e-010   
  0.3             9.9174e-010     -9.2674e-010   
  0.32            1.4874e-009     -1.3632e-009   
  0.34            2.2352e-009     -1.9984e-009   
  0.36            3.3766e-009     -2.938e-009    
  0.38            5.1138e-009     -4.4062e-009   
  0.4             7.8124e-009     -6.9586e-009   
  0.42            1.2088e-008     -1.1594e-008   
  0.44            1.8892e-008     -1.7508e-008   
  0.46            3.0006e-008     -2.8334e-008   
  0.48            4.8248e-008     -4.6646e-008   
  0.5             7.903e-008      -7.7668e-008   
  0.52            1.3108e-007     -1.305e-007    
  0.54            2.2014e-007     -2.1896e-007   
  0.56            3.7448e-007     -3.7394e-007   
  0.58            6.4048e-007     -6.3976e-007   
  0.6             1.1011e-006     -1.09996e-006  
  0.62            1.8892e-006     -1.8882e-006   
  0.64            3.2294e-006     -3.2282e-006   
  0.66            5.458e-006      -5.455e-006    
  0.68            9.1058e-006     -9.1054e-006   
  0.7             1.4886e-005     -1.4876e-005   
  0.72            2.362e-005      -2.3608e-005   
  0.74            3.6348e-005     -3.6336e-005   
  0.76            5.3848e-005     -5.3832e-005   
  0.78            7.6908e-005     -7.6898e-005   
  0.8             0.00010593      -0.000105916   
  0.82            0.00014106      -0.00014092    
  0.84            0.00018248      -0.00018232    
  0.86            0.0002302       -0.00023006    
  0.88            0.00028404      -0.00028388    
  0.9             0.0003447       -0.00034448    
  0.92            0.00041196      -0.00041176    
  0.94            0.00048684      -0.0004866     
  0.96            0.00056926      -0.00056902    
  0.98            0.00066048      -0.00066024    
  1               0.00076042      -0.0007602     
END_DB

