! VERSION = 6.00
BEGIN_HEADER
 ICCAP_INPUTS
  vc         V  cathode GROUND SMU1 0.1 CON        0
  va         V  anode GROUND SMU2 0.1 LIN        1    0          1          51   0.02      
 ICCAP_OUTPUTS
  ia         I  anode GROUND SMU2 B
  ic         I  cathode GROUND SMU1 B
 ICCAP_VALUES
  DataOrigin "Measure"
  ___CONTEXT ""
  Date "Jan 12 Wed 14:13:37 2022"
  Version "WaferPro.2016.01"
  Bench "B1500_B2200"
  Temperature "85"
  Lot "M135205"
  Reticle "M135205"
  Wafer "01D2"
  Die "X-3-Y0"
  DieList "TargetDie"
  Block "WholeDie"
  Subsite "diod2-5V"
  Routine "DIODE_EXTR_Measure"
  MeasCond "Set1"
  Device "8"
  DeviceName "pdiode_Dp5_A064B640"
  DevTechno "DIO"
  DevPolarity "P"
  Setup "iv_fwd"
  Type "-1"
  ___SPICE_INSTANCE ""
  A "6.4E-007"
  B "6.4E-005"
  ___TECHNO_INSTANCE ""
  ___CALIBRATION ""
END_HEADER

BEGIN_DB
 ICCAP_VAR vc         0              

 #va              ia              ic             
  0               7e-013          3.832e-011     
  0.02            7.28e-012       2.222e-011     
  0.04            1.788e-011      6.5e-012       
  0.06            3.418e-011      -1.27e-011     
  0.08            6.052e-011      -3.868e-011    
  0.1             1.0036e-010     -7.924e-011    
  0.12            1.6156e-010     -1.4112e-010   
  0.14            2.5982e-010     -2.3432e-010   
  0.16            4.1064e-010     -3.775e-010    
  0.18            6.4288e-010     -5.9632e-010   
  0.2             1.0064e-009     -9.2844e-010   
  0.22            1.5664e-009     -1.4314e-009   
  0.24            2.4278e-009     -2.1854e-009   
  0.26            3.7706e-009     -3.3178e-009   
  0.28            5.8498e-009     -5.004e-009    
  0.3             9.131e-009      -7.5318e-009   
  0.32            1.4296e-008     -1.1316e-008   
  0.34            2.2494e-008     -1.688e-008    
  0.36            3.554e-008      -3.0018e-008   
  0.38            5.6922e-008     -5.4414e-008   
  0.4             9.2484e-008     -9.1112e-008   
  0.42            1.5276e-007     -1.521e-007    
  0.44            2.5552e-007     -2.5418e-007   
  0.46            4.3514e-007     -4.3308e-007   
  0.48            7.4974e-007     -7.4586e-007   
  0.5             1.3108e-006     -1.3104e-006   
  0.52            2.311e-006      -2.3094e-006   
  0.54            4.1054e-006     -4.1012e-006   
  0.56            7.3326e-006     -7.3294e-006   
  0.58            1.3078e-005     -1.307e-005    
  0.6             2.3244e-005     -2.3234e-005   
  0.62            4.0862e-005     -4.0848e-005   
  0.64            7.0898e-005     -7.0896e-005   
  0.66            0.00012026      -0.00012014    
  0.68            0.00019866      -0.00019852    
  0.7             0.00031704      -0.00031694    
  0.72            0.00048562      -0.00048548    
  0.74            0.00071528      -0.00071516    
  0.76            0.00101146      -0.00101126    
  0.78            0.0013816       -0.0013802     
  0.8             0.0018262       -0.0018248     
  0.82            0.0023442       -0.0023428     
  0.84            0.0029384       -0.002937      
  0.86            0.0036048       -0.0036032     
  0.88            0.0043362       -0.0043346     
  0.9             0.0051344       -0.0051326     
  0.92            0.0059886       -0.005987      
  0.94            0.0069012       -0.0068996     
  0.96            0.007861        -0.007859      
  0.98            0.0088708       -0.008869      
  1               0.0099194       -0.0099166     
END_DB

