! VERSION = 6.00
BEGIN_HEADER
 ICCAP_INPUTS
  vc         V  cathode GROUND SMU1 0.1 CON        0
  va         V  anode GROUND SMU2 0.1 LIN        1    0          1          51   0.02      
 ICCAP_OUTPUTS
  ia         I  anode GROUND SMU2 B
  ic         I  cathode GROUND SMU1 B
 ICCAP_VALUES
  DataOrigin "Measure"
  ___CONTEXT ""
  Date "Jan 12 Wed 14:08:46 2022"
  Version "WaferPro.2016.01"
  Bench "B1500_B2200"
  Temperature "85"
  Lot "M135205"
  Reticle "M135205"
  Wafer "01D2"
  Die "X-3-Y0"
  DieList "TargetDie"
  Block "WholeDie"
  Subsite "diod2-5V"
  Routine "DIODE_EXTR_Measure"
  MeasCond "Set1"
  Device "4"
  DeviceName "pdiode_Dp5_A32B32"
  DevTechno "DIO"
  DevPolarity "P"
  Setup "iv_fwd"
  Type "-1"
  ___SPICE_INSTANCE ""
  A "3.2E-006"
  B "3.2E-006"
  ___TECHNO_INSTANCE ""
  ___CALIBRATION ""
END_HEADER

BEGIN_DB
 ICCAP_VAR vc         0              

 #va              ia              ic             
  0               4.6e-013        3.4e-011       
  0.02            7.2e-013        2.464e-011     
  0.04            6.6e-013        2.106e-011     
  0.06            1.52e-012       1.822e-011     
  0.08            3.12e-012       1.384e-011     
  0.1             4.3e-012        1.024e-011     
  0.12            6.98e-012       7.34e-012      
  0.14            1.15e-011       2.14e-012      
  0.16            1.79e-011       -4.98e-012     
  0.18            2.78e-011       -1.332e-011    
  0.2             4.534e-011      -2.74e-011     
  0.22            7.244e-011      -4.836e-011    
  0.24            1.1664e-010     -7.714e-011    
  0.26            1.9052e-010     -1.2068e-010   
  0.28            3.1414e-010     -1.8852e-010   
  0.3             5.219e-010      -2.8598e-010   
  0.32            8.829e-010      -4.347e-010    
  0.34            1.514e-009      -6.6288e-010   
  0.36            2.6228e-009     -1.00626e-009  
  0.38            4.5986e-009     -1.5474e-009   
  0.4             8.137e-009      -4.8936e-009   
  0.42            1.4694e-008     -1.3846e-008   
  0.44            2.6676e-008     -2.523e-008    
  0.46            4.8966e-008     -4.7712e-008   
  0.48            9.022e-008      -8.9248e-008   
  0.5             1.676e-007      -1.6712e-007   
  0.52            3.1168e-007     -3.1082e-007   
  0.54            5.8038e-007     -5.7988e-007   
  0.56            1.0827e-006     -1.08192e-006  
  0.58            2.0106e-006     -2.0098e-006   
  0.6             3.7124e-006     -3.71e-006     
  0.62            6.7558e-006     -6.7556e-006   
  0.64            1.2076e-005     -1.207e-005    
  0.66            2.0894e-005     -2.088e-005    
  0.68            3.4822e-005     -3.481e-005    
  0.7             5.5394e-005     -5.5384e-005   
  0.72            8.3698e-005     -8.3684e-005   
  0.74            0.00012072      -0.00012058    
  0.76            0.0001662       -0.00016606    
  0.78            0.00022034      -0.0002202     
  0.8             0.0002826       -0.00028246    
  0.82            0.00035224      -0.00035208    
  0.84            0.00042928      -0.00042912    
  0.86            0.0005132       -0.00051302    
  0.88            0.00060344      -0.00060326    
  0.9             0.0007008       -0.00070058    
  0.92            0.00080466      -0.00080444    
  0.94            0.00091614      -0.00091588    
  0.96            0.00103474      -0.00103448    
  0.98            0.0011626       -0.00116154    
  1               0.0012976       -0.001296      
END_DB

