! VERSION = 6.00
BEGIN_HEADER
 ICCAP_INPUTS
  vc         V  cathode GROUND SMU1 0.1 CON        0
  va         V  anode GROUND SMU2 0.1 LIN        1    0          1          51   0.02      
 ICCAP_OUTPUTS
  ia         I  anode GROUND SMU2 B
  ic         I  cathode GROUND SMU1 B
 ICCAP_VALUES
  DataOrigin "Measure"
  ___CONTEXT ""
  Date "Jan 12 Wed 14:07:34 2022"
  Version "WaferPro.2016.01"
  Bench "B1500_B2200"
  Temperature "85"
  Lot "M135205"
  Reticle "M135205"
  Wafer "01D2"
  Die "X-3-Y0"
  DieList "TargetDie"
  Block "WholeDie"
  Subsite "diod2-5V"
  Routine "DIODE_EXTR_Measure"
  MeasCond "Set1"
  Device "3"
  DeviceName "pdiode_Dp5_A032B320"
  DevTechno "DIO"
  DevPolarity "P"
  Setup "iv_fwd"
  Type "-1"
  ___SPICE_INSTANCE ""
  A "3.2E-007"
  B "3.2E-005"
  ___TECHNO_INSTANCE ""
  ___CALIBRATION ""
END_HEADER

BEGIN_DB
 ICCAP_VAR vc         0              

 #va              ia              ic             
  0               5.6e-013        3.316e-011     
  0.02            8.26e-012       1.784e-011     
  0.04            2.012e-011      1.02e-012      
  0.06            3.942e-011      -2.04e-011     
  0.08            7.026e-011      -5.172e-011    
  0.1             1.1824e-010     -1.009e-010    
  0.12            1.8966e-010     -1.723e-010    
  0.14            2.982e-010      -2.8042e-010   
  0.16            4.6374e-010     -4.4568e-010   
  0.18            7.148e-010      -6.9266e-010   
  0.2             1.09448e-009    -1.06056e-009  
  0.22            1.663e-009      -1.6068e-009   
  0.24            2.5122e-009     -2.4156e-009   
  0.26            3.7838e-009     -3.6108e-009   
  0.28            5.6824e-009     -5.362e-009    
  0.3             8.5324e-009     -7.928e-009    
  0.32            1.2816e-008     -1.167e-008    
  0.34            1.9252e-008     -1.7082e-008   
  0.36            2.9062e-008     -2.494e-008    
  0.38            4.3944e-008     -3.8702e-008   
  0.4             6.7068e-008     -6.4442e-008   
  0.42            1.03546e-007    -1.01804e-007  
  0.44            1.6176e-007     -1.611e-007    
  0.46            2.5644e-007     -2.5528e-007   
  0.48            4.1188e-007     -4.1042e-007   
  0.5             6.7372e-007     -6.7136e-007   
  0.52            1.11672e-006    -1.11596e-006  
  0.54            1.8758e-006     -1.876e-006    
  0.56            3.1918e-006     -3.1898e-006   
  0.58            5.463e-006      -5.4604e-006   
  0.6             9.3984e-006     -9.3994e-006   
  0.62            1.6132e-005     -1.6126e-005   
  0.64            2.7534e-005     -2.7524e-005   
  0.66            4.6314e-005     -4.6308e-005   
  0.68            7.6602e-005     -7.6594e-005   
  0.7             0.00012352      -0.00012342    
  0.72            0.00019238      -0.00019226    
  0.74            0.00028938      -0.00028926    
  0.76            0.00041826      -0.00041818    
  0.78            0.00058306      -0.00058294    
  0.8             0.00078536      -0.0007852     
  0.82            0.00102478      -0.00102458    
  0.84            0.0013038       -0.0013024     
  0.86            0.001619        -0.0016174     
  0.88            0.001968        -0.0019666     
  0.9             0.002352        -0.0023506     
  0.92            0.0027668       -0.002765      
  0.94            0.003213        -0.0032112     
  0.96            0.0036852       -0.0036832     
  0.98            0.0041844       -0.0041826     
  1               0.0047046       -0.004703      
END_DB

