! VERSION = 6.00
BEGIN_HEADER
 ICCAP_INPUTS
  vc         V  cathode GROUND SMU1 0.1 CON        0
  va         V  anode GROUND SMU2 0.1 LIN        1    -15        0          151  0.1       
 ICCAP_OUTPUTS
  ia         I  anode GROUND SMU2 B
  ic         I  cathode GROUND SMU1 B
 ICCAP_VALUES
  DataOrigin "Measure"
  ___CONTEXT ""
  Date "Jan 12 Wed 14:06:21 2022"
  Version "WaferPro.2016.01"
  Bench "B1500_B2200"
  Temperature "85"
  Lot "M135205"
  Reticle "M135205"
  Wafer "01D2"
  Die "X-3-Y0"
  DieList "TargetDie"
  Block "WholeDie"
  Subsite "diod2-5V"
  Routine "DIODE_EXTR_Measure"
  MeasCond "Set1"
  Device "2"
  DeviceName "pdiode_Dp5_A032B32"
  DevTechno "DIO"
  DevPolarity "P"
  Setup "iv_rev"
  Type "-1"
  ___SPICE_INSTANCE ""
  A "3.2E-007"
  B "3.2E-006"
  ___TECHNO_INSTANCE ""
  ___CALIBRATION ""
END_HEADER

BEGIN_DB
 ICCAP_VAR vc         0              

 #va              ia              ic             
  -15             -0.00064476     0.00065332     
  -14.9           -0.00060508     0.0006068      
  -14.8           -0.00056614     0.00056766     
  -14.7           -0.00052926     0.00052934     
  -14.6           -0.00049066     0.00049136     
  -14.5           -0.00045122     0.00045166     
  -14.4           -0.00041284     0.0004128      
  -14.3           -0.00037146     0.00037182     
  -14.2           -0.00033164     0.00033184     
  -14.1           -0.00029096     0.0002908      
  -14             -0.00024844     0.00024828     
  -13.9           -0.00020752     0.00020562     
  -13.8           -0.00016468     0.0001645      
  -13.7           -0.00012242     0.00012156     
  -13.6           -8.0582e-005    7.944e-005     
  -13.5           -3.3474e-005    2.9218e-005    
  -13.4           -3.688e-008     2.3166e-008    
  -13.3           -5.436e-009     4.523e-009     
  -13.2           -2.4446e-009    2.1912e-009    
  -13.1           -1.5726e-009    1.3782e-009    
  -13             -1.1582e-009    1.0136e-009    
  -12.9           -9.1404e-010    7.9976e-010    
  -12.8           -7.5028e-010    6.584e-010     
  -12.7           -6.2766e-010    5.4648e-010    
  -12.6           -5.4328e-010    4.6856e-010    
  -12.5           -4.7144e-010    4.032e-010     
  -12.4           -4.1762e-010    3.5136e-010    
  -12.3           -3.7492e-010    3.0832e-010    
  -12.2           -3.3538e-010    2.72e-010      
  -12.1           -3.0362e-010    2.4426e-010    
  -12             -2.7632e-010    2.1842e-010    
  -11.9           -2.5244e-010    1.9632e-010    
  -11.8           -2.3662e-010    1.792e-010     
  -11.7           -2.1812e-010    1.6136e-010    
  -11.6           -2.0278e-010    1.4694e-010    
  -11.5           -1.8744e-010    1.3292e-010    
  -11.4           -1.7438e-010    1.187e-010     
  -11.3           -1.6454e-010    1.0894e-010    
  -11.2           -1.5466e-010    9.824e-011     
  -11.1           -1.4794e-010    9.072e-011     
  -11             -1.3702e-010    8.334e-011     
  -10.9           -1.2886e-010    7.424e-011     
  -10.8           -1.2306e-010    6.914e-011     
  -10.7           -1.1606e-010    6.144e-011     
  -10.6           -1.093e-010     5.552e-011     
  -10.5           -1.0404e-010    4.97e-011      
  -10.4           -9.842e-011     4.53e-011      
  -10.3           -9.442e-011     4.12e-011      
  -10.2           -8.97e-011      3.582e-011     
  -10.1           -8.562e-011     3.19e-011      
  -10             -8.086e-011     2.76e-011      
  -9.9            -7.618e-011     2.534e-011     
  -9.8            -7.25e-011      2.076e-011     
  -9.7            -7.036e-011     1.842e-011     
  -9.6            -6.776e-011     1.528e-011     
  -9.5            -6.452e-011     1.274e-011     
  -9.4            -6.158e-011     1.112e-011     
  -9.3            -5.844e-011     7.58e-012      
  -9.2            -5.726e-011     6.08e-012      
  -9.1            -5.558e-011     3.3e-012       
  -9              -5.288e-011     3.2e-012       
  -8.9            -4.996e-011     1.6e-013       
  -8.8            -4.778e-011     -1e-012        
  -8.7            -4.674e-011     -3.48e-012     
  -8.6            -4.56e-011      -5.14e-012     
  -8.5            -4.418e-011     -6.76e-012     
  -8.4            -4.174e-011     -8.24e-012     
  -8.3            -3.986e-011     -9.04e-012     
  -8.2            -3.898e-011     -1.112e-011    
  -8.1            -3.876e-011     -1.102e-011    
  -8              -3.712e-011     -1.324e-011    
  -7.9            -3.566e-011     -1.294e-011    
  -7.8            -3.348e-011     -1.482e-011    
  -7.7            -3.292e-011     -1.518e-011    
  -7.6            -3.244e-011     -1.754e-011    
  -7.5            -3.172e-011     -1.896e-011    
  -7.4            -3.006e-011     -2.01e-011     
  -7.3            -2.836e-011     -2.082e-011    
  -7.2            -2.766e-011     -2.07e-011     
  -7.1            -2.768e-011     -2.248e-011    
  -7              -2.716e-011     -2.206e-011    
  -6.9            -2.57e-011      -2.384e-011    
  -6.8            -2.408e-011     -2.37e-011     
  -6.7            -2.322e-011     -2.508e-011    
  -6.6            -2.348e-011     -2.65e-011     
  -6.5            -2.31e-011      -2.736e-011    
  -6.4            -2.236e-011     -2.794e-011    
  -6.3            -2.062e-011     -2.776e-011    
  -6.2            -1.996e-011     -2.886e-011    
  -6.1            -1.99e-011      -2.898e-011    
  -6              -2.024e-011     -3.058e-011    
  -5.9            -1.926e-011     -2.972e-011    
  -5.8            -1.788e-011     -3.058e-011    
  -5.7            -1.708e-011     -3.138e-011    
  -5.6            -1.724e-011     -3.228e-011    
  -5.5            -1.772e-011     -3.326e-011    
  -5.4            -1.72e-011      -3.326e-011    
  -5.3            -1.604e-011     -3.342e-011    
  -5.2            -1.472e-011     -3.436e-011    
  -5.1            -1.5e-011       -3.504e-011    
  -5              -1.552e-011     -3.47e-011     
  -4.9            -1.526e-011     -3.548e-011    
  -4.8            -1.412e-011     -3.54e-011     
  -4.7            -1.316e-011     -3.64e-011     
  -4.6            -1.336e-011     -3.728e-011    
  -4.5            -1.386e-011     -3.762e-011    
  -4.4            -1.354e-011     -3.784e-011    
  -4.3            -1.248e-011     -3.746e-011    
  -4.2            -1.158e-011     -3.818e-011    
  -4.1            -1.16e-011      -3.832e-011    
  -4              -1.226e-011     -3.934e-011    
  -3.9            -1.22e-011      -3.944e-011    
  -3.8            -1.132e-011     -3.922e-011    
  -3.7            -1.05e-011      -4.008e-011    
  -3.6            -1.036e-011     -4.092e-011    
  -3.5            -1.096e-011     -4.198e-011    
  -3.4            -1.108e-011     -4.196e-011    
  -3.3            -1.03e-011      -4.144e-011    
  -3.2            -9.4e-012       -4.146e-011    
  -3.1            -9.14e-012      -4.224e-011    
  -3              -9.74e-012      -4.284e-011    
  -2.9            -9.82e-012      -4.314e-011    
  -2.8            -9.32e-012      -4.352e-011    
  -2.7            -8.34e-012      -4.344e-011    
  -2.6            -8.12e-012      -4.492e-011    
  -2.5            -8.86e-012      -4.526e-011    
  -2.4            -8.9e-012       -4.596e-011    
  -2.3            -8.4e-012       -4.528e-011    
  -2.2            -7.54e-012      -4.526e-011    
  -2.1            -7.14e-012      -4.572e-011    
  -2              -7.56e-012      -4.624e-011    
  -1.9            -7.96e-012      -4.738e-011    
  -1.8            -7.6e-012       -4.664e-011    
  -1.7            -6.8e-012       -4.792e-011    
  -1.6            -6.28e-012      -4.794e-011    
  -1.5            -6.34e-012      -4.922e-011    
  -1.4            -6.72e-012      -4.932e-011    
  -1.3            -6.58e-012      -4.942e-011    
  -1.2            -5.76e-012      -4.932e-011    
  -1.1            -4.76e-012      -4.994e-011    
  -1              -4.7e-012       -5.074e-011    
  -0.9            -5e-012         -5.106e-011    
  -0.8            -4.9e-012       -5.194e-011    
  -0.7            -4.12e-012      -5.166e-011    
  -0.6            -3.02e-012      -5.35e-011     
  -0.5            -2.76e-012      -5.354e-011    
  -0.4            -2.82e-012      -5.498e-011    
  -0.3            -2.8e-012       -5.434e-011    
  -0.2            -1.96e-012      -5.478e-011    
  -0.1            -8.2e-013       -5.512e-011    
  0               8e-013          -5.68e-011     
END_DB

