! VERSION = 6.00
BEGIN_HEADER
 ICCAP_INPUTS
  vc         V  cathode GROUND SMU1 0.1 CON        0
  va         V  anode GROUND SMU2 0.1 LIN        1    0          1          51   0.02      
 ICCAP_OUTPUTS
  ia         I  anode GROUND SMU2 B
  ic         I  cathode GROUND SMU1 B
 ICCAP_VALUES
  DataOrigin "Measure"
  ___CONTEXT ""
  Date "Jan 12 Wed 14:09:59 2022"
  Version "WaferPro.2016.01"
  Bench "B1500_B2200"
  Temperature "85"
  Lot "M135205"
  Reticle "M135205"
  Wafer "01D2"
  Die "X-3-Y0"
  DieList "TargetDie"
  Block "WholeDie"
  Subsite "diod2-5V"
  Routine "DIODE_EXTR_Measure"
  MeasCond "Set1"
  Device "5"
  DeviceName "pdiode_Dp5_A32B320"
  DevTechno "DIO"
  DevPolarity "P"
  Setup "iv_fwd"
  Type "-1"
  ___SPICE_INSTANCE ""
  A "3.2E-006"
  B "3.2E-005"
  ___TECHNO_INSTANCE ""
  ___CALIBRATION ""
END_HEADER

BEGIN_DB
 ICCAP_VAR vc         0              

 #va              ia              ic             
  0               -2e-014         3.494e-011     
  0.02            2.36e-012       2.47e-011      
  0.04            6.74e-012       1.794e-011     
  0.06            1.238e-011      9.88e-012      
  0.08            2.164e-011      -5.6e-013      
  0.1             3.646e-011      -1.582e-011    
  0.12            5.96e-011       -3.874e-011    
  0.14            9.56e-011       -7.11e-011     
  0.16            1.5306e-010     -1.1924e-010   
  0.18            2.4432e-010     -1.9274e-010   
  0.2             3.8984e-010     -3.0284e-010   
  0.22            6.2548e-010     -4.6902e-010   
  0.24            1.0072e-009     -7.1726e-010   
  0.26            1.6352e-009     -1.08948e-009  
  0.28            2.6758e-009     -1.646e-009    
  0.3             4.4444e-009     -2.4836e-009   
  0.32            7.4732e-009     -3.747e-009    
  0.34            1.2552e-008     -5.6454e-009   
  0.36            2.1524e-008     -1.9936e-008   
  0.38            3.7616e-008     -3.6082e-008   
  0.4             6.6682e-008     -6.542e-008    
  0.42            1.199e-007      -1.1926e-007   
  0.44            2.172e-007      -2.1622e-007   
  0.46            3.9812e-007     -3.9712e-007   
  0.48            7.3246e-007     -7.3172e-007   
  0.5             1.3598e-006     -1.359e-006    
  0.52            2.524e-006      -2.5218e-006   
  0.54            4.6906e-006     -4.6878e-006   
  0.56            8.7182e-006     -8.7178e-006   
  0.58            1.6066e-005     -1.6062e-005   
  0.6             2.928e-005      -2.9268e-005   
  0.62            5.2194e-005     -5.2182e-005   
  0.64            9.052e-005      -9.0498e-005   
  0.66            0.00015076      -0.00015066    
  0.68            0.0002403       -0.00024018    
  0.7             0.000365        -0.0003649     
  0.72            0.00052822      -0.00052808    
  0.74            0.00073352      -0.00073338    
  0.76            0.0009801       -0.0009799     
  0.78            0.0012698       -0.0012684     
  0.8             0.0015994       -0.001598      
  0.82            0.0019668       -0.0019654     
  0.84            0.0023718       -0.0023706     
  0.86            0.0028118       -0.0028104     
  0.88            0.0032822       -0.0032806     
  0.9             0.0037842       -0.0037824     
  0.92            0.0043118       -0.00431       
  0.94            0.0048662       -0.004865      
  0.96            0.005442        -0.0054402     
  0.98            0.0060416       -0.0060404     
  1               0.0066582       -0.006657      
END_DB

