! VERSION = 6.00
BEGIN_HEADER
 ICCAP_INPUTS
  vc         V  cathode GROUND SMU1 0.1 CON        0
  va         V  anode GROUND SMU2 0.1 LIN        1    0          1          51   0.02      
 ICCAP_OUTPUTS
  ia         I  anode GROUND SMU2 B
  ic         I  cathode GROUND SMU1 B
 ICCAP_VALUES
  DataOrigin "Measure"
  ___CONTEXT ""
  Date "Jan 12 Wed 14:11:12 2022"
  Version "WaferPro.2016.01"
  Bench "B1500_B2200"
  Temperature "85"
  Lot "M135205"
  Reticle "M135205"
  Wafer "01D2"
  Die "X-3-Y0"
  DieList "TargetDie"
  Block "WholeDie"
  Subsite "diod2-5V"
  Routine "DIODE_EXTR_Measure"
  MeasCond "Set1"
  Device "6"
  DeviceName "pdiode_Dp5_A320B320"
  DevTechno "DIO"
  DevPolarity "P"
  Setup "iv_fwd"
  Type "-1"
  ___SPICE_INSTANCE ""
  A "3.2E-005"
  B "3.2E-005"
  ___TECHNO_INSTANCE ""
  ___CALIBRATION ""
END_HEADER

BEGIN_DB
 ICCAP_VAR vc         0              

 #va              ia              ic             
  0               8.4e-013        3.672e-011     
  0.02            5.26e-012       2.776e-011     
  0.04            1.014e-011      2.08e-011      
  0.06            1.842e-011      1.342e-011     
  0.08            3.316e-011      3.74e-012      
  0.1             5.826e-011      -1.314e-011    
  0.12            1.0054e-010     -3.542e-011    
  0.14            1.7642e-010     -6.842e-011    
  0.16            3.096e-010      -1.2044e-010   
  0.18            5.4512e-010     -1.9912e-010   
  0.2             9.6936e-010     -3.2044e-010   
  0.22            1.7382e-009     -5.1244e-010   
  0.24            3.1352e-009     -8.1372e-010   
  0.26            5.686e-009      -1.2954e-009   
  0.28            8.5688e-009     -5.481e-009    
  0.3             1.5566e-008     -1.4726e-008   
  0.32            2.863e-008      -2.7366e-008   
  0.34            5.2826e-008     -5.1572e-008   
  0.36            9.8186e-008     -9.6928e-008   
  0.38            1.8278e-007     -1.8142e-007   
  0.4             3.407e-007      -3.3834e-007   
  0.42            6.3688e-007     -6.359e-007    
  0.44            1.1888e-006     -1.188e-006    
  0.46            2.2172e-006     -2.215e-006    
  0.48            4.1028e-006     -4.1006e-006   
  0.5             7.5482e-006     -7.5464e-006   
  0.52            1.3658e-005     -1.3654e-005   
  0.54            2.4196e-005     -2.4186e-005   
  0.56            4.1836e-005     -4.182e-005    
  0.58            6.9974e-005     -6.9962e-005   
  0.6             0.000113348     -0.000113336   
  0.62            0.00017694      -0.00017682    
  0.64            0.0002668       -0.00026666    
  0.66            0.00038782      -0.00038768    
  0.68            0.00054548      -0.00054534    
  0.7             0.0007424       -0.00074228    
  0.72            0.00097874      -0.00097852    
  0.74            0.0012564       -0.001255      
  0.76            0.0015698       -0.0015684     
  0.78            0.0019188       -0.0019176     
  0.8             0.0023002       -0.0022988     
  0.82            0.002709        -0.0027074     
  0.84            0.0031442       -0.0031428     
  0.86            0.0036026       -0.003601      
  0.88            0.0040788       -0.0040772     
  0.9             0.0045748       -0.0045728     
  0.92            0.0050842       -0.0050826     
  0.94            0.0056092       -0.005608      
  0.96            0.006144        -0.0061424     
  0.98            0.0066912       -0.00669       
  1               0.0072482       -0.0072464     
END_DB

