! VERSION = 6.00
BEGIN_HEADER
 ICCAP_INPUTS
  vc         V  cathode GROUND SMU1 0.1 CON        0
  va         V  anode GROUND SMU2 0.1 LIN        1    -15        0          151  0.1       
 ICCAP_OUTPUTS
  ia         I  anode GROUND SMU2 B
  ic         I  cathode GROUND SMU1 B
 ICCAP_VALUES
  DataOrigin "Measure"
  ___CONTEXT ""
  Date "Jan 12 Wed 14:13:37 2022"
  Version "WaferPro.2016.01"
  Bench "B1500_B2200"
  Temperature "85"
  Lot "M135205"
  Reticle "M135205"
  Wafer "01D2"
  Die "X-3-Y0"
  DieList "TargetDie"
  Block "WholeDie"
  Subsite "diod2-5V"
  Routine "DIODE_EXTR_Measure"
  MeasCond "Set1"
  Device "8"
  DeviceName "pdiode_Dp5_A064B640"
  DevTechno "DIO"
  DevPolarity "P"
  Setup "iv_rev"
  Type "-1"
  ___SPICE_INSTANCE ""
  A "6.4E-007"
  B "6.4E-005"
  ___TECHNO_INSTANCE ""
  ___CALIBRATION ""
END_HEADER

BEGIN_DB
 ICCAP_VAR vc         0              

 #va              ia              ic             
  -15             -0.011728       0.011824       
  -14.9           -0.011242       0.011274       
  -14.8           -0.010778       0.0108         
  -14.7           -0.010306       0.010324       
  -14.6           -0.0098322      0.0098406      
  -14.5           -0.0093402      0.0093434      
  -14.4           -0.00884        0.0088438      
  -14.3           -0.008323       0.0083238      
  -14.2           -0.0077958      0.0077978      
  -14.1           -0.007245       0.0072464      
  -14             -0.0066804      0.0066822      
  -13.9           -0.006106       0.0061068      
  -13.8           -0.0055108      0.0055124      
  -13.7           -0.0049074      0.0049064      
  -13.6           -0.0042854      0.0042836      
  -13.5           -0.0036506      0.0036496      
  -13.4           -0.0029974      0.0029954      
  -13.3           -0.002333       0.002331       
  -13.2           -0.0016466      0.0016446      
  -13.1           -0.0009328      0.00092812     
  -13             -8.1642e-006    6.281e-006     
  -12.9           -5.295e-008     5.183e-008     
  -12.8           -2.044e-008     2.031e-008     
  -12.7           -1.2914e-008    1.2858e-008    
  -12.6           -9.53e-009      9.5404e-009    
  -12.5           -7.574e-009     7.5958e-009    
  -12.4           -6.2986e-009    6.3236e-009    
  -12.3           -5.384e-009     5.4138e-009    
  -12.2           -4.6906e-009    4.733e-009     
  -12.1           -4.145e-009     4.1896e-009    
  -12             -3.7088e-009    3.7512e-009    
  -11.9           -3.355e-009     3.3964e-009    
  -11.8           -3.0382e-009    3.0876e-009    
  -11.7           -2.7844e-009    2.8244e-009    
  -11.6           -2.5602e-009    2.6016e-009    
  -11.5           -2.363e-009     2.4064e-009    
  -11.4           -2.193e-009     2.2318e-009    
  -11.3           -2.0426e-009    2.0794e-009    
  -11.2           -1.9044e-009    1.9418e-009    
  -11.1           -1.7818e-009    1.8172e-009    
  -11             -1.6702e-009    1.7036e-009    
  -10.9           -1.568e-009     1.601e-009     
  -10.8           -1.4764e-009    1.508e-009     
  -10.7           -1.3944e-009    1.4212e-009    
  -10.6           -1.3156e-009    1.3424e-009    
  -10.5           -1.2426e-009    1.27e-009      
  -10.4           -1.1806e-009    1.2058e-009    
  -10.3           -1.1176e-009    1.1418e-009    
  -10.2           -1.0632e-009    1.085e-009     
  -10.1           -1.012e-009     1.0304e-009    
  -10             -9.596e-010     9.784e-010     
  -9.9            -9.1628e-010    9.3094e-010    
  -9.8            -8.7526e-010    8.869e-010     
  -9.7            -8.3284e-010    8.4252e-010    
  -9.6            -7.9696e-010    8.0616e-010    
  -9.5            -7.6228e-010    7.6982e-010    
  -9.4            -7.3114e-010    7.3668e-010    
  -9.3            -6.9956e-010    7.0374e-010    
  -9.2            -6.6846e-010    6.7128e-010    
  -9.1            -6.4082e-010    6.4286e-010    
  -9              -6.166e-010     6.1588e-010    
  -8.9            -5.9364e-010    5.9086e-010    
  -8.8            -5.7e-010       5.6384e-010    
  -8.7            -5.4602e-010    5.4028e-010    
  -8.6            -5.231e-010     5.1678e-010    
  -8.5            -5.0388e-010    4.964e-010     
  -8.4            -4.8634e-010    4.7688e-010    
  -8.3            -4.6838e-010    4.5706e-010    
  -8.2            -4.4992e-010    4.3952e-010    
  -8.1            -4.3402e-010    4.2094e-010    
  -8              -4.1906e-010    4.0584e-010    
  -7.9            -4.0482e-010    3.8808e-010    
  -7.8            -3.9058e-010    3.733e-010     
  -7.7            -3.7474e-010    3.582e-010     
  -7.6            -3.622e-010     3.4456e-010    
  -7.5            -3.4988e-010    3.322e-010     
  -7.4            -3.3994e-010    3.201e-010     
  -7.3            -3.2788e-010    3.0846e-010    
  -7.2            -3.1578e-010    2.95e-010      
  -7.1            -3.0608e-010    2.8532e-010    
  -7              -2.9638e-010    2.734e-010     
  -6.9            -2.8748e-010    2.65e-010      
  -6.8            -2.7746e-010    2.542e-010     
  -6.7            -2.6914e-010    2.451e-010     
  -6.6            -2.595e-010     2.36e-010      
  -6.5            -2.5294e-010    2.2868e-010    
  -6.4            -2.448e-010     2.2116e-010    
  -6.3            -2.427e-010     2.1292e-010    
  -6.2            -2.3052e-010    2.0898e-010    
  -6.1            -2.2424e-010    2.0332e-010    
  -6              -2.1824e-010    1.9638e-010    
  -5.9            -2.115e-010     1.9224e-010    
  -5.8            -2.0532e-010    1.864e-010     
  -5.7            -1.9956e-010    1.8098e-010    
  -5.6            -1.9362e-010    1.7672e-010    
  -5.5            -1.883e-010     1.717e-010     
  -5.4            -1.8412e-010    1.669e-010     
  -5.3            -1.794e-010     1.6126e-010    
  -5.2            -1.7376e-010    1.5798e-010    
  -5.1            -1.689e-010     1.5342e-010    
  -5              -1.6566e-010    1.4824e-010    
  -4.9            -1.6112e-010    1.4488e-010    
  -4.8            -1.5602e-010    1.399e-010     
  -4.7            -1.5268e-010    1.3654e-010    
  -4.6            -1.4884e-010    1.3304e-010    
  -4.5            -1.4552e-010    1.278e-010     
  -4.4            -1.4144e-010    1.2562e-010    
  -4.3            -1.374e-010     1.213e-010     
  -4.2            -1.355e-010     1.1736e-010    
  -4.1            -1.3218e-010    1.1484e-010    
  -4              -1.281e-010     1.1214e-010    
  -3.9            -1.2578e-010    1.0906e-010    
  -3.8            -1.2338e-010    1.0524e-010    
  -3.7            -1.208e-010     1.0292e-010    
  -3.6            -1.1672e-010    9.956e-011     
  -3.5            -1.146e-010     9.84e-011      
  -3.4            -1.1288e-010    9.366e-011     
  -3.3            -1.1028e-010    9.252e-011     
  -3.2            -1.0692e-010    8.996e-011     
  -3.1            -1.063e-010     8.696e-011     
  -3              -1.033e-010     8.494e-011     
  -2.9            -1.0066e-010    8.244e-011     
  -2.8            -9.92e-011      8.124e-011     
  -2.7            -9.718e-011     7.832e-011     
  -2.6            -9.45e-011      7.67e-011      
  -2.5            -9.254e-011     7.344e-011     
  -2.4            -9.194e-011     7.304e-011     
  -2.3            -8.896e-011     6.902e-011     
  -2.2            -8.696e-011     6.866e-011     
  -2.1            -8.47e-011      6.612e-011     
  -2              -8.374e-011     6.354e-011     
  -1.9            -8.104e-011     6.16e-011      
  -1.8            -7.824e-011     5.93e-011      
  -1.7            -7.67e-011      5.762e-011     
  -1.6            -7.454e-011     5.462e-011     
  -1.5            -7.206e-011     5.154e-011     
  -1.4            -6.982e-011     4.9e-011       
  -1.3            -6.604e-011     4.708e-011     
  -1.2            -6.278e-011     4.234e-011     
  -1.1            -5.942e-011     3.896e-011     
  -1              -5.498e-011     3.544e-011     
  -0.9            -5.074e-011     3.094e-011     
  -0.8            -4.636e-011     2.69e-011      
  -0.7            -4.168e-011     2.066e-011     
  -0.6            -3.708e-011     1.676e-011     
  -0.5            -3.122e-011     1.252e-011     
  -0.4            -2.754e-011     5.52e-012      
  -0.3            -2.168e-011     1.34e-012      
  -0.2            -1.618e-011     -4.02e-012     
  -0.1            -1.072e-011     -9.44e-012     
  0               4e-013          -2.078e-011    
END_DB

