! VERSION = 6.00
BEGIN_HEADER
 ICCAP_INPUTS
  vc         V  cathode GROUND SMU1 0.1 CON        0
  va         V  anode GROUND SMU2 0.1 LIN        1    0          1          51   0.02      
 ICCAP_OUTPUTS
  ia         I  anode GROUND SMU2 B
  ic         I  cathode GROUND SMU1 B
 ICCAP_VALUES
  DataOrigin "Measure"
  ___CONTEXT ""
  Date "Jan 12 Wed 14:14:52 2022"
  Version "WaferPro.2016.01"
  Bench "B1500_B2200"
  Temperature "85"
  Lot "M135205"
  Reticle "M135205"
  Wafer "01D2"
  Die "X-3-Y0"
  DieList "TargetDie"
  Block "WholeDie"
  Subsite "diod2-5V"
  Routine "DIODE_EXTR_Measure"
  MeasCond "Set1"
  Device "9"
  DeviceName "pdiode_Dp5_A128B640"
  DevTechno "DIO"
  DevPolarity "P"
  Setup "iv_fwd"
  Type "-1"
  ___SPICE_INSTANCE ""
  A "1.28E-006"
  B "6.4E-005"
  ___TECHNO_INSTANCE ""
  ___CALIBRATION ""
END_HEADER

BEGIN_DB
 ICCAP_VAR vc         0              

 #va              ia              ic             
  0               1.2e-013        4.002e-011     
  0.02            4.94e-012       2.788e-011     
  0.04            1.19e-011       1.888e-011     
  0.06            2.252e-011      5.5e-012       
  0.08            3.84e-011       -1.208e-011    
  0.1             6.374e-011      -3.712e-011    
  0.12            1.0428e-010     -7.582e-011    
  0.14            1.6736e-010     -1.351e-010    
  0.16            2.6528e-010     -2.224e-010    
  0.18            4.1818e-010     -3.5568e-010   
  0.2             6.5926e-010     -5.5806e-010   
  0.22            1.03954e-009    -8.6054e-010   
  0.24            1.6426e-009     -1.3174e-009   
  0.26            2.611e-009      -2.0078e-009   
  0.28            4.1654e-009     -3.0354e-009   
  0.3             6.7016e-009     -4.5764e-009   
  0.32            1.09094e-008    -6.906e-009    
  0.34            1.7888e-008     -1.03856e-008  
  0.36            2.9354e-008     -2.6872e-008   
  0.38            4.9546e-008     -4.7708e-008   
  0.4             8.4882e-008     -8.3578e-008   
  0.42            1.4794e-007     -1.4704e-007   
  0.44            2.6048e-007     -2.5872e-007   
  0.46            4.651e-007      -4.6234e-007   
  0.48            8.3664e-007     -8.3186e-007   
  0.5             1.5214e-006     -1.5214e-006   
  0.52            2.775e-006      -2.774e-006    
  0.54            5.0784e-006     -5.0768e-006   
  0.56            9.3092e-006     -9.3044e-006   
  0.58            1.6954e-005     -1.6946e-005   
  0.6             3.0626e-005     -3.0608e-005   
  0.62            5.4336e-005     -5.433e-005    
  0.64            9.436e-005      -9.434e-005    
  0.66            0.00015848      -0.0001584     
  0.68            0.0002564       -0.0002563     
  0.7             0.00039698      -0.00039682    
  0.72            0.00058618      -0.00058602    
  0.74            0.00083006      -0.00082988    
  0.76            0.0011283       -0.00112818    
  0.78            0.0014836       -0.0014822     
  0.8             0.0018918       -0.0018902     
  0.82            0.0023488       -0.0023472     
  0.84            0.0028544       -0.0028532     
  0.86            0.0034038       -0.0034024     
  0.88            0.00399         -0.0039886     
  0.9             0.004614        -0.0046124     
  0.92            0.005267        -0.0052656     
  0.94            0.0059522       -0.00595       
  0.96            0.0066606       -0.0066584     
  0.98            0.0073942       -0.0073938     
  1               0.008148        -0.0081458     
END_DB

