! VERSION = 6.00
BEGIN_HEADER
 ICCAP_INPUTS
  vc         V  cathode GROUND SMU1 0.1 CON        0
  va         V  anode GROUND SMU2 0.1 LIN        1    -15        0          151  0.1       
 ICCAP_OUTPUTS
  ia         I  anode GROUND SMU2 B
  ic         I  cathode GROUND SMU1 B
 ICCAP_VALUES
  DataOrigin "Measure"
  ___CONTEXT ""
  Date "Jan 12 Wed 14:08:46 2022"
  Version "WaferPro.2016.01"
  Bench "B1500_B2200"
  Temperature "85"
  Lot "M135205"
  Reticle "M135205"
  Wafer "01D2"
  Die "X-3-Y0"
  DieList "TargetDie"
  Block "WholeDie"
  Subsite "diod2-5V"
  Routine "DIODE_EXTR_Measure"
  MeasCond "Set1"
  Device "4"
  DeviceName "pdiode_Dp5_A32B32"
  DevTechno "DIO"
  DevPolarity "P"
  Setup "iv_rev"
  Type "-1"
  ___SPICE_INSTANCE ""
  A "3.2E-006"
  B "3.2E-006"
  ___TECHNO_INSTANCE ""
  ___CALIBRATION ""
END_HEADER

BEGIN_DB
 ICCAP_VAR vc         0              

 #va              ia              ic             
  -15             -0.0008109      0.00081534     
  -14.9           -0.00078168     0.00078272     
  -14.8           -0.00075298     0.00075362     
  -14.7           -0.00072374     0.00072412     
  -14.6           -0.00069408     0.00069402     
  -14.5           -0.00066362     0.00066346     
  -14.4           -0.00063176     0.00063192     
  -14.3           -0.0005989      0.00059886     
  -14.2           -0.00056572     0.00056574     
  -14.1           -0.00053086     0.00053096     
  -14             -0.00049524     0.00049526     
  -13.9           -0.00045848     0.0004588      
  -13.8           -0.00042108     0.0004211      
  -13.7           -0.00038278     0.0003828      
  -13.6           -0.00034326     0.0003434      
  -13.5           -0.00030346     0.00030344     
  -13.4           -0.0002626      0.00026256     
  -13.3           -0.00022148     0.00022134     
  -13.2           -0.00017958     0.00017962     
  -13.1           -0.0001372      0.00013718     
  -13             -9.4724e-005    9.4748e-005    
  -12.9           -2.9746e-005    2.5632e-005    
  -12.8           -6.4674e-009    7.066e-009     
  -12.7           -7.0148e-010    7.6722e-010    
  -12.6           -4.484e-010     5.0044e-010    
  -12.5           -3.4518e-010    3.93e-010      
  -12.4           -2.8382e-010    3.271e-010     
  -12.3           -2.427e-010     2.8226e-010    
  -12.2           -2.1222e-010    2.4882e-010    
  -12.1           -1.8618e-010    2.1928e-010    
  -12             -1.6656e-010    1.9584e-010    
  -11.9           -1.5098e-010    1.7576e-010    
  -11.8           -1.3766e-010    1.6108e-010    
  -11.7           -1.2536e-010    1.4564e-010    
  -11.6           -1.1492e-010    1.3242e-010    
  -11.5           -1.0568e-010    1.181e-010     
  -11.4           -9.83e-011      1.082e-010     
  -11.3           -9.202e-011     9.832e-011     
  -11.2           -8.598e-011     8.84e-011      
  -11.1           -7.984e-011     8.044e-011     
  -11             -7.556e-011     7.26e-011      
  -10.9           -7.016e-011     6.604e-011     
  -10.8           -6.574e-011     5.876e-011     
  -10.7           -6.158e-011     5.346e-011     
  -10.6           -5.812e-011     4.696e-011     
  -10.5           -5.564e-011     4.24e-011      
  -10.4           -5.252e-011     3.62e-011      
  -10.3           -5.02e-011      3.174e-011     
  -10.2           -4.682e-011     2.802e-011     
  -10.1           -4.486e-011     2.438e-011     
  -10             -4.228e-011     2.088e-011     
  -9.9            -4.028e-011     1.712e-011     
  -9.8            -3.848e-011     1.428e-011     
  -9.7            -3.626e-011     1.11e-011      
  -9.6            -3.506e-011     8.96e-012      
  -9.5            -3.32e-011      5.56e-012      
  -9.4            -3.218e-011     2.4e-012       
  -9.3            -3.082e-011     1.4e-013       
  -9.2            -2.93e-011      -2.38e-012     
  -9.1            -2.798e-011     -3.76e-012     
  -9              -2.682e-011     -5.46e-012     
  -8.9            -2.61e-011      -7.22e-012     
  -8.8            -2.484e-011     -9.1e-012      
  -8.7            -2.422e-011     -1.06e-011     
  -8.6            -2.308e-011     -1.256e-011    
  -8.5            -2.228e-011     -1.402e-011    
  -8.4            -2.158e-011     -1.578e-011    
  -8.3            -2.07e-011      -1.766e-011    
  -8.2            -2.03e-011      -1.782e-011    
  -8.1            -1.9e-011       -1.97e-011     
  -8              -1.82e-011      -2.036e-011    
  -7.9            -1.76e-011      -2.18e-011     
  -7.8            -1.724e-011     -2.316e-011    
  -7.7            -1.664e-011     -2.444e-011    
  -7.6            -1.606e-011     -2.556e-011    
  -7.5            -1.532e-011     -2.574e-011    
  -7.4            -1.482e-011     -2.788e-011    
  -7.3            -1.494e-011     -2.81e-011     
  -7.2            -1.426e-011     -2.95e-011     
  -7.1            -1.378e-011     -2.892e-011    
  -7              -1.266e-011     -2.938e-011    
  -6.9            -1.246e-011     -3.146e-011    
  -6.8            -1.186e-011     -3.236e-011    
  -6.7            -1.21e-011      -3.35e-011     
  -6.6            -1.148e-011     -3.354e-011    
  -6.5            -1.086e-011     -3.488e-011    
  -6.4            -1.086e-011     -3.474e-011    
  -6.3            -1.038e-011     -3.674e-011    
  -6.2            -1.06e-011      -3.58e-011     
  -6.1            -9.78e-012      -3.646e-011    
  -6              -9.6e-012       -3.624e-011    
  -5.9            -8.62e-012      -3.764e-011    
  -5.8            -9.16e-012      -3.884e-011    
  -5.7            -8.64e-012      -3.876e-011    
  -5.6            -8.68e-012      -3.992e-011    
  -5.5            -8.3e-012       -3.942e-011    
  -5.4            -7.9e-012       -4.086e-011    
  -5.3            -8.12e-012      -4.016e-011    
  -5.2            -7.76e-012      -4.13e-011     
  -5.1            -7.88e-012      -4.06e-011     
  -5              -6.7e-012       -4.12e-011     
  -4.9            -7.14e-012      -4.184e-011    
  -4.8            -6.44e-012      -4.258e-011    
  -4.7            -7.12e-012      -4.342e-011    
  -4.6            -6.54e-012      -4.334e-011    
  -4.5            -6.46e-012      -4.45e-011     
  -4.4            -6.26e-012      -4.388e-011    
  -4.3            -5.66e-012      -4.604e-011    
  -4.2            -6.14e-012      -4.434e-011    
  -4.1            -5.7e-012       -4.506e-011    
  -4              -5.82e-012      -4.478e-011    
  -3.9            -5.04e-012      -4.542e-011    
  -3.8            -5.48e-012      -4.65e-011     
  -3.7            -4.96e-012      -4.674e-011    
  -3.6            -5.48e-012      -4.778e-011    
  -3.5            -5.22e-012      -4.63e-011     
  -3.4            -4.82e-012      -4.758e-011    
  -3.3            -4.84e-012      -4.69e-011     
  -3.2            -4.34e-012      -4.82e-011     
  -3.1            -4.66e-012      -4.75e-011     
  -3              -3.96e-012      -4.794e-011    
  -2.9            -4.4e-012       -4.848e-011    
  -2.8            -3.84e-012      -4.864e-011    
  -2.7            -4.46e-012      -4.962e-011    
  -2.6            -4.22e-012      -4.92e-011     
  -2.5            -4.1e-012       -4.98e-011     
  -2.4            -4.02e-012      -4.896e-011    
  -2.3            -3.5e-012       -5.012e-011    
  -2.2            -3.72e-012      -4.934e-011    
  -2.1            -3.18e-012      -5.022e-011    
  -2              -3.52e-012      -5.002e-011    
  -1.9            -3.06e-012      -5.034e-011    
  -1.8            -3.42e-012      -5.124e-011    
  -1.7            -2.98e-012      -5.146e-011    
  -1.6            -3.14e-012      -5.216e-011    
  -1.5            -3.2e-012       -5.088e-011    
  -1.4            -2.82e-012      -5.186e-011    
  -1.3            -2.58e-012      -5.086e-011    
  -1.2            -2.1e-012       -5.228e-011    
  -1.1            -1.84e-012      -5.22e-011     
  -1              -1.76e-012      -5.274e-011    
  -0.9            -1.9e-012       -5.312e-011    
  -0.8            -1.44e-012      -5.316e-011    
  -0.7            -1.5e-012       -5.45e-011     
  -0.6            -1.08e-012      -5.432e-011    
  -0.5            -9.4e-013       -5.482e-011    
  -0.4            -8.8e-013       -5.402e-011    
  -0.3            -2.2e-013       -5.45e-011     
  -0.2            -6e-014         -5.458e-011    
  -0.1            2e-013          -5.534e-011    
  0               3.2e-013        -5.598e-011    
END_DB

