! VERSION = 6.00
BEGIN_HEADER
 ICCAP_INPUTS
  vc         V  cathode GROUND SMU1 0.1 CON        0
  va         V  anode GROUND SMU2 0.1 LIN        1    -15        0          151  0.1       
 ICCAP_OUTPUTS
  ia         I  anode GROUND SMU2 B
  ic         I  cathode GROUND SMU1 B
 ICCAP_VALUES
  DataOrigin "Measure"
  ___CONTEXT ""
  Date "Jan 12 Wed 14:05:08 2022"
  Version "WaferPro.2016.01"
  Bench "B1500_B2200"
  Temperature "85"
  Lot "M135205"
  Reticle "M135205"
  Wafer "01D2"
  Die "X-3-Y0"
  DieList "TargetDie"
  Block "WholeDie"
  Subsite "diod2-5V"
  Routine "DIODE_EXTR_Measure"
  MeasCond "Set1"
  Device "1"
  DeviceName "pdiode_Dp5_A032B032"
  DevTechno "DIO"
  DevPolarity "P"
  Setup "iv_rev"
  Type "-1"
  ___SPICE_INSTANCE ""
  A "3.2E-007"
  B "3.2E-007"
  ___TECHNO_INSTANCE ""
  ___CALIBRATION ""
END_HEADER

BEGIN_DB
 ICCAP_VAR vc         0              

 #va              ia              ic             
  -15             -7.089e-005     7.441e-005     
  -14.9           -6.2556e-005    6.3324e-005    
  -14.8           -5.3652e-005    5.4122e-005    
  -14.7           -4.5844e-005    4.578e-005     
  -14.6           -3.7956e-005    3.8124e-005    
  -14.5           -2.9078e-005    2.8998e-005    
  -14.4           -2.0388e-005    2.071e-005     
  -14.3           -6.7624e-006    6.0964e-006    
  -14.2           -3.601e-007     1.653e-007     
  -14.1           -2.2382e-008    1.4044e-008    
  -14             -3.1418e-009    2.537e-009     
  -13.9           -1.0376e-009    1.0038e-009    
  -13.8           -5.9908e-010    5.9722e-010    
  -13.7           -3.8368e-010    3.9816e-010    
  -13.6           -2.812e-010     2.96e-010      
  -13.5           -2.1714e-010    2.3452e-010    
  -13.4           -1.7608e-010    1.8952e-010    
  -13.3           -1.473e-010     1.5776e-010    
  -13.2           -1.2572e-010    1.3334e-010    
  -13.1           -1.0932e-010    1.1246e-010    
  -13             -9.694e-011     9.732e-011     
  -12.9           -8.356e-011     8.404e-011     
  -12.8           -7.452e-011     7.304e-011     
  -12.7           -6.78e-011      6.344e-011     
  -12.6           -6.146e-011     5.438e-011     
  -12.5           -5.678e-011     4.648e-011     
  -12.4           -5.178e-011     4.214e-011     
  -12.3           -4.778e-011     3.49e-011      
  -12.2           -4.462e-011     2.914e-011     
  -12.1           -4.238e-011     2.326e-011     
  -12             -3.936e-011     1.88e-011      
  -11.9           -3.588e-011     1.496e-011     
  -11.8           -3.352e-011     9.88e-012      
  -11.7           -3.186e-011     6.4e-012       
  -11.6           -3.078e-011     1.5e-012       
  -11.5           -2.918e-011     -1.12e-012     
  -11.4           -2.706e-011     -5.2e-012      
  -11.3           -2.53e-011      -7e-012        
  -11.2           -2.36e-011      -1.062e-011    
  -11.1           -2.302e-011     -1.334e-011    
  -11             -2.222e-011     -1.446e-011    
  -10.9           -2.084e-011     -1.646e-011    
  -10.8           -1.936e-011     -1.674e-011    
  -10.7           -1.86e-011      -1.938e-011    
  -10.6           -1.802e-011     -2.132e-011    
  -10.5           -1.792e-011     -2.34e-011     
  -10.4           -1.686e-011     -2.356e-011    
  -10.3           -1.56e-011      -2.456e-011    
  -10.2           -1.48e-011      -2.6e-011      
  -10.1           -1.474e-011     -2.696e-011    
  -10             -1.434e-011     -2.836e-011    
  -9.9            -1.346e-011     -2.8e-011      
  -9.8            -1.266e-011     -2.852e-011    
  -9.7            -1.176e-011     -2.9e-011      
  -9.6            -1.174e-011     -3.04e-011     
  -9.5            -1.186e-011     -3.122e-011    
  -9.4            -1.148e-011     -3.252e-011    
  -9.3            -1.046e-011     -3.222e-011    
  -9.2            -9.78e-012      -3.268e-011    
  -9.1            -9.64e-012      -3.358e-011    
  -9              -9.78e-012      -3.356e-011    
  -8.9            -9.66e-012      -3.448e-011    
  -8.8            -8.88e-012      -3.444e-011    
  -8.7            -8.16e-012      -3.456e-011    
  -8.6            -7.8e-012       -3.506e-011    
  -8.5            -8.08e-012      -3.606e-011    
  -8.4            -8.22e-012      -3.65e-011     
  -8.3            -7.58e-012      -3.682e-011    
  -8.2            -6.84e-012      -3.73e-011     
  -8.1            -6.52e-012      -3.68e-011     
  -8              -6.8e-012       -3.772e-011    
  -7.9            -7.14e-012      -3.802e-011    
  -7.8            -7e-012         -3.752e-011    
  -7.7            -6.18e-012      -3.798e-011    
  -7.6            -5.7e-012       -3.78e-011     
  -7.5            -5.76e-012      -3.89e-011     
  -7.4            -6.14e-012      -3.964e-011    
  -7.3            -6.1e-012       -3.968e-011    
  -7.2            -5.3e-012       -3.9e-011      
  -7.1            -4.84e-012      -3.904e-011    
  -7              -4.86e-012      -3.958e-011    
  -6.9            -5.32e-012      -3.98e-011     
  -6.8            -5.5e-012       -4.04e-011     
  -6.7            -4.68e-012      -3.976e-011    
  -6.6            -4.18e-012      -4.068e-011    
  -6.5            -4.04e-012      -4.06e-011     
  -6.4            -4.68e-012      -4.202e-011    
  -6.3            -4.68e-012      -4.196e-011    
  -6.2            -4.42e-012      -4.194e-011    
  -6.1            -3.52e-012      -4.122e-011    
  -6              -3.32e-012      -4.14e-011     
  -5.9            -3.98e-012      -4.234e-011    
  -5.8            -4.44e-012      -4.196e-011    
  -5.7            -4.04e-012      -4.314e-011    
  -5.6            -3.16e-012      -4.196e-011    
  -5.5            -2.84e-012      -4.366e-011    
  -5.4            -3.22e-012      -4.392e-011    
  -5.3            -3.8e-012       -4.486e-011    
  -5.2            -3.58e-012      -4.438e-011    
  -5.1            -2.92e-012      -4.36e-011     
  -5              -2.56e-012      -4.394e-011    
  -4.9            -2.72e-012      -4.406e-011    
  -4.8            -3.44e-012      -4.596e-011    
  -4.7            -3.3e-012       -4.516e-011    
  -4.6            -2.68e-012      -4.674e-011    
  -4.5            -2.16e-012      -4.56e-011     
  -4.4            -2.34e-012      -4.678e-011    
  -4.3            -2.98e-012      -4.748e-011    
  -4.2            -3.06e-012      -4.73e-011     
  -4.1            -2.48e-012      -4.706e-011    
  -4              -1.96e-012      -4.678e-011    
  -3.9            -2.14e-012      -4.79e-011     
  -3.8            -2.6e-012       -4.766e-011    
  -3.7            -2.82e-012      -4.934e-011    
  -3.6            -2.2e-012       -4.864e-011    
  -3.5            -1.64e-012      -4.954e-011    
  -3.4            -1.56e-012      -4.968e-011    
  -3.3            -2.18e-012      -5.01e-011     
  -3.2            -2.5e-012       -5.056e-011    
  -3.1            -2.18e-012      -4.98e-011     
  -3              -1.54e-012      -5.036e-011    
  -2.9            -1.32e-012      -5.022e-011    
  -2.8            -1.88e-012      -5.166e-011    
  -2.7            -2.1e-012       -5.192e-011    
  -2.6            -1.98e-012      -5.24e-011     
  -2.5            -1.38e-012      -5.224e-011    
  -2.4            -1.02e-012      -5.214e-011    
  -2.3            -1.22e-012      -5.292e-011    
  -2.2            -1.6e-012       -5.24e-011     
  -2.1            -1.72e-012      -5.262e-011    
  -2              -1.14e-012      -5.284e-011    
  -1.9            -9.8e-013       -5.344e-011    
  -1.8            -9e-013         -5.386e-011    
  -1.7            -1.26e-012      -5.478e-011    
  -1.6            -1.36e-012      -5.476e-011    
  -1.5            -8.8e-013       -5.464e-011    
  -1.4            -3.4e-013       -5.494e-011    
  -1.3            -2.4e-013       -5.424e-011    
  -1.2            -7.2e-013       -5.498e-011    
  -1.1            -1.06e-012      -5.486e-011    
  -1              -5.8e-013       -5.518e-011    
  -0.9            0               -5.55e-011     
  -0.8            1.8e-013        -5.588e-011    
  -0.7            -2e-013         -5.664e-011    
  -0.6            -6.8e-013       -5.696e-011    
  -0.5            -3.6e-013       -5.712e-011    
  -0.4            2.6e-013        -5.588e-011    
  -0.3            5.4e-013        -5.654e-011    
  -0.2            2.2e-013        -5.646e-011    
  -0.1            -3e-013         -5.696e-011    
  0               -1.6e-013       -5.744e-011    
END_DB

