! VERSION = 6.00
BEGIN_HEADER
 ICCAP_INPUTS
  vc         V  cathode GROUND SMU1 0.1 CON        0
  va         V  anode GROUND SMU2 0.1 LIN        1    15         0          151  -0.1      
 ICCAP_OUTPUTS
  ia         I  anode GROUND SMU2 B
  ic         I  cathode GROUND SMU1 B
 ICCAP_VALUES
  DataOrigin "Measure"
  ___CONTEXT ""
  Date "Jan 12 Wed 13:59:05 2022"
  Version "WaferPro.2016.01"
  Bench "B1500_B2200"
  Temperature "85"
  Lot "M135205"
  Reticle "M135205"
  Wafer "01D2"
  Die "X-3-Y0"
  DieList "TargetDie"
  Block "WholeDie"
  Subsite "diod1-5V"
  Routine "DIODE_EXTR_Measure"
  MeasCond "Set1"
  Device "9"
  DeviceName "ndiode_Dn5_A128B640"
  DevTechno "DIO"
  DevPolarity "N"
  Setup "iv_rev"
  Type "1"
  ___SPICE_INSTANCE ""
  A "1.28E-006"
  B "6.4E-005"
  ___TECHNO_INSTANCE ""
  ___CALIBRATION ""
END_HEADER

BEGIN_DB
 ICCAP_VAR vc         0              

 #va              ia              ic             
  15              0.0080062       -0.0080596     
  14.9            0.007357        -0.007373      
  14.8            0.006722        -0.0067298     
  14.7            0.0060882       -0.0060946     
  14.6            0.0054612       -0.005464      
  14.5            0.0048284       -0.0048312     
  14.4            0.0041974       -0.0041972     
  14.3            0.0035682       -0.003568      
  14.2            0.0029352       -0.0029342     
  14.1            0.0023028       -0.0023016     
  14              0.0016618       -0.0016606     
  13.9            0.0009973       -0.00099758    
  13.8            0.00018366      -0.00018616    
  13.7            3.0292e-007     -3.2604e-007   
  13.6            7.1614e-008     -7.3306e-008   
  13.5            4.4508e-008     -4.5114e-008   
  13.4            3.3066e-008     -3.3398e-008   
  13.3            2.6352e-008     -2.669e-008    
  13.2            2.18e-008       -2.2016e-008   
  13.1            1.869e-008      -1.883e-008    
  13              1.624e-008      -1.637e-008    
  12.9            1.4342e-008     -1.4452e-008   
  12.8            1.2774e-008     -1.2886e-008   
  12.7            1.15e-008       -1.1564e-008   
  12.6            1.0448e-008     -1.0528e-008   
  12.5            9.4896e-009     -9.578e-009    
  12.4            8.6738e-009     -8.7194e-009   
  12.3            7.9988e-009     -8.0306e-009   
  12.2            7.3876e-009     -7.436e-009    
  12.1            6.8514e-009     -6.8886e-009   
  12              6.3728e-009     -6.393e-009    
  11.9            5.9368e-009     -5.9672e-009   
  11.8            5.5634e-009     -5.5798e-009   
  11.7            5.228e-009      -5.2306e-009   
  11.6            4.9158e-009     -4.9104e-009   
  11.5            4.6332e-009     -4.632e-009    
  11.4            4.3658e-009     -4.3572e-009   
  11.3            4.1286e-009     -4.1142e-009   
  11.2            3.9192e-009     -3.9126e-009   
  11.1            3.7148e-009     -3.7e-009      
  11              3.5318e-009     -3.5152e-009   
  10.9            3.3596e-009     -3.3374e-009   
  10.8            3.1986e-009     -3.1716e-009   
  10.7            3.043e-009      -3.024e-009    
  10.6            2.9048e-009     -2.8868e-009   
  10.5            2.7772e-009     -2.7452e-009   
  10.4            2.656e-009      -2.629e-009    
  10.3            2.54e-009       -2.52e-009     
  10.2            2.428e-009      -2.4026e-009   
  10.1            2.3288e-009     -2.2874e-009   
  10              2.234e-009      -2.2114e-009   
  9.9             2.1396e-009     -2.1066e-009   
  9.8             2.055e-009      -2.0212e-009   
  9.7             1.9752e-009     -1.9534e-009   
  9.6             1.8984e-009     -1.8676e-009   
  9.5             1.8242e-009     -1.7868e-009   
  9.4             1.754e-009      -1.7304e-009   
  9.3             1.689e-009      -1.6576e-009   
  9.2             1.6244e-009     -1.5916e-009   
  9.1             1.565e-009      -1.5352e-009   
  9               1.5082e-009     -1.472e-009    
  8.9             1.4502e-009     -1.414e-009    
  8.8             1.4008e-009     -1.3714e-009   
  8.7             1.352e-009      -1.3124e-009   
  8.6             1.3046e-009     -1.2568e-009   
  8.5             1.261e-009      -1.2216e-009   
  8.4             1.2214e-009     -1.1822e-009   
  8.3             1.177e-009      -1.1028e-009   
  8.2             1.1362e-009     -1.092e-009    
  8.1             1.0998e-009     -1.051e-009    
  8               1.0604e-009     -1.0182e-009   
  7.9             1.027e-009      -9.786e-010    
  7.8             9.888e-010      -9.458e-010    
  7.7             9.5804e-010     -9.178e-010    
  7.6             9.2964e-010     -8.972e-010    
  7.5             8.9674e-010     -8.572e-010    
  7.4             8.6966e-010     -8.224e-010    
  7.3             8.4076e-010     -8.044e-010    
  7.2             8.1378e-010     -7.786e-010    
  7.1             7.8788e-010     -7.496e-010    
  7               7.6302e-010     -7.204e-010    
  6.9             7.3978e-010     -7.1404e-010   
  6.8             7.189e-010      -6.8038e-010   
  6.7             6.9438e-010     -6.4742e-010   
  6.6             6.744e-010      -6.321e-010    
  6.5             6.5416e-010     -6.2018e-010   
  6.4             6.3452e-010     -5.8284e-010   
  6.3             6.1464e-010     -5.582e-010    
  6.2             5.9618e-010     -5.4604e-010   
  6.1             5.7768e-010     -5.3096e-010   
  6               5.6082e-010     -5.1714e-010   
  5.9             5.4474e-010     -4.9084e-010   
  5.8             5.2922e-010     -4.8604e-010   
  5.7             5.138e-010      -4.6554e-010   
  5.6             4.9942e-010     -4.605e-010    
  5.5             4.8524e-010     -4.3896e-010   
  5.4             4.7192e-010     -4.2328e-010   
  5.3             4.582e-010      -3.9698e-010   
  5.2             4.4496e-010     -3.934e-010    
  5.1             4.3286e-010     -3.9242e-010   
  5               4.2048e-010     -3.6428e-010   
  4.9             4.0952e-010     -3.5568e-010   
  4.8             3.9818e-010     -3.5128e-010   
  4.7             3.8676e-010     -3.4978e-010   
  4.6             3.7704e-010     -3.3078e-010   
  4.5             3.671e-010      -3.1086e-010   
  4.4             3.5712e-010     -2.976e-010    
  4.3             3.485e-010      -2.9528e-010   
  4.2             3.3886e-010     -2.962e-010    
  4.1             3.3004e-010     -2.7776e-010   
  4               3.2158e-010     -2.6536e-010   
  3.9             3.1426e-010     -2.6664e-010   
  3.8             3.0602e-010     -2.661e-010    
  3.7             2.9746e-010     -2.4528e-010   
  3.6             2.8984e-010     -2.372e-010    
  3.5             2.823e-010      -2.3138e-010   
  3.4             2.757e-010      -2.253e-010    
  3.3             2.6842e-010     -2.1528e-010   
  3.2             2.617e-010      -2.1022e-010   
  3.1             2.5538e-010     -2.0766e-010   
  3               2.491e-010      -1.813e-010    
  2.9             2.4308e-010     -1.9806e-010   
  2.8             2.368e-010      -1.9084e-010   
  2.7             2.3064e-010     -1.7516e-010   
  2.6             2.2412e-010     -1.638e-010    
  2.5             2.1862e-010     -1.8264e-010   
  2.4             2.1306e-010     -1.6172e-010   
  2.3             2.0714e-010     -1.341e-010    
  2.2             2.0086e-010     -1.4116e-010   
  2.1             1.9498e-010     -1.4982e-010   
  2               1.8838e-010     -1.4206e-010   
  1.9             1.8258e-010     -1.2574e-010   
  1.8             1.7668e-010     -1.2974e-010   
  1.7             1.7038e-010     -1.1964e-010   
  1.6             1.639e-010      -1.106e-010    
  1.5             1.576e-010      -1.1166e-010   
  1.4             1.5174e-010     -9.646e-011    
  1.3             1.4572e-010     -7.932e-011    
  1.2             1.3954e-010     -8.6e-011      
  1.1             1.3266e-010     -8.938e-011    
  1               1.2602e-010     -8.084e-011    
  0.9             1.1984e-010     -6.076e-011    
  0.8             1.136e-010      -6.086e-011    
  0.7             1.0674e-010     -6.37e-011     
  0.6             9.938e-011      -4.758e-011    
  0.5             9.176e-011      -2.782e-011    
  0.4             8.392e-011      -3.076e-011    
  0.3             7.528e-011      -2.182e-011    
  0.2             6.448e-011      -1.14e-011     
  0.1             4.808e-011      3.08e-012      
  0               -1.58e-012      4.73e-011      
END_DB

