! VERSION = 6.00
BEGIN_HEADER
 ICCAP_INPUTS
  vc         V  cathode GROUND SMU1 0.1 CON        0
  va         V  anode GROUND SMU2 0.1 LIN        1    15         0          151  -0.1      
 ICCAP_OUTPUTS
  ia         I  anode GROUND SMU2 B
  ic         I  cathode GROUND SMU1 B
 ICCAP_VALUES
  DataOrigin "Measure"
  ___CONTEXT ""
  Date "Jan 12 Wed 13:46:53 2022"
  Version "WaferPro.2016.01"
  Bench "B1500_B2200"
  Temperature "85"
  Lot "M135205"
  Reticle "M135205"
  Wafer "01D2"
  Die "X-3-Y0"
  DieList "TargetDie"
  Block "WholeDie"
  Subsite "diod1-5V"
  Routine "DIODE_EXTR_Measure"
  MeasCond "Set1"
  Device "3"
  DeviceName "ndiode_Dn5_A032B320"
  DevTechno "DIO"
  DevPolarity "N"
  Setup "iv_rev"
  Type "1"
  ___SPICE_INSTANCE ""
  A "3.2E-007"
  B "3.2E-005"
  ___TECHNO_INSTANCE ""
  ___CALIBRATION ""
END_HEADER

BEGIN_DB
 ICCAP_VAR vc         0              

 #va              ia              ic             
  15              0.0021788       -0.0022634     
  14.9            0.0018628       -0.0018926     
  14.8            0.0015698       -0.0015892     
  14.7            0.0012924       -0.001305      
  14.6            0.0010214       -0.0010308     
  14.5            0.00074208      -0.00075554    
  14.4            0.00046806      -0.00047896    
  14.3            0.0001809       -0.0001907     
  14.2            1.0328e-005     -1.2618e-005   
  14.1            4.1948e-007     -5.0382e-007   
  14              1.3668e-007     -1.4324e-007   
  13.9            7.5678e-008     -7.8842e-008   
  13.8            5.252e-008      -5.3296e-008   
  13.7            3.955e-008      -4.0242e-008   
  13.6            3.1592e-008     -3.2072e-008   
  13.5            2.5996e-008     -2.6454e-008   
  13.4            2.196e-008      -2.2326e-008   
  13.3            1.8928e-008     -1.9212e-008   
  13.2            1.6528e-008     -1.6806e-008   
  13.1            1.4604e-008     -1.4946e-008   
  13              1.3084e-008     -1.3284e-008   
  12.9            1.1754e-008     -1.194e-008    
  12.8            1.067e-008      -1.0832e-008   
  12.7            9.708e-009      -9.888e-009    
  12.6            8.8776e-009     -9.034e-009    
  12.5            8.1398e-009     -8.2546e-009   
  12.4            7.4884e-009     -7.5728e-009   
  12.3            6.934e-009      -7.0152e-009   
  12.2            6.448e-009      -6.5016e-009   
  12.1            6.0422e-009     -6.0954e-009   
  12              5.6462e-009     -5.6908e-009   
  11.9            5.2684e-009     -5.3184e-009   
  11.8            4.951e-009      -5.0042e-009   
  11.7            4.6594e-009     -4.6782e-009   
  11.6            4.4062e-009     -4.444e-009    
  11.5            4.1596e-009     -4.1834e-009   
  11.4            3.9346e-009     -3.9524e-009   
  11.3            3.7152e-009     -3.7296e-009   
  11.2            3.5292e-009     -3.5506e-009   
  11.1            3.3478e-009     -3.355e-009    
  11              3.184e-009      -3.188e-009    
  10.9            3.0234e-009     -3.0272e-009   
  10.8            2.8876e-009     -2.8876e-009   
  10.7            2.7646e-009     -2.7522e-009   
  10.6            2.633e-009      -2.629e-009    
  10.5            2.5102e-009     -2.496e-009    
  10.4            2.3958e-009     -2.3838e-009   
  10.3            2.2966e-009     -2.2848e-009   
  10.2            2.2048e-009     -2.176e-009    
  10.1            2.1104e-009     -2.0876e-009   
  10              2.0306e-009     -2.0204e-009   
  9.9             1.9542e-009     -1.9228e-009   
  9.8             1.8718e-009     -1.8412e-009   
  9.7             1.7924e-009     -1.7886e-009   
  9.6             1.7258e-009     -1.7022e-009   
  9.5             1.6574e-009     -1.6266e-009   
  9.4             1.5976e-009     -1.5804e-009   
  9.3             1.539e-009      -1.5206e-009   
  9.2             1.4808e-009     -1.4502e-009   
  9.1             1.432e-009      -1.4096e-009   
  9               1.3772e-009     -1.3484e-009   
  8.9             1.3258e-009     -1.2992e-009   
  8.8             1.2722e-009     -1.2472e-009   
  8.7             1.2296e-009     -1.1966e-009   
  8.6             1.1956e-009     -1.1526e-009   
  8.5             1.1538e-009     -1.1258e-009   
  8.4             1.1168e-009     -1.0806e-009   
  8.3             1.0738e-009     -1.0286e-009   
  8.2             1.039e-009      -9.982e-010    
  8.1             1.0032e-009     -9.652e-010    
  8               9.663e-010      -9.272e-010    
  7.9             9.327e-010      -9.042e-010    
  7.8             9.017e-010      -8.78e-010     
  7.7             8.7642e-010     -8.392e-010    
  7.6             8.4446e-010     -8.082e-010    
  7.5             8.1484e-010     -7.886e-010    
  7.4             7.8912e-010     -7.63e-010     
  7.3             7.6384e-010     -7.298e-010    
  7.2             7.3656e-010     -7.032e-010    
  7.1             7.135e-010      -6.812e-010    
  7               6.941e-010      -6.6352e-010   
  6.9             6.6948e-010     -6.37e-010     
  6.8             6.475e-010      -6.1666e-010   
  6.7             6.306e-010      -5.877e-010    
  6.6             6.1094e-010     -5.6508e-010   
  6.5             5.9338e-010     -5.536e-010    
  6.4             5.7202e-010     -5.3652e-010   
  6.3             5.5378e-010     -5.1856e-010   
  6.2             5.389e-010      -5.0284e-010   
  6.1             5.2098e-010     -4.8108e-010   
  6               5.0734e-010     -4.6128e-010   
  5.9             4.9104e-010     -4.5454e-010   
  5.8             4.769e-010      -4.313e-010    
  5.7             4.6292e-010     -4.1178e-010   
  5.6             4.5058e-010     -4.03e-010     
  5.5             4.3736e-010     -4.0234e-010   
  5.4             4.2396e-010     -3.8974e-010   
  5.3             4.1104e-010     -3.5796e-010   
  5.2             3.9868e-010     -3.5222e-010   
  5.1             3.9038e-010     -3.5262e-010   
  5               3.8014e-010     -3.366e-010    
  4.9             3.6946e-010     -3.0656e-010   
  4.8             3.587e-010      -3.0484e-010   
  4.7             3.4692e-010     -3.063e-010    
  4.6             3.3934e-010     -2.8976e-010   
  4.5             3.2986e-010     -2.8514e-010   
  4.4             3.1986e-010     -2.726e-010    
  4.3             3.1038e-010     -2.6254e-010   
  4.2             3.0288e-010     -2.5552e-010   
  4.1             2.9478e-010     -2.5592e-010   
  4               2.8808e-010     -2.3282e-010   
  3.9             2.7908e-010     -2.2594e-010   
  3.8             2.706e-010      -2.1068e-010   
  3.7             2.631e-010      -2.2302e-010   
  3.6             2.574e-010      -1.9894e-010   
  3.5             2.5218e-010     -1.921e-010    
  3.4             2.4514e-010     -1.9652e-010   
  3.3             2.3758e-010     -1.9436e-010   
  3.2             2.3124e-010     -1.839e-010    
  3.1             2.2586e-010     -1.661e-010    
  3               2.2174e-010     -1.6608e-010   
  2.9             2.1566e-010     -1.6076e-010   
  2.8             2.0958e-010     -1.5334e-010   
  2.7             2.0346e-010     -1.5306e-010   
  2.6             1.9934e-010     -1.41e-010     
  2.5             1.947e-010      -1.3878e-010   
  2.4             1.9032e-010     -1.4428e-010   
  2.3             1.8426e-010     -1.396e-010    
  2.2             1.784e-010      -1.2522e-010   
  2.1             1.7366e-010     -1.1298e-010   
  2               1.7064e-010     -1.1068e-010   
  1.9             1.664e-010      -1.2158e-010   
  1.8             1.6048e-010     -1.0496e-010   
  1.7             1.5474e-010     -9.202e-011    
  1.6             1.4972e-010     -9.578e-011    
  1.5             1.4614e-010     -1.033e-010    
  1.4             1.4126e-010     -9.968e-011    
  1.3             1.358e-010      -7.736e-011    
  1.2             1.291e-010      -7.044e-011    
  1.1             1.246e-010      -6.904e-011    
  1               1.208e-010      -7.116e-011    
  0.9             1.1622e-010     -5.734e-011    
  0.8             1.1056e-010     -5.442e-011    
  0.7             1.037e-010      -4.878e-011    
  0.6             9.804e-011      -5.08e-011     
  0.5             9.27e-011       -5.206e-011    
  0.4             8.754e-011      -3.942e-011    
  0.3             7.912e-011      -1.752e-011    
  0.2             6.894e-011      -6.86e-012     
  0.1             5.284e-011      -3.166e-011    
  0               -1.7e-012       5.978e-011     
END_DB

