! VERSION = 6.00
BEGIN_HEADER
 ICCAP_INPUTS
  vc         V  cathode GROUND SMU1 0.1 CON        0
  va         V  anode GROUND SMU2 0.1 LIN        1    15         0          151  -0.1      
 ICCAP_OUTPUTS
  ia         I  anode GROUND SMU2 B
  ic         I  cathode GROUND SMU1 B
 ICCAP_VALUES
  DataOrigin "Measure"
  ___CONTEXT ""
  Date "Jan 12 Wed 13:48:59 2022"
  Version "WaferPro.2016.01"
  Bench "B1500_B2200"
  Temperature "85"
  Lot "M135205"
  Reticle "M135205"
  Wafer "01D2"
  Die "X-3-Y0"
  DieList "TargetDie"
  Block "WholeDie"
  Subsite "diod1-5V"
  Routine "DIODE_EXTR_Measure"
  MeasCond "Set1"
  Device "4"
  DeviceName "ndiode_Dn5_A32B32"
  DevTechno "DIO"
  DevPolarity "N"
  Setup "iv_rev"
  Type "1"
  ___SPICE_INSTANCE ""
  A "3.2E-006"
  B "3.2E-006"
  ___TECHNO_INSTANCE ""
  ___CALIBRATION ""
END_HEADER

BEGIN_DB
 ICCAP_VAR vc         0              

 #va              ia              ic             
  15              0.0010622       -0.0010682     
  14.9            0.00097422      -0.00097804    
  14.8            0.0008922       -0.00089352    
  14.7            0.00081124      -0.00081188    
  14.6            0.00073076      -0.00073128    
  14.5            0.00065064      -0.00065088    
  14.4            0.00057062      -0.00057108    
  14.3            0.0004919       -0.00049182    
  14.2            0.00041358      -0.00041384    
  14.1            0.00033638      -0.00033648    
  14              0.0002605       -0.00026046    
  13.9            0.00018616      -0.00018614    
  13.8            0.0001151       -0.00011502    
  13.7            1e-005          -1.0352e-005   
  13.6            1.3874e-008     -1.472e-008    
  13.5            6.7418e-009     -7.112e-009    
  13.4            4.8262e-009     -4.995e-009    
  13.3            3.8062e-009     -4.0006e-009   
  13.2            3.1246e-009     -3.2758e-009   
  13.1            2.6474e-009     -2.7826e-009   
  13              2.308e-009      -2.42e-009     
  12.9            2.026e-009      -2.129e-009    
  12.8            1.8062e-009     -1.8964e-009   
  12.7            1.6036e-009     -1.682e-009    
  12.6            1.4428e-009     -1.5146e-009   
  12.5            1.3054e-009     -1.362e-009    
  12.4            1.1912e-009     -1.2314e-009   
  12.3            1.0786e-009     -1.114e-009    
  12.2            9.966e-010      -1.0398e-009   
  12.1            9.154e-010      -9.356e-010    
  12              8.4764e-010     -8.804e-010    
  11.9            7.8806e-010     -8.106e-010    
  11.8            7.3522e-010     -7.448e-010    
  11.7            6.8542e-010     -6.85e-010     
  11.6            6.446e-010      -6.462e-010    
  11.5            5.9982e-010     -6.0636e-010   
  11.4            5.6698e-010     -5.5736e-010   
  11.3            5.3984e-010     -5.308e-010    
  11.2            5.075e-010      -4.9882e-010   
  11.1            4.8036e-010     -4.5182e-010   
  11              4.5052e-010     -4.341e-010    
  10.9            4.3012e-010     -4.1812e-010   
  10.8            4.0842e-010     -3.886e-010    
  10.7            3.8962e-010     -3.6702e-010   
  10.6            3.705e-010      -3.4536e-010   
  10.5            3.5436e-010     -3.2026e-010   
  10.4            3.3618e-010     -3.0592e-010   
  10.3            3.2342e-010     -2.9544e-010   
  10.2            3.096e-010      -2.7078e-010   
  10.1            2.9918e-010     -2.584e-010    
  10              2.8566e-010     -2.605e-010    
  9.9             2.7194e-010     -2.4602e-010   
  9.8             2.6208e-010     -2.2394e-010   
  9.7             2.5212e-010     -2.1268e-010   
  9.6             2.434e-010      -2.0406e-010   
  9.5             2.3052e-010     -1.995e-010    
  9.4             2.2182e-010     -2.2248e-010   
  9.3             2.1232e-010     -1.6842e-010   
  9.2             2.0648e-010     -1.581e-010    
  9.1             1.9796e-010     -1.583e-010    
  9               1.9048e-010     -1.6274e-010   
  8.9             1.8458e-010     -1.4942e-010   
  8.8             1.7778e-010     -1.3022e-010   
  8.7             1.6928e-010     -1.2622e-010   
  8.6             1.6252e-010     -1.2524e-010   
  8.5             1.5686e-010     -1.1376e-010   
  8.4             1.5104e-010     -1.0244e-010   
  8.3             1.4702e-010     -9.51e-011     
  8.2             1.4138e-010     -9.272e-011    
  8.1             1.3726e-010     -9.904e-011    
  8               1.3142e-010     -9.926e-011    
  7.9             1.2904e-010     -8.328e-011    
  7.8             1.2516e-010     -7.386e-011    
  7.7             1.2066e-010     -7.496e-011    
  7.6             1.165e-010      -7.562e-011    
  7.5             1.1188e-010     -6.02e-011     
  7.4             1.0782e-010     -5.2e-011      
  7.3             1.0474e-010     -6.088e-011    
  7.2             1.0108e-010     -6.03e-011     
  7.1             9.79e-011       -4.91e-011     
  7               9.514e-011      -3.992e-011    
  6.9             9.17e-011       -5.118e-011    
  6.8             8.84e-011       -5.132e-011    
  6.7             8.732e-011      -3.134e-011    
  6.6             8.398e-011      -3.1e-011      
  6.5             8.13e-011       -2.394e-011    
  6.4             7.826e-011      -3.072e-011    
  6.3             7.638e-011      -3.14e-011     
  6.2             7.356e-011      -2.9e-011      
  6.1             7.214e-011      -1.804e-011    
  6               6.958e-011      -2.426e-011    
  5.9             6.772e-011      -3.028e-011    
  5.8             6.57e-011       -2.044e-011    
  5.7             6.384e-011      -1.106e-011    
  5.6             6.276e-011      6.6e-013       
  5.5             6.048e-011      -1.566e-011    
  5.4             5.884e-011      -9.86e-012     
  5.3             5.68e-011       -3.762e-011    
  5.2             5.528e-011      -5.7e-012      
  5.1             5.384e-011      -9.42e-012     
  5               5.224e-011      -1.054e-011    
  4.9             5.074e-011      -5.52e-012     
  4.8             4.896e-011      6.08e-012      
  4.7             4.854e-011      1.104e-011     
  4.6             4.65e-011       4.16e-012      
  4.5             4.588e-011      3e-012         
  4.4             4.402e-011      6.9e-012       
  4.3             4.252e-011      1.5e-011       
  4.2             4.162e-011      4.88e-012      
  4.1             4.046e-011      -1.08e-012     
  4               3.976e-011      7.76e-012      
  3.9             3.816e-011      1.07e-011      
  3.8             3.744e-011      1.684e-011     
  3.7             3.61e-011       1.082e-011     
  3.6             3.6e-011        1.88e-011      
  3.5             3.474e-011      1.782e-011     
  3.4             3.362e-011      2.254e-011     
  3.3             3.268e-011      2.078e-011     
  3.2             3.18e-011       1.012e-011     
  3.1             3.098e-011      1.272e-011     
  3               3.012e-011      2.58e-011      
  2.9             2.944e-011      3.024e-011     
  2.8             2.848e-011      1.6e-011       
  2.7             2.804e-011      1.82e-011      
  2.6             2.706e-011      2.914e-011     
  2.5             2.67e-011       3.116e-011     
  2.4             2.58e-011       3.074e-011     
  2.3             2.496e-011      2.394e-011     
  2.2             2.422e-011      1.728e-011     
  2.1             2.34e-011       2.438e-011     
  2               2.278e-011      3.61e-011      
  1.9             2.192e-011      2.98e-011      
  1.8             2.134e-011      1.99e-011      
  1.7             2.056e-011      3.164e-011     
  1.6             1.972e-011      3.792e-011     
  1.5             1.918e-011      4.094e-011     
  1.4             1.824e-011      2.804e-011     
  1.3             1.758e-011      2.584e-011     
  1.2             1.67e-011       3.27e-011      
  1.1             1.598e-011      3.758e-011     
  1               1.53e-011       3.356e-011     
  0.9             1.454e-011      3.556e-011     
  0.8             1.4e-011        4.472e-011     
  0.7             1.304e-011      4.478e-011     
  0.6             1.264e-011      3.754e-011     
  0.5             1.138e-011      3.86e-011      
  0.4             1.054e-011      4.072e-011     
  0.3             9.26e-012       3.848e-011     
  0.2             7.92e-012       3.984e-011     
  0.1             6.1e-012        4.402e-011     
  0               -7e-013         4.616e-011     
END_DB

