! VERSION = 6.00
BEGIN_HEADER
 ICCAP_INPUTS
  vc         V  cathode GROUND SMU1 0.1 CON        0
  va         V  anode GROUND SMU2 0.1 LIN        1    0          -1         51   -0.02     
 ICCAP_OUTPUTS
  ia         I  anode GROUND SMU2 B
  ic         I  cathode GROUND SMU1 B
 ICCAP_VALUES
  DataOrigin "Measure"
  ___CONTEXT ""
  Date "Jan 12 Wed 13:48:59 2022"
  Version "WaferPro.2016.01"
  Bench "B1500_B2200"
  Temperature "85"
  Lot "M135205"
  Reticle "M135205"
  Wafer "01D2"
  Die "X-3-Y0"
  DieList "TargetDie"
  Block "WholeDie"
  Subsite "diod1-5V"
  Routine "DIODE_EXTR_Measure"
  MeasCond "Set1"
  Device "4"
  DeviceName "ndiode_Dn5_A32B32"
  DevTechno "DIO"
  DevPolarity "N"
  Setup "iv_fwd"
  Type "1"
  ___SPICE_INSTANCE ""
  A "3.2E-006"
  B "3.2E-006"
  ___TECHNO_INSTANCE ""
  ___CALIBRATION ""
END_HEADER

BEGIN_DB
 ICCAP_VAR vc         0              

 #va              ia              ic             
  0               4.2e-013        3.604e-011     
  -0.02           -1.9e-012       1.97e-011      
  -0.04           -5.32e-012      1.584e-011     
  -0.06           -9.96e-012      3.79e-011      
  -0.08           -1.802e-011     3.478e-011     
  -0.1            -3.116e-011     4.372e-011     
  -0.12           -5.064e-011     7.31e-011      
  -0.14           -8.102e-011     8.254e-011     
  -0.16           -1.291e-010     1.395e-010     
  -0.18           -2.0166e-010    2.1068e-010    
  -0.2            -3.1318e-010    3.2738e-010    
  -0.22           -4.8162e-010    4.8826e-010    
  -0.24           -7.4026e-010    7.4186e-010    
  -0.26           -1.1248e-009    1.1402e-009    
  -0.28           -1.7096e-009    1.7218e-009    
  -0.3            -2.5948e-009    2.606e-009     
  -0.32           -3.9382e-009    3.9558e-009    
  -0.34           -5.992e-009     6.0082e-009    
  -0.36           -9.1658e-009    9.16e-009      
  -0.38           -1.4076e-008    1.407e-008     
  -0.4            -2.1958e-008    2.1912e-008    
  -0.42           -3.4674e-008    3.457e-008     
  -0.44           -5.5368e-008    5.5222e-008    
  -0.46           -9.0196e-008    8.9908e-008    
  -0.48           -1.4932e-007    1.493e-007     
  -0.5            -2.5222e-007    2.519e-007     
  -0.52           -4.3286e-007    4.3274e-007    
  -0.54           -7.5148e-007    7.5124e-007    
  -0.56           -1.32e-006      1.3218e-006    
  -0.58           -2.3336e-006    2.3336e-006    
  -0.6            -4.112e-006     4.1134e-006    
  -0.62           -7.2118e-006    7.2136e-006    
  -0.64           -1.247e-005     1.249e-005     
  -0.66           -2.1218e-005    2.1238e-005    
  -0.68           -3.5174e-005    3.5188e-005    
  -0.7            -5.6722e-005    5.6736e-005    
  -0.72           -8.8412e-005    8.8438e-005    
  -0.74           -0.00013328     0.00013342     
  -0.76           -0.0001941      0.00019424     
  -0.78           -0.0002733      0.00027344     
  -0.8            -0.00037356     0.00037368     
  -0.82           -0.00049522     0.00049536     
  -0.84           -0.00063986     0.00063998     
  -0.86           -0.00080642     0.00080654     
  -0.88           -0.00099584     0.00099596     
  -0.9            -0.0012056      0.0012068      
  -0.92           -0.0014372      0.0014386      
  -0.94           -0.0016878      0.0016892      
  -0.96           -0.0019586      0.0019598      
  -0.98           -0.002246       0.0022472      
  -1              -0.002552       0.002553       
END_DB

