! VERSION = 6.00
BEGIN_HEADER
 ICCAP_INPUTS
  vc         V  cathode GROUND SMU1 0.1 CON        0
  va         V  anode GROUND SMU2 0.1 LIN        1    0          -1         51   -0.02     
 ICCAP_OUTPUTS
  ia         I  anode GROUND SMU2 B
  ic         I  cathode GROUND SMU1 B
 ICCAP_VALUES
  DataOrigin "Measure"
  ___CONTEXT ""
  Date "Jan 12 Wed 14:03:03 2022"
  Version "WaferPro.2016.01"
  Bench "B1500_B2200"
  Temperature "85"
  Lot "M135205"
  Reticle "M135205"
  Wafer "01D2"
  Die "X-3-Y0"
  DieList "TargetDie"
  Block "WholeDie"
  Subsite "diod1-5V"
  Routine "DIODE_EXTR_Measure"
  MeasCond "Set1"
  Device "11"
  DeviceName "ndiode_Dn5_A320B640"
  DevTechno "DIO"
  DevPolarity "N"
  Setup "iv_fwd"
  Type "1"
  ___SPICE_INSTANCE ""
  A "3.2E-005"
  B "6.4E-005"
  ___TECHNO_INSTANCE ""
  ___CALIBRATION ""
END_HEADER

BEGIN_DB
 ICCAP_VAR vc         0              

 #va              ia              ic             
  0               7.6e-013        2.834e-011     
  -0.02           -1.016e-011     1.738e-011     
  -0.04           -2.872e-011     3.668e-011     
  -0.06           -5.78e-011      7.444e-011     
  -0.08           -1.0416e-010    1.053e-010     
  -0.1            -1.7738e-010    1.8656e-010    
  -0.12           -2.9472e-010    3.0786e-010    
  -0.14           -4.8398e-010    4.9326e-010    
  -0.16           -7.8958e-010    8.0524e-010    
  -0.18           -1.275e-009     1.2814e-009    
  -0.2            -2.0536e-009    2.0608e-009    
  -0.22           -3.2932e-009    3.2992e-009    
  -0.24           -5.277e-009     5.287e-009     
  -0.26           -8.4362e-009    8.4454e-009    
  -0.28           -1.3504e-008    1.351e-008     
  -0.3            -2.1742e-008    2.1748e-008    
  -0.32           -3.5124e-008    3.5088e-008    
  -0.34           -5.7206e-008    5.7094e-008    
  -0.36           -9.3878e-008    9.3688e-008    
  -0.38           -1.5506e-007    1.5502e-007    
  -0.4            -2.5934e-007    2.5912e-007    
  -0.42           -4.381e-007     4.3776e-007    
  -0.44           -7.4518e-007    7.4476e-007    
  -0.46           -1.2778e-006    1.2794e-006    
  -0.48           -2.1968e-006    2.197e-006     
  -0.5            -3.7878e-006    3.7876e-006    
  -0.52           -6.5112e-006    6.5132e-006    
  -0.54           -1.11156e-005   1.11176e-005   
  -0.56           -1.8888e-005    1.8912e-005    
  -0.58           -3.1884e-005    3.1898e-005    
  -0.6            -5.3254e-005    5.3268e-005    
  -0.62           -8.8064e-005    8.8076e-005    
  -0.64           -0.00014292     0.00014304     
  -0.66           -0.00022702     0.00022714     
  -0.68           -0.00034886     0.00034898     
  -0.7            -0.000517       0.00051712     
  -0.72           -0.0007349      0.00073502     
  -0.74           -0.0010053      0.0010054      
  -0.76           -0.0013238      0.0013252      
  -0.78           -0.001689       0.0016904      
  -0.8            -0.0020994      0.0021006      
  -0.82           -0.002547       0.0025484      
  -0.84           -0.0030318      0.0030332      
  -0.86           -0.0035466      0.0035478      
  -0.88           -0.004092       0.0040932      
  -0.9            -0.0046614      0.0046624      
  -0.92           -0.0052554      0.0052566      
  -0.94           -0.0058676      0.0058688      
  -0.96           -0.0065002      0.0065014      
  -0.98           -0.0071472      0.0071484      
  -1              -0.0078118      0.0078126      
END_DB

