! VERSION = 6.00
BEGIN_HEADER
 ICCAP_INPUTS
  vc         V  cathode GROUND SMU1 0.1 CON        0
  va         V  anode GROUND SMU2 0.1 LIN        1    15         0          151  -0.1      
 ICCAP_OUTPUTS
  ia         I  anode GROUND SMU2 B
  ic         I  cathode GROUND SMU1 B
 ICCAP_VALUES
  DataOrigin "Measure"
  ___CONTEXT ""
  Date "Jan 12 Wed 14:03:03 2022"
  Version "WaferPro.2016.01"
  Bench "B1500_B2200"
  Temperature "85"
  Lot "M135205"
  Reticle "M135205"
  Wafer "01D2"
  Die "X-3-Y0"
  DieList "TargetDie"
  Block "WholeDie"
  Subsite "diod1-5V"
  Routine "DIODE_EXTR_Measure"
  MeasCond "Set1"
  Device "11"
  DeviceName "ndiode_Dn5_A320B640"
  DevTechno "DIO"
  DevPolarity "N"
  Setup "iv_rev"
  Type "1"
  ___SPICE_INSTANCE ""
  A "3.2E-005"
  B "6.4E-005"
  ___TECHNO_INSTANCE ""
  ___CALIBRATION ""
END_HEADER

BEGIN_DB
 ICCAP_VAR vc         0              

 #va              ia              ic             
  15              0.019664        -0.019728      
  14.9            0.018364        -0.018364      
  14.8            0.017076        -0.017066      
  14.7            0.015788        -0.015774      
  14.6            0.014504        -0.014488      
  14.5            0.0132          -0.013184      
  14.4            0.01189         -0.011874      
  14.3            0.01058         -0.010564      
  14.2            0.009248        -0.0092418     
  14.1            0.0079186       -0.0079116     
  14              0.0065708       -0.0065638     
  13.9            0.005213        -0.005206      
  13.8            0.0038556       -0.0038486     
  13.7            0.0024666       -0.00246       
  13.6            0.0010542       -0.001047      
  13.5            8.382e-008      -8.652e-008    
  13.4            3.664e-008      -3.7038e-008   
  13.3            2.5474e-008     -2.573e-008    
  13.2            1.9606e-008     -1.9846e-008   
  13.1            1.595e-008      -1.6142e-008   
  13              1.3382e-008     -1.3542e-008   
  12.9            1.1484e-008     -1.1624e-008   
  12.8            1.0036e-008     -1.016e-008    
  12.7            8.8302e-009     -8.9444e-009   
  12.6            7.8742e-009     -7.9538e-009   
  12.5            7.0868e-009     -7.157e-009    
  12.4            6.4276e-009     -6.4804e-009   
  12.3            5.8636e-009     -5.9128e-009   
  12.2            5.3718e-009     -5.4232e-009   
  12.1            4.9464e-009     -4.9854e-009   
  12              4.5708e-009     -4.5986e-009   
  11.9            4.2438e-009     -4.2666e-009   
  11.8            3.9544e-009     -3.9772e-009   
  11.7            3.692e-009      -3.704e-009    
  11.6            3.463e-009      -3.467e-009    
  11.5            3.2538e-009     -3.2432e-009   
  11.4            3.054e-009      -3.0476e-009   
  11.3            2.8768e-009     -2.8708e-009   
  11.2            2.7118e-009     -2.7004e-009   
  11.1            2.565e-009      -2.5438e-009   
  11              2.4236e-009     -2.4074e-009   
  10.9            2.2936e-009     -2.2852e-009   
  10.8            2.1802e-009     -2.1544e-009   
  10.7            2.0736e-009     -2.0478e-009   
  10.6            1.966e-009      -1.9568e-009   
  10.5            1.8754e-009     -1.8582e-009   
  10.4            1.781e-009      -1.7556e-009   
  10.3            1.6958e-009     -1.6794e-009   
  10.2            1.6216e-009     -1.5962e-009   
  10.1            1.5476e-009     -1.5212e-009   
  10              1.4796e-009     -1.4554e-009   
  9.9             1.416e-009      -1.3838e-009   
  9.8             1.3618e-009     -1.3264e-009   
  9.7             1.3048e-009     -1.2754e-009   
  9.6             1.251e-009      -1.2134e-009   
  9.5             1.2026e-009     -1.1378e-009   
  9.4             1.153e-009      -1.1262e-009   
  9.3             1.1076e-009     -1.073e-009    
  9.2             1.0664e-009     -1.025e-009    
  9.1             1.0264e-009     -9.868e-010    
  9               9.8598e-010     -9.524e-010    
  8.9             9.4822e-010     -9.226e-010    
  8.8             9.1478e-010     -8.824e-010    
  8.7             8.798e-010      -8.48e-010     
  8.6             8.47e-010       -8.084e-010    
  8.5             8.1634e-010     -7.852e-010    
  8.4             7.887e-010      -7.538e-010    
  8.3             7.6002e-010     -7.224e-010    
  8.2             7.3442e-010     -7.058e-010    
  8.1             7.0814e-010     -6.8e-010      
  8               6.8562e-010     -6.54e-010     
  7.9             6.6192e-010     -6.37e-010     
  7.8             6.4062e-010     -6.1404e-010   
  7.7             6.185e-010      -5.8952e-010   
  7.6             5.9652e-010     -5.6164e-010   
  7.5             5.748e-010      -5.2752e-010   
  7.4             5.5748e-010     -5.1738e-010   
  7.3             5.4006e-010     -5.0818e-010   
  7.2             5.2424e-010     -4.8824e-010   
  7.1             5.0612e-010     -4.6978e-010   
  7               4.8902e-010     -4.5318e-010   
  6.9             4.7412e-010     -4.267e-010    
  6.8             4.6082e-010     -4.236e-010    
  6.7             4.4724e-010     -4.0222e-010   
  6.6             4.3266e-010     -3.861e-010    
  6.5             4.1746e-010     -3.665e-010    
  6.4             4.044e-010      -3.6412e-010   
  6.3             3.9314e-010     -3.6856e-010   
  6.2             3.822e-010      -3.4212e-010   
  6.1             3.7026e-010     -3.252e-010    
  6               3.5814e-010     -3.091e-010    
  5.9             3.469e-010      -3.1088e-010   
  5.8             3.3786e-010     -2.9102e-010   
  5.7             3.2926e-010     -2.81e-010     
  5.6             3.19e-010       -2.6798e-010   
  5.5             3.077e-010      -2.5648e-010   
  5.4             2.986e-010      -2.6268e-010   
  5.3             2.9058e-010     -2.4842e-010   
  5.2             2.8344e-010     -2.3974e-010   
  5.1             2.758e-010      -2.2438e-010   
  5               2.6656e-010     -2.2818e-010   
  4.9             2.5852e-010     -2.1942e-010   
  4.8             2.5132e-010     -2.0058e-010   
  4.7             2.4594e-010     -1.896e-010    
  4.6             2.3916e-010     -1.8892e-010   
  4.5             2.3136e-010     -1.8858e-010   
  4.4             2.2408e-010     -1.779e-010    
  4.3             2.1778e-010     -1.69e-010     
  4.2             2.1394e-010     -1.7156e-010   
  4.1             2.0896e-010     -1.6874e-010   
  4               2.0312e-010     -1.5662e-010   
  3.9             1.9618e-010     -1.4846e-010   
  3.8             1.907e-010      -1.3716e-010   
  3.7             1.8662e-010     -1.3788e-010   
  3.6             1.8204e-010     -1.366e-010    
  3.5             1.7738e-010     -1.2694e-010   
  3.4             1.7128e-010     -1.2302e-010   
  3.3             1.6652e-010     -1.2198e-010   
  3.2             1.6292e-010     -1.1766e-010   
  3.1             1.5944e-010     -1.1894e-010   
  3               1.5482e-010     -1.078e-010    
  2.9             1.4944e-010     -9.128e-011    
  2.8             1.4438e-010     -9.402e-011    
  2.7             1.4054e-010     -1.0152e-010   
  2.6             1.3774e-010     -9.116e-011    
  2.5             1.3318e-010     -7.872e-011    
  2.4             1.2824e-010     -7.712e-011    
  2.3             1.2274e-010     -8.05e-011     
  2.2             1.197e-010      -7.864e-011    
  2.1             1.1616e-010     -6.496e-011    
  2               1.1278e-010     -5.356e-011    
  1.9             1.0746e-010     -6.014e-011    
  1.8             1.0202e-010     -5.506e-011    
  1.7             9.832e-011      -4.546e-011    
  1.6             9.492e-011      -4.456e-011    
  1.5             9.254e-011      -4.258e-011    
  1.4             8.712e-011      -4.256e-011    
  1.3             8.242e-011      -4.176e-011    
  1.2             7.782e-011      -3.346e-011    
  1.1             7.52e-011       -2.26e-011     
  1               7.156e-011      -1.614e-011    
  0.9             6.662e-011      -1.514e-011    
  0.8             6.104e-011      -1.314e-011    
  0.7             5.582e-011      6.04e-012      
  0.6             5.264e-011      -7.6e-013      
  0.5             4.806e-011      -7.08e-012     
  0.4             4.284e-011      -3.22e-012     
  0.3             3.51e-011       1.562e-011     
  0.2             2.852e-011      2.518e-011     
  0.1             2.064e-011      2.696e-011     
  0               6.2e-013        4.64e-011      
END_DB

