! VERSION = 6.00
BEGIN_HEADER
 ICCAP_INPUTS
  vc         V  cathode GROUND SMU1 0.1 CON        0
  va         V  anode GROUND SMU2 0.1 LIN        1    0          -1         51   -0.02     
 ICCAP_OUTPUTS
  ia         I  anode GROUND SMU2 B
  ic         I  cathode GROUND SMU1 B
 ICCAP_VALUES
  DataOrigin "Measure"
  ___CONTEXT ""
  Date "Jan 12 Wed 13:46:53 2022"
  Version "WaferPro.2016.01"
  Bench "B1500_B2200"
  Temperature "85"
  Lot "M135205"
  Reticle "M135205"
  Wafer "01D2"
  Die "X-3-Y0"
  DieList "TargetDie"
  Block "WholeDie"
  Subsite "diod1-5V"
  Routine "DIODE_EXTR_Measure"
  MeasCond "Set1"
  Device "3"
  DeviceName "ndiode_Dn5_A032B320"
  DevTechno "DIO"
  DevPolarity "N"
  Setup "iv_fwd"
  Type "1"
  ___SPICE_INSTANCE ""
  A "3.2E-007"
  B "3.2E-005"
  ___TECHNO_INSTANCE ""
  ___CALIBRATION ""
END_HEADER

BEGIN_DB
 ICCAP_VAR vc         0              

 #va              ia              ic             
  0               -1e-012         4.51e-011      
  -0.02           -1.706e-011     3.39e-011      
  -0.04           -4.192e-011     6.564e-011     
  -0.06           -8.164e-011     9.362e-011     
  -0.08           -1.4472e-010    1.5534e-010    
  -0.1            -2.4242e-010    2.5228e-010    
  -0.12           -3.926e-010     4.1642e-010    
  -0.14           -6.193e-010     6.2892e-010    
  -0.16           -9.6446e-010    9.7256e-010    
  -0.18           -1.4848e-009    1.496e-009     
  -0.2            -2.271e-009     2.2692e-009    
  -0.22           -3.4382e-009    3.448e-009     
  -0.24           -5.1804e-009    5.1946e-009    
  -0.26           -7.7502e-009    7.7494e-009    
  -0.28           -1.1538e-008    1.1546e-008    
  -0.3            -1.7166e-008    1.7186e-008    
  -0.32           -2.5434e-008    2.5442e-008    
  -0.34           -3.7702e-008    3.771e-008     
  -0.36           -5.5894e-008    5.588e-008     
  -0.38           -8.2798e-008    8.2844e-008    
  -0.4            -1.232e-007     1.2332e-007    
  -0.42           -1.8424e-007    1.8436e-007    
  -0.44           -2.7712e-007    2.773e-007     
  -0.46           -4.2144e-007    4.2136e-007    
  -0.48           -6.4692e-007    6.4678e-007    
  -0.5            -1.008e-006     1.00728e-006   
  -0.52           -1.5916e-006    1.593e-006     
  -0.54           -2.5506e-006    2.5506e-006    
  -0.56           -4.1494e-006    4.148e-006     
  -0.58           -6.8184e-006    6.8198e-006    
  -0.6            -1.12648e-005   1.12686e-005   
  -0.62           -1.867e-005     1.8704e-005    
  -0.64           -3.085e-005     3.0872e-005    
  -0.66           -5.0584e-005    5.0616e-005    
  -0.68           -8.15e-005      8.1546e-005    
  -0.7            -0.00012862     0.00012876     
  -0.72           -0.00019768     0.00019786     
  -0.74           -0.0002954      0.00029558     
  -0.76           -0.00042722     0.00042746     
  -0.78           -0.00059892     0.00059914     
  -0.8            -0.00081666     0.00081688     
  -0.82           -0.0010821      0.00108234     
  -0.84           -0.0013986      0.0014002      
  -0.86           -0.0017666      0.001768       
  -0.88           -0.002187       0.0021884      
  -0.9            -0.0026554      0.0026566      
  -0.92           -0.0031724      0.0031738      
  -0.94           -0.003731       0.0037324      
  -0.96           -0.0043324      0.0043336      
  -0.98           -0.0049684      0.0049696      
  -1              -0.0056408      0.005642       
END_DB

