! VERSION = 6.00
BEGIN_HEADER
 ICCAP_INPUTS
  vc         V  cathode GROUND SMU1 0.1 CON        0
  va         V  anode GROUND SMU2 0.1 LIN        1    15         0          151  -0.1      
 ICCAP_OUTPUTS
  ia         I  anode GROUND SMU2 B
  ic         I  cathode GROUND SMU1 B
 ICCAP_VALUES
  DataOrigin "Measure"
  ___CONTEXT ""
  Date "Jan 12 Wed 13:44:39 2022"
  Version "WaferPro.2016.01"
  Bench "B1500_B2200"
  Temperature "85"
  Lot "M135205"
  Reticle "M135205"
  Wafer "01D2"
  Die "X-3-Y0"
  DieList "TargetDie"
  Block "WholeDie"
  Subsite "diod1-5V"
  Routine "DIODE_EXTR_Measure"
  MeasCond "Set1"
  Device "2"
  DeviceName "ndiode_Dn5_A032B32"
  DevTechno "DIO"
  DevPolarity "N"
  Setup "iv_rev"
  Type "1"
  ___SPICE_INSTANCE ""
  A "3.2E-007"
  B "3.2E-006"
  ___TECHNO_INSTANCE ""
  ___CALIBRATION ""
END_HEADER

BEGIN_DB
 ICCAP_VAR vc         0              

 #va              ia              ic             
  15              0.00029188      -0.00030582    
  14.9            0.00025002      -0.00025458    
  14.8            0.00021242      -0.0002156     
  14.7            0.00017468      -0.00017702    
  14.6            0.00013908      -0.00014122    
  14.5            0.00010456      -0.00010554    
  14.4            6.9282e-005     -7.1122e-005   
  14.3            3.4562e-005     -3.5424e-005   
  14.2            3.2276e-006     -4.08e-006     
  14.1            1.0852e-007     -1.4402e-007   
  14              2.4894e-008     -2.6852e-008   
  13.9            1.3066e-008     -1.3738e-008   
  13.8            8.2908e-009     -8.8854e-009   
  13.7            6.0892e-009     -6.3614e-009   
  13.6            4.7994e-009     -5.0332e-009   
  13.5            3.9538e-009     -4.1244e-009   
  13.4            3.2758e-009     -3.4832e-009   
  13.3            2.7876e-009     -2.9638e-009   
  13.2            2.4138e-009     -2.568e-009    
  13.1            2.1166e-009     -2.2448e-009   
  13              1.8532e-009     -1.991e-009    
  12.9            1.688e-009      -1.81e-009     
  12.8            1.54e-009       -1.6314e-009   
  12.7            1.408e-009      -1.4866e-009   
  12.6            1.2714e-009     -1.3564e-009   
  12.5            1.1654e-009     -1.2258e-009   
  12.4            1.0794e-009     -1.1406e-009   
  12.3            9.952e-010      -1.0356e-009   
  12.2            9.1392e-010     -9.554e-010    
  12.1            8.567e-010      -8.822e-010    
  12              7.9856e-010     -8.242e-010    
  11.9            7.5166e-010     -7.614e-010    
  11.8            7.0504e-010     -7.006e-010    
  11.7            6.5946e-010     -6.582e-010    
  11.6            6.189e-010      -6.13e-010     
  11.5            5.8536e-010     -5.809e-010    
  11.4            5.5372e-010     -5.4748e-010   
  11.3            5.1996e-010     -5.123e-010    
  11.2            5.0026e-010     -4.7556e-010   
  11.1            4.7102e-010     -4.5306e-010   
  11              4.4776e-010     -4.2618e-010   
  10.9            4.2448e-010     -3.9492e-010   
  10.8            4.0262e-010     -3.6734e-010   
  10.7            3.797e-010      -3.4184e-010   
  10.6            3.6624e-010     -3.4128e-010   
  10.5            3.453e-010      -3.1992e-010   
  10.4            3.2976e-010     -2.9526e-010   
  10.3            3.158e-010      -2.7946e-010   
  10.2            2.9992e-010     -2.757e-010    
  10.1            2.8644e-010     -2.5688e-010   
  10              2.765e-010      -2.3614e-010   
  9.9             2.6122e-010     -2.1914e-010   
  9.8             2.5322e-010     -2.1416e-010   
  9.7             2.4224e-010     -2.0738e-010   
  9.6             2.336e-010      -2.0036e-010   
  9.5             2.2512e-010     -1.9212e-010   
  9.4             2.167e-010      -1.7628e-010   
  9.3             2.0862e-010     -1.691e-010    
  9.2             2.0298e-010     -1.7496e-010   
  9.1             1.9462e-010     -1.5786e-010   
  9               1.8766e-010     -1.46e-010     
  8.9             1.8012e-010     -1.3208e-010   
  8.8             1.7216e-010     -1.3928e-010   
  8.7             1.6574e-010     -1.3278e-010   
  8.6             1.604e-010      -1.2238e-010   
  8.5             1.5626e-010     -1.1938e-010   
  8.4             1.5084e-010     -1.1766e-010   
  8.3             1.4472e-010     -1.102e-010    
  8.2             1.3902e-010     -9.256e-011    
  8.1             1.3516e-010     -9.752e-011    
  8               1.3024e-010     -8.764e-011    
  7.9             1.2666e-010     -8.668e-011    
  7.8             1.2216e-010     -8.226e-011    
  7.7             1.1842e-010     -8.12e-011     
  7.6             1.143e-010      -6.906e-011    
  7.5             1.1186e-010     -7.862e-011    
  7.4             1.0688e-010     -7.844e-011    
  7.3             1.0298e-010     -5.674e-011    
  7.2             9.918e-011      -4.478e-011    
  7.1             9.694e-011      -5.236e-011    
  7               9.332e-011      -6.194e-011    
  6.9             9.042e-011      -4.644e-011    
  6.8             8.718e-011      -3.942e-011    
  6.7             8.348e-011      -4.174e-011    
  6.6             8.128e-011      -4.412e-011    
  6.5             7.908e-011      -4.556e-011    
  6.4             7.648e-011      -3.946e-011    
  6.3             7.354e-011      -2.586e-011    
  6.2             7.102e-011      -1.68e-011     
  6.1             6.954e-011      -3.034e-011    
  6               6.806e-011      -2.37e-011     
  5.9             6.63e-011       -1.426e-011    
  5.8             6.406e-011      -1.194e-011    
  5.7             6.17e-011       -2.248e-011    
  5.6             5.98e-011       -2.702e-011    
  5.5             5.834e-011      -1.254e-011    
  5.4             5.69e-011       2.72e-012      
  5.3             5.52e-011       -1.2e-012      
  5.2             5.326e-011      -5.82e-012     
  5.1             5.158e-011      -5.24e-012     
  5               5e-011          -7e-013        
  4.9             5e-011          4.26e-012      
  4.8             4.836e-011      -2.16e-012     
  4.7             4.654e-011      -7.68e-012     
  4.6             4.504e-011      -3e-012        
  4.5             4.436e-011      9.76e-012      
  4.4             4.356e-011      8.62e-012      
  4.3             4.214e-011      4.6e-012       
  4.2             4.07e-011       9.48e-012      
  4.1             3.898e-011      1.218e-011     
  4               3.82e-011       1.748e-011     
  3.9             3.776e-011      1.266e-011     
  3.8             3.682e-011      1.74e-012      
  3.7             3.52e-011       1.394e-011     
  3.6             3.378e-011      1.816e-011     
  3.5             3.342e-011      2.388e-011     
  3.4             3.308e-011      6.84e-012      
  3.3             3.218e-011      2.014e-011     
  3.2             3.084e-011      2.752e-011     
  3.1             2.96e-011       2.752e-011     
  3               2.904e-011      2.328e-011     
  2.9             2.934e-011      1.41e-011      
  2.8             2.848e-011      1.65e-011      
  2.7             2.722e-011      2.294e-011     
  2.6             2.592e-011      3.336e-011     
  2.5             2.532e-011      2.692e-011     
  2.4             2.536e-011      2.12e-011      
  2.3             2.514e-011      2.57e-011      
  2.2             2.406e-011      4.234e-011     
  2.1             2.296e-011      3.148e-011     
  2               2.21e-011       2.458e-011     
  1.9             2.202e-011      2.992e-011     
  1.8             2.182e-011      3.186e-011     
  1.7             2.078e-011      3.084e-011     
  1.6             1.954e-011      2.848e-011     
  1.5             1.858e-011      3.404e-011     
  1.4             1.86e-011       3.71e-011      
  1.3             1.862e-011      5.542e-011     
  1.2             1.782e-011      4.21e-011      
  1.1             1.642e-011      3.458e-011     
  1               1.546e-011      3.066e-011     
  0.9             1.524e-011      3.9e-011       
  0.8             1.512e-011      4.042e-011     
  0.7             1.45e-011       3.32e-011      
  0.6             1.306e-011      3.624e-011     
  0.5             1.182e-011      4.534e-011     
  0.4             1.152e-011      5.3e-011       
  0.3             1.124e-011      4.3e-011       
  0.2             1.01e-011       3.998e-011     
  0.1             7.24e-012       4.142e-011     
  0               -9e-013         5.538e-011     
END_DB

