! VERSION = 6.00
BEGIN_HEADER
 ICCAP_INPUTS
  vc         V  cathode GROUND SMU1 0.1 CON        0
  va         V  anode GROUND SMU2 0.1 LIN        1    15         0          151  -0.1      
 ICCAP_OUTPUTS
  ia         I  anode GROUND SMU2 B
  ic         I  cathode GROUND SMU1 B
 ICCAP_VALUES
  DataOrigin "Measure"
  ___CONTEXT ""
  Date "Jan 12 Wed 13:42:34 2022"
  Version "WaferPro.2016.01"
  Bench "B1500_B2200"
  Temperature "85"
  Lot "M135205"
  Reticle "M135205"
  Wafer "01D2"
  Die "X-3-Y0"
  DieList "TargetDie"
  Block "WholeDie"
  Subsite "diod1-5V"
  Routine "DIODE_EXTR_Measure"
  MeasCond "Set1"
  Device "1"
  DeviceName "ndiode_Dn5_A032B032"
  DevTechno "DIO"
  DevPolarity "N"
  Setup "iv_rev"
  Type "1"
  ___SPICE_INSTANCE ""
  A "3.2E-007"
  B "3.2E-007"
  ___TECHNO_INSTANCE ""
  ___CALIBRATION ""
END_HEADER

BEGIN_DB
 ICCAP_VAR vc         0              

 #va              ia              ic             
  15              4.8304e-005     -5.2498e-005   
  14.9            3.9934e-005     -4.071e-005    
  14.8            3.3182e-005     -3.415e-005    
  14.7            2.591e-005      -2.6866e-005   
  14.6            2.0358e-005     -2.0582e-005   
  14.5            1.3854e-005     -1.3934e-005   
  14.4            4.5398e-006     -5.1424e-006   
  14.3            7.956e-007      -1.0322e-006   
  14.2            1.844e-007      -1.733e-007    
  14.1            3.855e-008      -4.0878e-008   
  14              1.253e-008      -1.2938e-008   
  13.9            6.6724e-009     -7.3014e-009   
  13.8            4.054e-009      -4.3296e-009   
  13.7            2.9368e-009     -3.1538e-009   
  13.6            2.1764e-009     -2.3222e-009   
  13.5            1.8316e-009     -2.0006e-009   
  13.4            1.5086e-009     -1.6676e-009   
  13.3            1.315e-009      -1.47e-009     
  13.2            1.0516e-009     -1.1966e-009   
  13.1            9.0594e-010     -1.0322e-009   
  13              8.036e-010      -9.234e-010    
  12.9            7.34e-010       -8.27e-010     
  12.8            6.5422e-010     -7.342e-010    
  12.7            5.9788e-010     -6.53e-010     
  12.6            5.3822e-010     -5.79e-010     
  12.5            5.1342e-010     -5.41e-010     
  12.4            4.5268e-010     -4.9478e-010   
  12.3            4.1658e-010     -4.4382e-010   
  12.2            3.7816e-010     -3.8774e-010   
  12.1            3.5012e-010     -3.5672e-010   
  12              3.2662e-010     -3.1756e-010   
  11.9            3.009e-010      -2.9358e-010   
  11.8            2.9068e-010     -2.8022e-010   
  11.7            2.7764e-010     -2.7086e-010   
  11.6            2.5458e-010     -2.4144e-010   
  11.5            2.3904e-010     -2.3348e-010   
  11.4            2.2156e-010     -2.1178e-010   
  11.3            2.0944e-010     -1.8502e-010   
  11.2            2.0054e-010     -1.7426e-010   
  11.1            1.9454e-010     -1.613e-010    
  11              1.8322e-010     -1.648e-010    
  10.9            1.728e-010      -1.451e-010    
  10.8            1.606e-010      -1.3456e-010   
  10.7            1.5374e-010     -1.2294e-010   
  10.6            1.4644e-010     -1.2492e-010   
  10.5            1.3692e-010     -1.2036e-010   
  10.4            1.2582e-010     -9.74e-011     
  10.3            1.184e-010      -9.55e-011     
  10.2            1.1424e-010     -8.732e-011    
  10.1            1.0728e-010     -8.454e-011    
  10              1.0122e-010     -6.948e-011    
  9.9             9.668e-011      -6.434e-011    
  9.8             9.502e-011      -6.218e-011    
  9.7             9.084e-011      -6.842e-011    
  9.6             8.618e-011      -6.784e-011    
  9.5             8.178e-011      -5.816e-011    
  9.4             7.65e-011       -3.568e-011    
  9.3             7.372e-011      -3.72e-011     
  9.2             7.108e-011      -4.098e-011    
  9.1             6.874e-011      -4.132e-011    
  9               6.532e-011      -2.848e-011    
  8.9             6.368e-011      -3.258e-011    
  8.8             5.984e-011      -3.798e-011    
  8.7             5.718e-011      -2.256e-011    
  8.6             5.494e-011      -2.846e-011    
  8.5             5.25e-011       -2.22e-011     
  8.4             4.99e-011       -8.3e-012      
  8.3             4.782e-011      -1.672e-011    
  8.2             4.642e-011      -1.496e-011    
  8.1             4.576e-011      -5.08e-012     
  8               4.346e-011      -3.76e-012     
  7.9             4.202e-011      -1.302e-011    
  7.8             3.978e-011      -1.514e-011    
  7.7             3.832e-011      -6.84e-012     
  7.6             3.75e-011       1.136e-011     
  7.5             3.64e-011       3.42e-012      
  7.4             3.468e-011      6.2e-013       
  7.3             3.258e-011      7.18e-012      
  7.2             3.128e-011      6.56e-012      
  7.1             3.082e-011      6.22e-012      
  7               2.99e-011       7.78e-012      
  6.9             2.878e-011      2.8e-013       
  6.8             2.72e-011       1.286e-011     
  6.7             2.62e-011       1.806e-011     
  6.6             2.594e-011      1.096e-011     
  6.5             2.534e-011      7.44e-012      
  6.4             2.364e-011      1.694e-011     
  6.3             2.248e-011      2.418e-011     
  6.2             2.134e-011      3.246e-011     
  6.1             2.052e-011      2.7e-011       
  6               2.098e-011      1.306e-011     
  5.9             2.044e-011      1.398e-011     
  5.8             1.914e-011      2.422e-011     
  5.7             1.828e-011      3.42e-011      
  5.6             1.796e-011      1.86e-011      
  5.5             1.74e-011       2.4e-011       
  5.4             1.714e-011      3.754e-011     
  5.3             1.6e-011        3.876e-011     
  5.2             1.484e-011      3.332e-011     
  5.1             1.476e-011      2.206e-011     
  5               1.474e-011      3.25e-011      
  4.9             1.428e-011      2.952e-011     
  4.8             1.35e-011       3.592e-011     
  4.7             1.288e-011      2.926e-011     
  4.6             1.24e-011       3.504e-011     
  4.5             1.256e-011      3.482e-011     
  4.4             1.25e-011       3.98e-011      
  4.3             1.17e-011       3.998e-011     
  4.2             1.09e-011       3.822e-011     
  4.1             1.048e-011      3.564e-011     
  4               1.086e-011      3.878e-011     
  3.9             1.074e-011      4.572e-011     
  3.8             1.046e-011      3.104e-011     
  3.7             9.44e-012       3.522e-011     
  3.6             9.16e-012       4.312e-011     
  3.5             9.54e-012       4.604e-011     
  3.4             9.76e-012       3.574e-011     
  3.3             9.32e-012       3.912e-011     
  3.2             8.3e-012        4.346e-011     
  3.1             7.86e-012       4.368e-011     
  3               7.84e-012       3.93e-011      
  2.9             8.48e-012       3.276e-011     
  2.8             8e-012          4.058e-011     
  2.7             7e-012          3.918e-011     
  2.6             6.4e-012        6.004e-011     
  2.5             6.62e-012       4.974e-011     
  2.4             6.94e-012       4.194e-011     
  2.3             6.7e-012        3.576e-011     
  2.2             6.1e-012        6.622e-011     
  2.1             5.44e-012       5.228e-011     
  2               5.5e-012        3.068e-011     
  1.9             5.88e-012       3.778e-011     
  1.8             6.08e-012       5.076e-011     
  1.7             5.1e-012        5.28e-011      
  1.6             4.56e-012       4.23e-011      
  1.5             4.44e-012       5.01e-011      
  1.4             4.84e-012       4.684e-011     
  1.3             5.06e-012       4.57e-011      
  1.2             4.52e-012       4.86e-011      
  1.1             3.86e-012       4.15e-011      
  1               3.8e-012        3.726e-011     
  0.9             4.36e-012       4.506e-011     
  0.8             4.42e-012       5.538e-011     
  0.7             3.9e-012        4.886e-011     
  0.6             3.06e-012       4.11e-011      
  0.5             2.88e-012       4.878e-011     
  0.4             3.04e-012       5.482e-011     
  0.3             3.52e-012       5.026e-011     
  0.2             3.08e-012       4.152e-011     
  0.1             1.96e-012       3.994e-011     
  0               -4.8e-013       5.394e-011     
END_DB

