! VERSION = 6.00
BEGIN_HEADER
 ICCAP_INPUTS
  vc         V  cathode GROUND SMU1 0.1 CON        0
  va         V  anode GROUND SMU2 0.1 LIN        1    0          -1         51   -0.02     
 ICCAP_OUTPUTS
  ia         I  anode GROUND SMU2 B
  ic         I  cathode GROUND SMU1 B
 ICCAP_VALUES
  DataOrigin "Measure"
  ___CONTEXT ""
  Date "Jan 12 Wed 13:57:10 2022"
  Version "WaferPro.2016.01"
  Bench "B1500_B2200"
  Temperature "85"
  Lot "M135205"
  Reticle "M135205"
  Wafer "01D2"
  Die "X-3-Y0"
  DieList "TargetDie"
  Block "WholeDie"
  Subsite "diod1-5V"
  Routine "DIODE_EXTR_Measure"
  MeasCond "Set1"
  Device "8"
  DeviceName "ndiode_Dn5_A064B640"
  DevTechno "DIO"
  DevPolarity "N"
  Setup "iv_fwd"
  Type "1"
  ___SPICE_INSTANCE ""
  A "6.4E-007"
  B "6.4E-005"
  ___TECHNO_INSTANCE ""
  ___CALIBRATION ""
END_HEADER

BEGIN_DB
 ICCAP_VAR vc         0              

 #va              ia              ic             
  0               -2.2e-013       2.67e-011      
  -0.02           -1.692e-011     2.59e-011      
  -0.04           -4.198e-011     5.566e-011     
  -0.06           -8.32e-011      8.51e-011      
  -0.08           -1.4942e-010    1.683e-010     
  -0.1            -2.526e-010     2.5982e-010    
  -0.12           -4.1794e-010    4.281e-010     
  -0.14           -6.7684e-010    6.8706e-010    
  -0.16           -1.0832e-009    1.0936e-009    
  -0.18           -1.7176e-009    1.7226e-009    
  -0.2            -2.6968e-009    2.7066e-009    
  -0.22           -4.1984e-009    4.2024e-009    
  -0.24           -6.5012e-009    6.5152e-009    
  -0.26           -9.9826e-009    9.9958e-009    
  -0.28           -1.5232e-008    1.5248e-008    
  -0.3            -2.3214e-008    2.32e-008      
  -0.32           -3.522e-008     3.517e-008     
  -0.34           -5.3374e-008    5.3286e-008    
  -0.36           -8.0898e-008    8.0758e-008    
  -0.38           -1.2244e-007    1.2258e-007    
  -0.4            -1.8662e-007    1.8674e-007    
  -0.42           -2.8628e-007    2.8642e-007    
  -0.44           -4.4214e-007    4.4266e-007    
  -0.46           -6.9142e-007    6.9192e-007    
  -0.48           -1.09372e-006   1.094e-006     
  -0.5            -1.7578e-006    1.7606e-006    
  -0.52           -2.8704e-006    2.8724e-006    
  -0.54           -4.7368e-006    4.7366e-006    
  -0.56           -7.9084e-006    7.9142e-006    
  -0.58           -1.3256e-005    1.3292e-005    
  -0.6            -2.2254e-005    2.2274e-005    
  -0.62           -3.7288e-005    3.7308e-005    
  -0.64           -6.1866e-005    6.1902e-005    
  -0.66           -0.0001015      0.000101526    
  -0.68           -0.00016314     0.00016328     
  -0.7            -0.00025698     0.00025714     
  -0.72           -0.0003934      0.00039354     
  -0.74           -0.00058538     0.00058554     
  -0.76           -0.00084346     0.00084362     
  -0.78           -0.001178       0.0011792      
  -0.8            -0.0016024      0.0016036      
  -0.82           -0.0021186      0.0021198      
  -0.84           -0.0027334      0.0027348      
  -0.86           -0.0034428      0.003444       
  -0.88           -0.004249       0.00425        
  -0.9            -0.0051408      0.0051418      
  -0.92           -0.0061186      0.0061198      
  -0.94           -0.0071682      0.0071694      
  -0.96           -0.0082908      0.0082922      
  -0.98           -0.0094718      0.009473       
  -1              -0.0107142      0.0107154      
END_DB

