! VERSION = 6.00
BEGIN_HEADER
 ICCAP_INPUTS
  vc         V  cathode GROUND SMU1 0.1 CON        0
  va         V  anode GROUND SMU2 0.1 LIN        1    15         0          151  -0.1      
 ICCAP_OUTPUTS
  ia         I  anode GROUND SMU2 B
  ic         I  cathode GROUND SMU1 B
 ICCAP_VALUES
  DataOrigin "Measure"
  ___CONTEXT ""
  Date "Jan 12 Wed 13:51:01 2022"
  Version "WaferPro.2016.01"
  Bench "B1500_B2200"
  Temperature "85"
  Lot "M135205"
  Reticle "M135205"
  Wafer "01D2"
  Die "X-3-Y0"
  DieList "TargetDie"
  Block "WholeDie"
  Subsite "diod1-5V"
  Routine "DIODE_EXTR_Measure"
  MeasCond "Set1"
  Device "5"
  DeviceName "ndiode_Dn5_A32B320"
  DevTechno "DIO"
  DevPolarity "N"
  Setup "iv_rev"
  Type "1"
  ___SPICE_INSTANCE ""
  A "3.2E-006"
  B "3.2E-005"
  ___TECHNO_INSTANCE ""
  ___CALIBRATION ""
END_HEADER

BEGIN_DB
 ICCAP_VAR vc         0              

 #va              ia              ic             
  15              0.0058766       -0.0058946     
  14.9            0.0054566       -0.0054608     
  14.8            0.005038        -0.0050398     
  14.7            0.0046204       -0.0046206     
  14.6            0.0042056       -0.0042048     
  14.5            0.003786        -0.0037848     
  14.4            0.0033656       -0.003364      
  14.3            0.0029472       -0.0029454     
  14.2            0.002526        -0.0025244     
  14.1            0.0021074       -0.0021056     
  14              0.0016874       -0.0016856     
  13.9            0.0012694       -0.0012678     
  13.8            0.00085804      -0.00085762    
  13.7            0.00043446      -0.00043388    
  13.6            1.7714e-007     -1.802e-007    
  13.5            1.9752e-008     -2.0228e-008   
  13.4            1.4222e-008     -1.456e-008    
  13.3            1.1302e-008     -1.158e-008    
  13.2            9.307e-009      -9.604e-009    
  13.1            7.8772e-009     -8.0346e-009   
  13              6.84e-009       -6.9772e-009   
  12.9            6.068e-009      -6.1692e-009   
  12.8            5.3912e-009     -5.4976e-009   
  12.7            4.852e-009      -4.9428e-009   
  12.6            4.3864e-009     -4.4618e-009   
  12.5            4.0084e-009     -4.07e-009     
  12.4            3.6696e-009     -3.7436e-009   
  12.3            3.385e-009      -3.4346e-009   
  12.2            3.1228e-009     -3.1596e-009   
  12.1            2.9008e-009     -2.9412e-009   
  12              2.7084e-009     -2.7372e-009   
  11.9            2.531e-009      -2.554e-009    
  11.8            2.3714e-009     -2.379e-009    
  11.7            2.2204e-009     -2.235e-009    
  11.6            2.0962e-009     -2.0948e-009   
  11.5            1.9694e-009     -1.976e-009    
  11.4            1.8618e-009     -1.8614e-009   
  11.3            1.7558e-009     -1.7554e-009   
  11.2            1.6632e-009     -1.6632e-009   
  11.1            1.5812e-009     -1.5682e-009   
  11              1.5024e-009     -1.4922e-009   
  10.9            1.43e-009       -1.4184e-009   
  10.8            1.3638e-009     -1.3554e-009   
  10.7            1.2998e-009     -1.2786e-009   
  10.6            1.244e-009      -1.2326e-009   
  10.5            1.1874e-009     -1.1866e-009   
  10.4            1.1308e-009     -1.1044e-009   
  10.3            1.0798e-009     -1.0586e-009   
  10.2            1.0336e-009     -1.0078e-009   
  10.1            9.8912e-010     -9.626e-010    
  10              9.498e-010      -9.37e-010     
  9.9             9.1174e-010     -8.818e-010    
  9.8             8.727e-010      -8.498e-010    
  9.7             8.4032e-010     -8.208e-010    
  9.6             8.071e-010      -7.89e-010     
  9.5             7.7506e-010     -7.632e-010    
  9.4             7.4528e-010     -7.124e-010    
  9.3             7.1668e-010     -6.846e-010    
  9.2             6.9108e-010     -6.634e-010    
  9.1             6.649e-010      -6.204e-010    
  9               6.3802e-010     -6.2538e-010   
  8.9             6.1466e-010     -5.8666e-010   
  8.8             5.9394e-010     -5.5206e-010   
  8.7             5.7428e-010     -5.4496e-010   
  8.6             5.5398e-010     -5.2346e-010   
  8.5             5.3486e-010     -5.0486e-010   
  8.4             5.1544e-010     -4.8006e-010   
  8.3             4.9872e-010     -4.5338e-010   
  8.2             4.8074e-010     -4.5032e-010   
  8.1             4.644e-010      -4.4004e-010   
  8               4.495e-010      -4.1506e-010   
  7.9             4.3462e-010     -3.8748e-010   
  7.8             4.2038e-010     -3.991e-010    
  7.7             4.0636e-010     -3.7272e-010   
  7.6             3.9312e-010     -3.5062e-010   
  7.5             3.813e-010      -3.2922e-010   
  7.4             3.6966e-010     -3.2594e-010   
  7.3             3.5824e-010     -3.189e-010    
  7.2             3.4658e-010     -3.0238e-010   
  7.1             3.3516e-010     -2.9978e-010   
  7               3.2466e-010     -2.7356e-010   
  6.9             3.1482e-010     -2.6004e-010   
  6.8             3.0536e-010     -2.5912e-010   
  6.7             2.954e-010      -2.5474e-010   
  6.6             2.8626e-010     -2.334e-010    
  6.5             2.78e-010       -2.189e-010    
  6.4             2.6986e-010     -2.3022e-010   
  6.3             2.6208e-010     -2.222e-010    
  6.2             2.5406e-010     -2.1014e-010   
  6.1             2.4592e-010     -1.9228e-010   
  6               2.3906e-010     -1.8916e-010   
  5.9             2.3216e-010     -1.8546e-010   
  5.8             2.2636e-010     -1.713e-010    
  5.7             2.1914e-010     -1.6748e-010   
  5.6             2.1258e-010     -1.5962e-010   
  5.5             2.0648e-010     -1.5422e-010   
  5.4             2.0046e-010     -1.5774e-010   
  5.3             1.9534e-010     -1.4922e-010   
  5.2             1.8962e-010     -1.3516e-010   
  5.1             1.8402e-010     -1.2654e-010   
  5               1.7888e-010     -1.3426e-010   
  4.9             1.7356e-010     -1.2448e-010   
  4.8             1.6954e-010     -1.0922e-010   
  4.7             1.6462e-010     -1.0686e-010   
  4.6             1.6034e-010     -1.083e-010    
  4.5             1.5506e-010     -1.1328e-010   
  4.4             1.5096e-010     -9.912e-011    
  4.3             1.4678e-010     -9.264e-011    
  4.2             1.436e-010      -8.92e-011     
  4.1             1.394e-010      -9.326e-011    
  4               1.3582e-010     -9.074e-011    
  3.9             1.3258e-010     -8.09e-011     
  3.8             1.2938e-010     -6.754e-011    
  3.7             1.268e-010      -6.604e-011    
  3.6             1.2308e-010     -7.284e-011    
  3.5             1.1942e-010     -7.408e-011    
  3.4             1.167e-010      -6.104e-011    
  3.3             1.143e-010      -5.286e-011    
  3.2             1.11e-010       -6.246e-011    
  3.1             1.0844e-010     -6.566e-011    
  3               1.0506e-010     -5.264e-011    
  2.9             1.0244e-010     -3.866e-011    
  2.8             1.0022e-010     -4.636e-011    
  2.7             9.748e-011      -4.286e-011    
  2.6             9.452e-011      -4.152e-011    
  2.5             9.12e-011       -3.96e-011     
  2.4             8.88e-011       -4.024e-011    
  2.3             8.59e-011       -3.814e-011    
  2.2             8.384e-011      -2.928e-011    
  2.1             8.1e-011        -2.848e-011    
  2               7.85e-011       -1.68e-011     
  1.9             7.588e-011      -1.744e-011    
  1.8             7.29e-011       -2.364e-011    
  1.7             7.082e-011      -1.76e-011     
  1.6             6.754e-011      -5.7e-012      
  1.5             6.502e-011      -1.1e-011      
  1.4             6.174e-011      -2.13e-011     
  1.3             5.954e-011      -8.28e-012     
  1.2             5.672e-011      1.6e-012       
  1.1             5.448e-011      9.18e-012      
  1               5.144e-011      6.04e-012      
  0.9             4.868e-011      7.8e-013       
  0.8             4.616e-011      9.28e-012      
  0.7             4.308e-011      1.704e-011     
  0.6             4.038e-011      1.678e-011     
  0.5             3.652e-011      7.14e-012      
  0.4             3.324e-011      1.632e-011     
  0.3             2.882e-011      2.26e-011      
  0.2             2.492e-011      4.08e-011      
  0.1             1.836e-011      3.43e-011      
  0               -4.2e-013       5.25e-011      
END_DB

