! VERSION = 6.00
BEGIN_HEADER
 ICCAP_INPUTS
  vc         V  cathode GROUND SMU1 0.1 CON        0
  va         V  anode GROUND SMU2 0.1 LIN        1    0          -1         51   -0.02     
 ICCAP_OUTPUTS
  ia         I  anode GROUND SMU2 B
  ic         I  cathode GROUND SMU1 B
 ICCAP_VALUES
  DataOrigin "Measure"
  ___CONTEXT ""
  Date "Jan 12 Wed 13:55:09 2022"
  Version "WaferPro.2016.01"
  Bench "B1500_B2200"
  Temperature "85"
  Lot "M135205"
  Reticle "M135205"
  Wafer "01D2"
  Die "X-3-Y0"
  DieList "TargetDie"
  Block "WholeDie"
  Subsite "diod1-5V"
  Routine "DIODE_EXTR_Measure"
  MeasCond "Set1"
  Device "7"
  DeviceName "ndiode_Dn5_A032B640"
  DevTechno "DIO"
  DevPolarity "N"
  Setup "iv_fwd"
  Type "1"
  ___SPICE_INSTANCE ""
  A "3.2E-007"
  B "6.4E-005"
  ___TECHNO_INSTANCE ""
  ___CALIBRATION ""
END_HEADER

BEGIN_DB
 ICCAP_VAR vc         0              

 #va              ia              ic             
  0               -4.2e-013       5.99e-011      
  -0.02           -2.742e-011     4.782e-011     
  -0.04           -6.932e-011     9.71e-011      
  -0.06           -1.3548e-010    1.6058e-010    
  -0.08           -2.3914e-010    2.6144e-010    
  -0.1            -3.9982e-010    4.191e-010     
  -0.12           -6.4786e-010    6.5636e-010    
  -0.14           -1.02702e-009   1.0344e-009    
  -0.16           -1.6066e-009    1.6084e-009    
  -0.18           -2.4836e-009    2.4916e-009    
  -0.2            -3.8088e-009    3.8234e-009    
  -0.22           -5.7882e-009    5.7994e-009    
  -0.24           -8.7528e-009    8.7576e-009    
  -0.26           -1.312e-008     1.3126e-008    
  -0.28           -1.9618e-008    1.9596e-008    
  -0.3            -2.927e-008     2.9208e-008    
  -0.32           -4.3494e-008    4.34e-008      
  -0.34           -6.4654e-008    6.4532e-008    
  -0.36           -9.6118e-008    9.5996e-008    
  -0.38           -1.429e-007     1.4302e-007    
  -0.4            -2.1368e-007    2.137e-007     
  -0.42           -3.212e-007     3.213e-007     
  -0.44           -4.855e-007     4.8566e-007    
  -0.46           -7.4222e-007    7.4246e-007    
  -0.48           -1.14586e-006   1.14618e-006   
  -0.5            -1.7948e-006    1.7966e-006    
  -0.52           -2.8542e-006    2.855e-006     
  -0.54           -4.5928e-006    4.5936e-006    
  -0.56           -7.4906e-006    7.4962e-006    
  -0.58           -1.2308e-005    1.2332e-005    
  -0.6            -2.03e-005      2.0324e-005    
  -0.62           -3.3534e-005    3.3548e-005    
  -0.64           -5.4996e-005    5.5014e-005    
  -0.66           -8.929e-005     8.9316e-005    
  -0.68           -0.000142       0.00014218     
  -0.7            -0.0002212      0.00022138     
  -0.72           -0.00033434     0.0003345      
  -0.74           -0.00049026     0.00049048     
  -0.76           -0.00069486     0.00069512     
  -0.78           -0.0009539      0.00095412     
  -0.8            -0.0012722      0.0012736      
  -0.82           -0.00165        0.0016514      
  -0.84           -0.0020894      0.0020908      
  -0.86           -0.0025848      0.002586       
  -0.88           -0.0031368      0.003138       
  -0.9            -0.0037374      0.0037386      
  -0.92           -0.0043868      0.004388       
  -0.94           -0.0050758      0.005077       
  -0.96           -0.0058056      0.0058066      
  -0.98           -0.0065668      0.006568       
  -1              -0.0073618      0.0073624      
END_DB

