! VERSION = 6.00
BEGIN_HEADER
 ICCAP_INPUTS
  vc         V  cathode GROUND SMU1 0.1 CON        0
  va         V  anode GROUND SMU2 0.1 LIN        1    15         0          151  -0.1      
 ICCAP_OUTPUTS
  ia         I  anode GROUND SMU2 B
  ic         I  cathode GROUND SMU1 B
 ICCAP_VALUES
  DataOrigin "Measure"
  ___CONTEXT ""
  Date "Jan 12 Wed 13:55:09 2022"
  Version "WaferPro.2016.01"
  Bench "B1500_B2200"
  Temperature "85"
  Lot "M135205"
  Reticle "M135205"
  Wafer "01D2"
  Die "X-3-Y0"
  DieList "TargetDie"
  Block "WholeDie"
  Subsite "diod1-5V"
  Routine "DIODE_EXTR_Measure"
  MeasCond "Set1"
  Device "7"
  DeviceName "ndiode_Dn5_A032B640"
  DevTechno "DIO"
  DevPolarity "N"
  Setup "iv_rev"
  Type "1"
  ___SPICE_INSTANCE ""
  A "3.2E-007"
  B "6.4E-005"
  ___TECHNO_INSTANCE ""
  ___CALIBRATION ""
END_HEADER

BEGIN_DB
 ICCAP_VAR vc         0              

 #va              ia              ic             
  15              0.0042136       -0.0043628     
  14.9            0.0036362       -0.0036906     
  14.8            0.003105        -0.0031398     
  14.7            0.0025876       -0.0026132     
  14.6            0.0020896       -0.002106      
  14.5            0.0015836       -0.0016022     
  14.4            0.0010806       -0.0010954     
  14.3            0.00054494      -0.00056354    
  14.2            7.6182e-005     -9.026e-005    
  14.1            1.6928e-006     -2.0894e-006   
  14              2.984e-007      -3.2088e-007   
  13.9            1.5328e-007     -1.5818e-007   
  13.8            1.0104e-007     -1.0316e-007   
  13.7            7.3356e-008     -7.5074e-008   
  13.6            5.775e-008      -5.8632e-008   
  13.5            4.724e-008      -4.7892e-008   
  13.4            3.9676e-008     -4.0164e-008   
  13.3            3.4076e-008     -3.4498e-008   
  13.2            2.9748e-008     -3.0022e-008   
  13.1            2.6266e-008     -2.6606e-008   
  13              2.343e-008      -2.3644e-008   
  12.9            2.1084e-008     -2.1298e-008   
  12.8            1.9062e-008     -1.926e-008    
  12.7            1.7416e-008     -1.7548e-008   
  12.6            1.5906e-008     -1.6116e-008   
  12.5            1.4638e-008     -1.4804e-008   
  12.4            1.3544e-008     -1.368e-008    
  12.3            1.2566e-008     -1.2668e-008   
  12.2            1.1694e-008     -1.178e-008    
  12.1            1.09e-008       -1.0984e-008   
  12              1.0218e-008     -1.031e-008    
  11.9            9.519e-009      -9.642e-009    
  11.8            8.8898e-009     -8.9368e-009   
  11.7            8.3714e-009     -8.3962e-009   
  11.6            7.8928e-009     -7.9236e-009   
  11.5            7.4142e-009     -7.4674e-009   
  11.4            7.0144e-009     -7.0134e-009   
  11.3            6.6356e-009     -6.6586e-009   
  11.2            6.2782e-009     -6.2994e-009   
  11.1            5.9532e-009     -5.952e-009    
  11              5.6682e-009     -5.6594e-009   
  10.9            5.3896e-009     -5.3932e-009   
  10.8            5.1424e-009     -5.1304e-009   
  10.7            4.8978e-009     -4.879e-009    
  10.6            4.6666e-009     -4.6598e-009   
  10.5            4.4538e-009     -4.4392e-009   
  10.4            4.2528e-009     -4.226e-009    
  10.3            4.08e-009       -4.0584e-009   
  10.2            3.8974e-009     -3.8794e-009   
  10.1            3.737e-009      -3.7098e-009   
  10              3.596e-009      -3.576e-009    
  9.9             3.443e-009      -3.416e-009    
  9.8             3.2996e-009     -3.2786e-009   
  9.7             3.1698e-009     -3.152e-009    
  9.6             3.0472e-009     -3.0142e-009   
  9.5             2.9286e-009     -2.8958e-009   
  9.4             2.8164e-009     -2.7966e-009   
  9.3             2.7066e-009     -2.6704e-009   
  9.2             2.6042e-009     -2.5686e-009   
  9.1             2.5008e-009     -2.4756e-009   
  9               2.4182e-009     -2.3798e-009   
  8.9             2.338e-009      -2.2916e-009   
  8.8             2.251e-009      -2.2072e-009   
  8.7             2.166e-009      -2.13e-009     
  8.6             2.0924e-009     -2.0472e-009   
  8.5             2.0216e-009     -1.9892e-009   
  8.4             1.9514e-009     -1.9258e-009   
  8.3             1.8796e-009     -1.8398e-009   
  8.2             1.82e-009       -1.7836e-009   
  8.1             1.7604e-009     -1.73e-009     
  8               1.7032e-009     -1.6622e-009   
  7.9             1.6438e-009     -1.5974e-009   
  7.8             1.5892e-009     -1.5584e-009   
  7.7             1.5358e-009     -1.4976e-009   
  7.6             1.4838e-009     -1.4386e-009   
  7.5             1.431e-009      -1.3872e-009   
  7.4             1.3882e-009     -1.3362e-009   
  7.3             1.344e-009      -1.3e-009      
  7.2             1.3026e-009     -1.2526e-009   
  7.1             1.2624e-009     -1.2072e-009   
  7               1.2244e-009     -1.1786e-009   
  6.9             1.185e-009      -1.145e-009    
  6.8             1.1486e-009     -1.098e-009    
  6.7             1.1112e-009     -1.0644e-009   
  6.6             1.0796e-009     -1.0294e-009   
  6.5             1.045e-009      -9.898e-010    
  6.4             1.0124e-009     -9.628e-010    
  6.3             9.8236e-010     -9.326e-010    
  6.2             9.5194e-010     -9.084e-010    
  6.1             9.248e-010      -8.774e-010    
  6               8.9632e-010     -8.212e-010    
  5.9             8.6998e-010     -8.272e-010    
  5.8             8.4496e-010     -7.97e-010     
  5.7             8.1664e-010     -7.752e-010    
  5.6             7.942e-010      -7.562e-010    
  5.5             7.6982e-010     -7.248e-010    
  5.4             7.485e-010      -6.68e-010     
  5.3             7.2702e-010     -6.87e-010     
  5.2             7.0762e-010     -6.574e-010    
  5.1             6.8588e-010     -6.464e-010    
  5               6.672e-010      -6.164e-010    
  4.9             6.4724e-010     -5.996e-010    
  4.8             6.287e-010      -5.588e-010    
  4.7             6.108e-010      -5.732e-010    
  4.6             5.9382e-010     -5.543e-010    
  4.5             5.7852e-010     -5.3784e-010   
  4.4             5.6148e-010     -5.2028e-010   
  4.3             5.4722e-010     -5.1054e-010   
  4.2             5.3248e-010     -4.8692e-010   
  4.1             5.1796e-010     -4.636e-010    
  4               5.0436e-010     -4.56e-010     
  3.9             4.9024e-010     -4.517e-010    
  3.8             4.7768e-010     -4.2668e-010   
  3.7             4.655e-010      -4.077e-010    
  3.6             4.537e-010      -3.9614e-010   
  3.5             4.4142e-010     -3.704e-010    
  3.4             4.2972e-010     -3.8928e-010   
  3.3             4.1862e-010     -3.78e-010     
  3.2             4.0782e-010     -3.5256e-010   
  3.1             3.9816e-010     -3.4846e-010   
  3               3.8774e-010     -3.391e-010    
  2.9             3.78e-010       -3.2784e-010   
  2.8             3.6802e-010     -3.1452e-010   
  2.7             3.5994e-010     -2.9946e-010   
  2.6             3.5096e-010     -3.0982e-010   
  2.5             3.4214e-010     -2.9256e-010   
  2.4             3.3268e-010     -2.8338e-010   
  2.3             3.2388e-010     -2.771e-010    
  2.2             3.1582e-010     -2.6794e-010   
  2.1             3.0778e-010     -2.6066e-010   
  2               2.9952e-010     -2.4342e-010   
  1.9             2.9042e-010     -2.3632e-010   
  1.8             2.8232e-010     -2.2286e-010   
  1.7             2.7334e-010     -2.2258e-010   
  1.6             2.6516e-010     -2.2296e-010   
  1.5             2.557e-010      -2.0772e-010   
  1.4             2.467e-010      -1.9144e-010   
  1.3             2.3752e-010     -1.8914e-010   
  1.2             2.29e-010       -1.8134e-010   
  1.1             2.2058e-010     -1.7004e-010   
  1               2.1092e-010     -1.5484e-010   
  0.9             2.0152e-010     -1.4228e-010   
  0.8             1.918e-010      -1.4566e-010   
  0.7             1.8252e-010     -1.3478e-010   
  0.6             1.724e-010      -1.2848e-010   
  0.5             1.621e-010      -1.0548e-010   
  0.4             1.5004e-010     -9.21e-011     
  0.3             1.3612e-010     -9.12e-011     
  0.2             1.199e-010      -7.764e-011    
  0.1             9.306e-011      -3.412e-011    
  0               -1.66e-012      6.098e-011     
END_DB

