! VERSION = 6.00
BEGIN_HEADER
 ICCAP_INPUTS
  vc         V  cathode GROUND SMU1 0.1 CON        0
  va         V  anode GROUND SMU2 0.1 LIN        1    15         0          151  -0.1      
 ICCAP_OUTPUTS
  ia         I  anode GROUND SMU2 B
  ic         I  cathode GROUND SMU1 B
 ICCAP_VALUES
  DataOrigin "Measure"
  ___CONTEXT ""
  Date "Jan 12 Wed 13:53:05 2022"
  Version "WaferPro.2016.01"
  Bench "B1500_B2200"
  Temperature "85"
  Lot "M135205"
  Reticle "M135205"
  Wafer "01D2"
  Die "X-3-Y0"
  DieList "TargetDie"
  Block "WholeDie"
  Subsite "diod1-5V"
  Routine "DIODE_EXTR_Measure"
  MeasCond "Set1"
  Device "6"
  DeviceName "ndiode_Dn5_A320B320"
  DevTechno "DIO"
  DevPolarity "N"
  Setup "iv_rev"
  Type "1"
  ___SPICE_INSTANCE ""
  A "3.2E-005"
  B "3.2E-005"
  ___TECHNO_INSTANCE ""
  ___CALIBRATION ""
END_HEADER

BEGIN_DB
 ICCAP_VAR vc         0              

 #va              ia              ic             
  15              0.014464        -0.014498      
  14.9            0.013528        -0.013524      
  14.8            0.012594        -0.012584      
  14.7            0.011656        -0.011644      
  14.6            0.010722        -0.010708      
  14.5            0.009765        -0.009762      
  14.4            0.0088082       -0.008804      
  14.3            0.0078504       -0.0078458     
  14.2            0.0068788       -0.0068742     
  14.1            0.0059032       -0.0058984     
  14              0.0049132       -0.0049086     
  13.9            0.0039152       -0.0039108     
  13.8            0.002918        -0.0029136     
  13.7            0.0018976       -0.0018934     
  13.6            0.00086954      -0.00086662    
  13.5            3.7918e-008     -3.8676e-008   
  13.4            2.0262e-008     -2.0628e-008   
  13.3            1.5274e-008     -1.5558e-008   
  13.2            1.2286e-008     -1.2524e-008   
  13.1            1.0276e-008     -1.05e-008     
  13              8.7128e-009     -8.9174e-009   
  12.9            7.5874e-009     -7.7204e-009   
  12.8            6.6836e-009     -6.826e-009    
  12.7            5.9772e-009     -6.0728e-009   
  12.6            5.3738e-009     -5.4746e-009   
  12.5            4.8656e-009     -4.967e-009    
  12.4            4.46e-009       -4.5154e-009   
  12.3            4.0874e-009     -4.1424e-009   
  12.2            3.766e-009      -3.831e-009    
  12.1            3.4848e-009     -3.5388e-009   
  12              3.2286e-009     -3.2496e-009   
  11.9            3.0038e-009     -3.0328e-009   
  11.8            2.8044e-009     -2.8316e-009   
  11.7            2.627e-009      -2.635e-009    
  11.6            2.4658e-009     -2.4706e-009   
  11.5            2.3178e-009     -2.3228e-009   
  11.4            2.1854e-009     -2.181e-009    
  11.3            2.06e-009       -2.0596e-009   
  11.2            1.9514e-009     -1.9534e-009   
  11.1            1.8432e-009     -1.8302e-009   
  11              1.746e-009      -1.7422e-009   
  10.9            1.6562e-009     -1.6402e-009   
  10.8            1.5774e-009     -1.5546e-009   
  10.7            1.5002e-009     -1.4902e-009   
  10.6            1.4258e-009     -1.4106e-009   
  10.5            1.361e-009      -1.3294e-009   
  10.4            1.2946e-009     -1.2722e-009   
  10.3            1.2388e-009     -1.223e-009    
  10.2            1.1832e-009     -1.1482e-009   
  10.1            1.1332e-009     -1.0994e-009   
  10              1.0866e-009     -1.0526e-009   
  9.9             1.0404e-009     -1.0148e-009   
  9.8             9.988e-010      -9.61e-010     
  9.7             9.5372e-010     -9.234e-010    
  9.6             9.1674e-010     -8.94e-010     
  9.5             8.8024e-010     -8.596e-010    
  9.4             8.4636e-010     -8.202e-010    
  9.3             8.1236e-010     -7.872e-010    
  9.2             7.8264e-010     -7.49e-010     
  9.1             7.5084e-010     -7.336e-010    
  9               7.2432e-010     -7.006e-010    
  8.9             6.9808e-010     -6.66e-010     
  8.8             6.706e-010      -6.53e-010     
  8.7             6.4682e-010     -6.158e-010    
  8.6             6.255e-010      -6.0214e-010   
  8.5             6.028e-010      -5.8198e-010   
  8.4             5.8264e-010     -5.5182e-010   
  8.3             5.6088e-010     -5.2794e-010   
  8.2             5.413e-010      -5.138e-010    
  8.1             5.2246e-010     -4.9338e-010   
  8               5.0526e-010     -4.6686e-010   
  7.9             4.88e-010       -4.3964e-010   
  7.8             4.7216e-010     -4.3032e-010   
  7.7             4.5684e-010     -4.2066e-010   
  7.6             4.4138e-010     -4.0282e-010   
  7.5             4.2682e-010     -3.9746e-010   
  7.4             4.139e-010      -3.754e-010    
  7.3             4.0066e-010     -3.6614e-010   
  7.2             3.8724e-010     -3.5244e-010   
  7.1             3.7442e-010     -3.2958e-010   
  7               3.6276e-010     -3.1074e-010   
  6.9             3.5148e-010     -3.0728e-010   
  6.8             3.411e-010      -2.9984e-010   
  6.7             3.2994e-010     -2.8e-010      
  6.6             3.1916e-010     -2.7218e-010   
  6.5             3.0938e-010     -2.6562e-010   
  6.4             2.9992e-010     -2.5704e-010   
  6.3             2.9034e-010     -2.5412e-010   
  6.2             2.8116e-010     -2.4138e-010   
  6.1             2.731e-010      -2.1504e-010   
  6               2.6478e-010     -2.1222e-010   
  5.9             2.5746e-010     -2.1214e-010   
  5.8             2.4962e-010     -2.104e-010    
  5.7             2.4238e-010     -1.826e-010    
  5.6             2.3482e-010     -1.8272e-010   
  5.5             2.2806e-010     -1.911e-010    
  5.4             2.2086e-010     -1.8748e-010   
  5.3             2.1478e-010     -1.6302e-010   
  5.2             2.0928e-010     -1.5776e-010   
  5.1             2.0284e-010     -1.5434e-010   
  5               1.9754e-010     -1.481e-010    
  4.9             1.9132e-010     -1.3856e-010   
  4.8             1.8688e-010     -1.352e-010    
  4.7             1.8082e-010     -1.298e-010    
  4.6             1.7606e-010     -1.2386e-010   
  4.5             1.708e-010      -1.2998e-010   
  4.4             1.6604e-010     -1.2696e-010   
  4.3             1.6186e-010     -1.0522e-010   
  4.2             1.5744e-010     -1.0056e-010   
  4.1             1.5404e-010     -1.0456e-010   
  4               1.4878e-010     -9.884e-011    
  3.9             1.4556e-010     -8.982e-011    
  3.8             1.4152e-010     -8.854e-011    
  3.7             1.3824e-010     -8.99e-011     
  3.6             1.3444e-010     -9.206e-011    
  3.5             1.306e-010      -8.332e-011    
  3.4             1.2764e-010     -1.0968e-010   
  3.3             1.235e-010      -6.864e-011    
  3.2             1.207e-010      -7.792e-011    
  3.1             1.1726e-010     -6.268e-011    
  3               1.1458e-010     -5.726e-011    
  2.9             1.1092e-010     -5.716e-011    
  2.8             1.0796e-010     -5.502e-011    
  2.7             1.0506e-010     -6.58e-011     
  2.6             1.0174e-010     -5.426e-011    
  2.5             9.868e-011      -4.1e-011      
  2.4             9.552e-011      -4.412e-011    
  2.3             9.254e-011      -4.526e-011    
  2.2             8.962e-011      -4.118e-011    
  2.1             8.712e-011      -3.064e-011    
  2               8.392e-011      -2.194e-011    
  1.9             8.124e-011      -2.78e-011     
  1.8             7.778e-011      -3.47e-011     
  1.7             7.452e-011      -2.666e-011    
  1.6             7.214e-011      -1.75e-011     
  1.5             6.86e-011       -1.678e-011    
  1.4             6.578e-011      -2.102e-011    
  1.3             6.274e-011      -1.066e-011    
  1.2             6.016e-011      -2.42e-012     
  1.1             5.764e-011      1.62e-012      
  1               5.446e-011      -2.96e-012     
  0.9             5.132e-011      2e-014         
  0.8             4.74e-011       6.68e-012      
  0.7             4.468e-011      7.18e-012      
  0.6             4.094e-011      1.282e-011     
  0.5             3.748e-011      1.274e-011     
  0.4             3.346e-011      1.088e-011     
  0.3             2.84e-011       3.082e-011     
  0.2             2.422e-011      4.094e-011     
  0.1             1.73e-011       3.064e-011     
  0               2e-013          4.57e-011      
END_DB

