! VERSION = 6.00
BEGIN_HEADER
 ICCAP_INPUTS
  vc         V  cathode GROUND SMU1 0.1 CON        0
  va         V  anode GROUND SMU2 0.1 LIN        1    0          -1         51   -0.02     
 ICCAP_OUTPUTS
  ia         I  anode GROUND SMU2 B
  ic         I  cathode GROUND SMU1 B
 ICCAP_VALUES
  DataOrigin "Measure"
  ___CONTEXT ""
  Date "Jan 12 Wed 13:42:34 2022"
  Version "WaferPro.2016.01"
  Bench "B1500_B2200"
  Temperature "85"
  Lot "M135205"
  Reticle "M135205"
  Wafer "01D2"
  Die "X-3-Y0"
  DieList "TargetDie"
  Block "WholeDie"
  Subsite "diod1-5V"
  Routine "DIODE_EXTR_Measure"
  MeasCond "Set1"
  Device "1"
  DeviceName "ndiode_Dn5_A032B032"
  DevTechno "DIO"
  DevPolarity "N"
  Setup "iv_fwd"
  Type "1"
  ___SPICE_INSTANCE ""
  A "3.2E-007"
  B "3.2E-007"
  ___TECHNO_INSTANCE ""
  ___CALIBRATION ""
END_HEADER

BEGIN_DB
 ICCAP_VAR vc         0              

 #va              ia              ic             
  0               1.1e-012        6.61e-011      
  -0.02           3.6e-013        2.086e-011     
  -0.04           -1.14e-012      3.736e-011     
  -0.06           -2.58e-012      3.63e-011      
  -0.08           -4.22e-012      9.6e-013       
  -0.1            -7e-012         2.3e-011       
  -0.12           -1.174e-011     3.602e-011     
  -0.14           -1.91e-011      3.678e-011     
  -0.16           -3.05e-011      4.37e-011      
  -0.18           -4.716e-011     5.588e-011     
  -0.2            -7.22e-011      1.0666e-010    
  -0.22           -1.0854e-010    1.2046e-010    
  -0.24           -1.6318e-010    1.6746e-010    
  -0.26           -2.4476e-010    2.5942e-010    
  -0.28           -3.6766e-010    3.8466e-010    
  -0.3            -5.4914e-010    5.5968e-010    
  -0.32           -8.1564e-010    8.2e-010       
  -0.34           -1.2128e-009    1.2226e-009    
  -0.36           -1.8076e-009    1.7936e-009    
  -0.38           -2.7186e-009    2.703e-009     
  -0.4            -4.0956e-009    4.0764e-009    
  -0.42           -6.2192e-009    6.182e-009     
  -0.44           -9.4974e-009    9.426e-009     
  -0.46           -1.4664e-008    1.458e-008     
  -0.48           -2.2816e-008    2.2694e-008    
  -0.5            -3.605e-008     3.587e-008     
  -0.52           -5.7566e-008    5.7364e-008    
  -0.54           -9.2782e-008    9.2712e-008    
  -0.56           -1.514e-007     1.5146e-007    
  -0.58           -2.4942e-007    2.4902e-007    
  -0.6            -4.1292e-007    4.1248e-007    
  -0.62           -6.8532e-007    6.8616e-007    
  -0.64           -1.13558e-006   1.13502e-006   
  -0.66           -1.8626e-006    1.8668e-006    
  -0.68           -3.0224e-006    3.0238e-006    
  -0.7            -4.8166e-006    4.8206e-006    
  -0.72           -7.4908e-006    7.4906e-006    
  -0.74           -1.13426e-005   1.13484e-005   
  -0.76           -1.6652e-005    1.668e-005     
  -0.78           -2.3782e-005    2.3804e-005    
  -0.8            -3.313e-005     3.3132e-005    
  -0.82           -4.4882e-005    4.49e-005      
  -0.84           -5.939e-005     5.9402e-005    
  -0.86           -7.6834e-005    7.685e-005     
  -0.88           -9.7626e-005    9.7612e-005    
  -0.9            -0.00012156     0.00012168     
  -0.92           -0.00014938     0.00014946     
  -0.94           -0.00018094     0.00018094     
  -0.96           -0.00021634     0.00021652     
  -0.98           -0.0002557      0.00025578     
  -1              -0.00029938     0.00029936     
END_DB

