! VERSION = 6.00
BEGIN_HEADER
 ICCAP_INPUTS
  vc         V  cathode GROUND SMU1 0.1 CON        0
  va         V  anode GROUND SMU2 0.1 LIN        1    0          -1         51   -0.02     
 ICCAP_OUTPUTS
  ia         I  anode GROUND SMU2 B
  ic         I  cathode GROUND SMU1 B
 ICCAP_VALUES
  DataOrigin "Measure"
  ___CONTEXT ""
  Date "Jan 12 Wed 14:01:03 2022"
  Version "WaferPro.2016.01"
  Bench "B1500_B2200"
  Temperature "85"
  Lot "M135205"
  Reticle "M135205"
  Wafer "01D2"
  Die "X-3-Y0"
  DieList "TargetDie"
  Block "WholeDie"
  Subsite "diod1-5V"
  Routine "DIODE_EXTR_Measure"
  MeasCond "Set1"
  Device "10"
  DeviceName "ndiode_Dn5_A32B640"
  DevTechno "DIO"
  DevPolarity "N"
  Setup "iv_fwd"
  Type "1"
  ___SPICE_INSTANCE ""
  A "3.2E-006"
  B "6.4E-005"
  ___TECHNO_INSTANCE ""
  ___CALIBRATION ""
END_HEADER

BEGIN_DB
 ICCAP_VAR vc         0              

 #va              ia              ic             
  0               1.48e-012       4.182e-011     
  -0.02           -9.22e-012      2.882e-011     
  -0.04           -2.736e-011     4.516e-011     
  -0.06           -5.434e-011     6.574e-011     
  -0.08           -9.47e-011      1.1264e-010    
  -0.1            -1.5978e-010    1.6198e-010    
  -0.12           -2.6658e-010    2.7782e-010    
  -0.14           -4.3852e-010    4.5002e-010    
  -0.16           -7.1394e-010    7.5706e-010    
  -0.18           -1.146e-009     1.1532e-009    
  -0.2            -1.8274e-009    1.8344e-009    
  -0.22           -2.8966e-009    2.896e-009     
  -0.24           -4.5768e-009    4.5576e-009    
  -0.26           -7.1904e-009    7.1712e-009    
  -0.28           -1.1252e-008    1.1228e-008    
  -0.3            -1.764e-008     1.7506e-008    
  -0.32           -2.7612e-008    2.7432e-008    
  -0.34           -4.339e-008     4.3198e-008    
  -0.36           -6.848e-008     6.8308e-008    
  -0.38           -1.08778e-007   1.08616e-007   
  -0.4            -1.7478e-007    1.7482e-007    
  -0.42           -2.84e-007      2.8428e-007    
  -0.44           -4.6692e-007    4.6718e-007    
  -0.46           -7.7824e-007    7.791e-007     
  -0.48           -1.3076e-006    1.3098e-006    
  -0.5            -2.2242e-006    2.2256e-006    
  -0.52           -3.798e-006     3.8004e-006    
  -0.54           -6.4654e-006    6.4672e-006    
  -0.56           -1.0983e-005    1.09834e-005   
  -0.58           -1.8494e-005    1.8516e-005    
  -0.6            -3.0836e-005    3.085e-005     
  -0.62           -5.0906e-005    5.0926e-005    
  -0.64           -8.2746e-005    8.2782e-005    
  -0.66           -0.00013212     0.00013226     
  -0.68           -0.000206       0.00020612     
  -0.7            -0.00031244     0.00031258     
  -0.72           -0.00045788     0.00045802     
  -0.74           -0.0006487      0.00064884     
  -0.76           -0.00088638     0.00088648     
  -0.78           -0.001171       0.0011724      
  -0.8            -0.0015048      0.001506       
  -0.82           -0.0018808      0.0018822      
  -0.84           -0.0022988      0.0023         
  -0.86           -0.0027518      0.0027528      
  -0.88           -0.0032394      0.00324        
  -0.9            -0.0037544      0.0037556      
  -0.92           -0.004297       0.0042974      
  -0.94           -0.0048596      0.0048608      
  -0.96           -0.0054436      0.0054454      
  -0.98           -0.0060468      0.0060468      
  -1              -0.0066676      0.0066676      
END_DB

