! VERSION = 6.00
BEGIN_HEADER
 ICCAP_INPUTS
  vc         V  cathode GROUND SMU1 0.1 CON        0
  va         V  anode GROUND SMU2 0.1 LIN        1    0          -1         51   -0.02     
 ICCAP_OUTPUTS
  ia         I  anode GROUND SMU2 B
  ic         I  cathode GROUND SMU1 B
 ICCAP_VALUES
  DataOrigin "Measure"
  ___CONTEXT ""
  Date "Jan 12 Wed 13:51:01 2022"
  Version "WaferPro.2016.01"
  Bench "B1500_B2200"
  Temperature "85"
  Lot "M135205"
  Reticle "M135205"
  Wafer "01D2"
  Die "X-3-Y0"
  DieList "TargetDie"
  Block "WholeDie"
  Subsite "diod1-5V"
  Routine "DIODE_EXTR_Measure"
  MeasCond "Set1"
  Device "5"
  DeviceName "ndiode_Dn5_A32B320"
  DevTechno "DIO"
  DevPolarity "N"
  Setup "iv_fwd"
  Type "1"
  ___SPICE_INSTANCE ""
  A "3.2E-006"
  B "3.2E-005"
  ___TECHNO_INSTANCE ""
  ___CALIBRATION ""
END_HEADER

BEGIN_DB
 ICCAP_VAR vc         0              

 #va              ia              ic             
  0               6e-014          4.008e-011     
  -0.02           -7.64e-012      3.216e-011     
  -0.04           -1.99e-011      4.52e-011      
  -0.06           -3.92e-011      4.706e-011     
  -0.08           -6.98e-011      9.114e-011     
  -0.1            -1.184e-010     1.2636e-010    
  -0.12           -1.9558e-010    2.0292e-010    
  -0.14           -3.1712e-010    3.2942e-010    
  -0.16           -5.0704e-010    5.154e-010     
  -0.18           -8.0072e-010    8.1568e-010    
  -0.2            -1.2556e-009    1.2574e-009    
  -0.22           -1.9524e-009    1.9628e-009    
  -0.24           -3.025e-009     3.0358e-009    
  -0.26           -4.6632e-009    4.6794e-009    
  -0.28           -7.1554e-009    7.1626e-009    
  -0.3            -1.10048e-008   1.10074e-008   
  -0.32           -1.6896e-008    1.691e-008     
  -0.34           -2.6098e-008    2.6068e-008    
  -0.36           -4.0536e-008    4.0458e-008    
  -0.38           -6.3366e-008    6.3204e-008    
  -0.4            -1.00424e-007   1.00192e-007   
  -0.42           -1.6106e-007    1.6104e-007    
  -0.44           -2.6208e-007    2.619e-007     
  -0.46           -4.3354e-007    4.3308e-007    
  -0.48           -7.2552e-007    7.2522e-007    
  -0.5            -1.2304e-006    1.2324e-006    
  -0.52           -2.1078e-006    2.1078e-006    
  -0.54           -3.6124e-006    3.6126e-006    
  -0.56           -6.1932e-006    6.1942e-006    
  -0.58           -1.05538e-005   1.0558e-005    
  -0.6            -1.7802e-005    1.7824e-005    
  -0.62           -2.9772e-005    2.9792e-005    
  -0.64           -4.908e-005     4.9102e-005    
  -0.66           -7.9732e-005    7.9748e-005    
  -0.68           -0.00012664     0.00012674     
  -0.7            -0.00019684     0.00019696     
  -0.72           -0.00029704     0.00029714     
  -0.74           -0.00043516     0.00043528     
  -0.76           -0.00061652     0.00061666     
  -0.78           -0.00084616     0.00084626     
  -0.8            -0.00112922     0.00112934     
  -0.82           -0.0014644      0.0014656      
  -0.84           -0.0018558      0.0018572      
  -0.86           -0.0022988      0.0023002      
  -0.88           -0.0027946      0.002796       
  -0.9            -0.0033366      0.003338       
  -0.92           -0.003926       0.003927       
  -0.94           -0.0045538      0.004555       
  -0.96           -0.0052212      0.0052224      
  -0.98           -0.0059208      0.0059216      
  -1              -0.0066536      0.0066546      
END_DB

