! VERSION = 6.00
BEGIN_HEADER
 ICCAP_INPUTS
  vc         V  cathode GROUND SMU1 0.1 CON        0
  va         V  anode GROUND SMU2 0.1 LIN        1    0          -1         51   -0.02     
 ICCAP_OUTPUTS
  ia         I  anode GROUND SMU2 B
  ic         I  cathode GROUND SMU1 B
 ICCAP_VALUES
  DataOrigin "Measure"
  ___CONTEXT ""
  Date "Jan 12 Wed 13:53:05 2022"
  Version "WaferPro.2016.01"
  Bench "B1500_B2200"
  Temperature "85"
  Lot "M135205"
  Reticle "M135205"
  Wafer "01D2"
  Die "X-3-Y0"
  DieList "TargetDie"
  Block "WholeDie"
  Subsite "diod1-5V"
  Routine "DIODE_EXTR_Measure"
  MeasCond "Set1"
  Device "6"
  DeviceName "ndiode_Dn5_A320B320"
  DevTechno "DIO"
  DevPolarity "N"
  Setup "iv_fwd"
  Type "1"
  ___SPICE_INSTANCE ""
  A "3.2E-005"
  B "3.2E-005"
  ___TECHNO_INSTANCE ""
  ___CALIBRATION ""
END_HEADER

BEGIN_DB
 ICCAP_VAR vc         0              

 #va              ia              ic             
  0               -8.6e-013       4.622e-011     
  -0.02           -8.52e-012      3.932e-011     
  -0.04           -2.284e-011     3.794e-011     
  -0.06           -4.56e-011      6.688e-011     
  -0.08           -8.108e-011     9.65e-011      
  -0.1            -1.3876e-010    1.6258e-010    
  -0.12           -2.3294e-010    2.5008e-010    
  -0.14           -3.8062e-010    3.9382e-010    
  -0.16           -6.1598e-010    6.3526e-010    
  -0.18           -9.8978e-010    1.00544e-009   
  -0.2            -1.5812e-009    1.593e-009     
  -0.22           -2.515e-009     2.524e-009     
  -0.24           -3.9974e-009    4.0078e-009    
  -0.26           -6.334e-009     6.3404e-009    
  -0.28           -1.00334e-008   1.00428e-008   
  -0.3            -1.596e-008     1.5982e-008    
  -0.32           -2.5492e-008    2.549e-008     
  -0.34           -4.1038e-008    4.1014e-008    
  -0.36           -6.6628e-008    6.6536e-008    
  -0.38           -1.09052e-007   1.08862e-007   
  -0.4            -1.8086e-007    1.808e-007     
  -0.42           -3.033e-007     3.0308e-007    
  -0.44           -5.13e-007      5.1262e-007    
  -0.46           -8.7684e-007    8.7652e-007    
  -0.48           -1.5014e-006    1.5028e-006    
  -0.5            -2.583e-006     2.5828e-006    
  -0.52           -4.428e-006     4.4284e-006    
  -0.54           -7.5322e-006    7.5328e-006    
  -0.56           -1.2742e-005    1.2762e-005    
  -0.58           -2.1404e-005    2.142e-005     
  -0.6            -3.5606e-005    3.562e-005     
  -0.62           -5.877e-005     5.879e-005     
  -0.64           -9.5666e-005    9.5686e-005    
  -0.66           -0.00015314     0.00015328     
  -0.68           -0.00023918     0.00023932     
  -0.7            -0.00036278     0.0003629      
  -0.72           -0.00053032     0.00053046     
  -0.74           -0.00074772     0.00074786     
  -0.76           -0.00101546     0.00101558     
  -0.78           -0.001333       0.0013344      
  -0.8            -0.0017028      0.001704       
  -0.82           -0.0021192      0.0021202      
  -0.84           -0.0025824      0.0025836      
  -0.86           -0.0030868      0.0030882      
  -0.88           -0.0036342      0.0036352      
  -0.9            -0.0042164      0.0042176      
  -0.92           -0.0048358      0.0048368      
  -0.94           -0.0054846      0.0054856      
  -0.96           -0.0061648      0.0061658      
  -0.98           -0.0068684      0.006869       
  -1              -0.0075988      0.0076         
END_DB

