! VERSION = 6.00
BEGIN_HEADER
 ICCAP_INPUTS
  vc         V  cathode GROUND SMU1 0.1 CON        0
  va         V  anode GROUND SMU2 0.1 LIN        1    15         0          151  -0.1      
 ICCAP_OUTPUTS
  ia         I  anode GROUND SMU2 B
  ic         I  cathode GROUND SMU1 B
 ICCAP_VALUES
  DataOrigin "Measure"
  ___CONTEXT ""
  Date "Jan 12 Wed 14:01:03 2022"
  Version "WaferPro.2016.01"
  Bench "B1500_B2200"
  Temperature "85"
  Lot "M135205"
  Reticle "M135205"
  Wafer "01D2"
  Die "X-3-Y0"
  DieList "TargetDie"
  Block "WholeDie"
  Subsite "diod1-5V"
  Routine "DIODE_EXTR_Measure"
  MeasCond "Set1"
  Device "10"
  DeviceName "ndiode_Dn5_A32B640"
  DevTechno "DIO"
  DevPolarity "N"
  Setup "iv_rev"
  Type "1"
  ___SPICE_INSTANCE ""
  A "3.2E-006"
  B "6.4E-005"
  ___TECHNO_INSTANCE ""
  ___CALIBRATION ""
END_HEADER

BEGIN_DB
 ICCAP_VAR vc         0              

 #va              ia              ic             
  15              0.009802        -0.0098328     
  14.9            0.009107        -0.0091134     
  14.8            0.008414        -0.0084168     
  14.7            0.007721        -0.0077224     
  14.6            0.0070334       -0.0070328     
  14.5            0.0063364       -0.0063356     
  14.4            0.0056396       -0.0056374     
  14.3            0.004946        -0.004944      
  14.2            0.0042486       -0.0042462     
  14.1            0.0035546       -0.003552      
  14              0.002858        -0.0028554     
  13.9            0.0021644       -0.0021618     
  13.8            0.0014786       -0.0014762     
  13.7            0.00075568      -0.00075426    
  13.6            1.1524e-006     -1.2016e-006   
  13.5            5.379e-008      -5.5256e-008   
  13.4            3.3336e-008     -3.3836e-008   
  13.3            2.4974e-008     -2.5232e-008   
  13.2            2.009e-008      -2.0278e-008   
  13.1            1.674e-008      -1.6932e-008   
  13              1.431e-008      -1.448e-008    
  12.9            1.2448e-008     -1.2552e-008   
  12.8            1.101e-008      -1.1104e-008   
  12.7            9.82e-009       -9.916e-009    
  12.6            8.8186e-009     -8.916e-009    
  12.5            7.9506e-009     -8.0196e-009   
  12.4            7.2294e-009     -7.2952e-009   
  12.3            6.6224e-009     -6.6686e-009   
  12.2            6.0866e-009     -6.1354e-009   
  12.1            5.6214e-009     -5.6602e-009   
  12              5.2362e-009     -5.2632e-009   
  11.9            4.8584e-009     -4.8896e-009   
  11.8            4.5438e-009     -4.5666e-009   
  11.7            4.2526e-009     -4.2696e-009   
  11.6            3.9848e-009     -3.9964e-009   
  11.5            3.7404e-009     -3.743e-009    
  11.4            3.518e-009      -3.5076e-009   
  11.3            3.3142e-009     -3.324e-009    
  11.2            3.1342e-009     -3.1382e-009   
  11.1            2.963e-009      -2.9486e-009   
  11              2.815e-009      -2.7986e-009   
  10.9            2.672e-009      -2.6592e-009   
  10.8            2.5364e-009     -2.5096e-009   
  10.7            2.4108e-009     -2.3874e-009   
  10.6            2.298e-009      -2.2738e-009   
  10.5            2.1904e-009     -2.159e-009    
  10.4            2.096e-009      -2.0772e-009   
  10.3            2.0022e-009     -1.9714e-009   
  10.2            1.91e-009       -1.8798e-009   
  10.1            1.8316e-009     -1.8054e-009   
  10              1.7508e-009     -1.7238e-009   
  9.9             1.6782e-009     -1.6436e-009   
  9.8             1.6088e-009     -1.5894e-009   
  9.7             1.5432e-009     -1.5262e-009   
  9.6             1.4842e-009     -1.4528e-009   
  9.5             1.4264e-009     -1.3888e-009   
  9.4             1.3684e-009     -1.3272e-009   
  9.3             1.3164e-009     -1.2882e-009   
  9.2             1.2696e-009     -1.2338e-009   
  9.1             1.2212e-009     -1.1938e-009   
  9               1.1756e-009     -1.1416e-009   
  8.9             1.1316e-009     -1.0978e-009   
  8.8             1.091e-009      -1.0516e-009   
  8.7             1.0494e-009     -1.02e-009     
  8.6             1.0144e-009     -9.784e-010    
  8.5             9.7278e-010     -9.494e-010    
  8.4             9.4022e-010     -9.056e-010    
  8.3             9.1062e-010     -8.75e-010     
  8.2             8.8044e-010     -8.426e-010    
  8.1             8.5162e-010     -8.142e-010    
  8               8.199e-010      -7.888e-010    
  7.9             7.9378e-010     -7.636e-010    
  7.8             7.6592e-010     -7.3582e-010   
  7.7             7.4042e-010     -7.105e-010    
  7.6             7.1864e-010     -6.7744e-010   
  7.5             6.959e-010      -6.4712e-010   
  7.4             6.7358e-010     -6.3046e-010   
  7.3             6.4912e-010     -6.1672e-010   
  7.2             6.289e-010      -5.9364e-010   
  7.1             6.1012e-010     -5.6698e-010   
  7               5.9228e-010     -5.436e-010    
  6.9             5.7288e-010     -5.276e-010    
  6.8             5.5306e-010     -5.256e-010    
  6.7             5.3568e-010     -4.9408e-010   
  6.6             5.203e-010      -4.6538e-010   
  6.5             5.0538e-010     -4.5474e-010   
  6.4             4.9042e-010     -4.4908e-010   
  6.3             4.7398e-010     -4.2484e-010   
  6.2             4.5808e-010     -4.1696e-010   
  6.1             4.441e-010      -3.9846e-010   
  6               4.3338e-010     -3.9842e-010   
  5.9             4.2048e-010     -3.7516e-010   
  5.8             4.073e-010      -3.5958e-010   
  5.7             3.9344e-010     -3.4566e-010   
  5.6             3.8314e-010     -3.2828e-010   
  5.5             3.7262e-010     -3.2246e-010   
  5.4             3.6292e-010     -3.1296e-010   
  5.3             3.5102e-010     -3.0288e-010   
  5.2             3.401e-010      -2.922e-010    
  5.1             3.3006e-010     -2.9022e-010   
  5               3.2188e-010     -2.7982e-010   
  4.9             3.1452e-010     -2.6268e-010   
  4.8             3.0476e-010     -2.4482e-010   
  4.7             2.9584e-010     -2.457e-010    
  4.6             2.8666e-010     -2.512e-010    
  4.5             2.8046e-010     -2.2766e-010   
  4.4             2.7378e-010     -2.1694e-010   
  4.3             2.6622e-010     -2.1398e-010   
  4.2             2.5746e-010     -2.148e-010    
  4.1             2.4894e-010     -2.1008e-010   
  4               2.4372e-010     -1.9576e-010   
  3.9             2.3886e-010     -1.843e-010    
  3.8             2.3342e-010     -1.7248e-010   
  3.7             2.2536e-010     -1.826e-010    
  3.6             2.1918e-010     -1.7042e-010   
  3.5             2.131e-010      -1.6232e-010   
  3.4             2.0962e-010     -1.5656e-010   
  3.3             2.0478e-010     -1.5862e-010   
  3.2             1.9846e-010     -1.5732e-010   
  3.1             1.9148e-010     -1.4306e-010   
  3               1.8558e-010     -1.3132e-010   
  2.9             1.8284e-010     -1.2622e-010   
  2.8             1.7862e-010     -1.2596e-010   
  2.7             1.742e-010      -1.23e-010     
  2.6             1.6686e-010     -1.1522e-010   
  2.5             1.6156e-010     -1.0582e-010   
  2.4             1.5688e-010     -1.1968e-010   
  2.3             1.5404e-010     -1.0326e-010   
  2.2             1.4866e-010     -1.0132e-010   
  2.1             1.4162e-010     -9.266e-011    
  2               1.3614e-010     -8.896e-011    
  1.9             1.3146e-010     -8.166e-011    
  1.8             1.2902e-010     -6.984e-011    
  1.7             1.2418e-010     -7.076e-011    
  1.6             1.1866e-010     -5.754e-011    
  1.5             1.1144e-010     -6.37e-011     
  1.4             1.078e-010      -6.91e-011     
  1.3             1.0408e-010     -5.444e-011    
  1.2             1.0036e-010     -4.038e-011    
  1.1             9.43e-011       -4.216e-011    
  1               8.708e-011      -4.734e-011    
  0.9             8.31e-011       -3.132e-011    
  0.8             7.92e-011       -1.606e-011    
  0.7             7.662e-011      -1.576e-011    
  0.6             6.908e-011      -1.79e-011     
  0.5             6.202e-011      -1.784e-011    
  0.4             5.436e-011      -5.88e-012     
  0.3             4.884e-011      1.82e-012      
  0.2             4.236e-011      9.96e-012      
  0.1             3.052e-011      2.118e-011     
  0               -1.54e-012      4.82e-011      
END_DB

