! VERSION = 6.00
BEGIN_HEADER
 ICCAP_INPUTS
  vc         V  cathode GROUND SMU1 0.1 CON        0
  va         V  anode GROUND SMU2 0.1 LIN        1    0          -1         51   -0.02     
 ICCAP_OUTPUTS
  ia         I  anode GROUND SMU2 B
  ic         I  cathode GROUND SMU1 B
 ICCAP_VALUES
  DataOrigin "Measure"
  ___CONTEXT ""
  Date "Jan 12 Wed 13:44:39 2022"
  Version "WaferPro.2016.01"
  Bench "B1500_B2200"
  Temperature "85"
  Lot "M135205"
  Reticle "M135205"
  Wafer "01D2"
  Die "X-3-Y0"
  DieList "TargetDie"
  Block "WholeDie"
  Subsite "diod1-5V"
  Routine "DIODE_EXTR_Measure"
  MeasCond "Set1"
  Device "2"
  DeviceName "ndiode_Dn5_A032B32"
  DevTechno "DIO"
  DevPolarity "N"
  Setup "iv_fwd"
  Type "1"
  ___SPICE_INSTANCE ""
  A "3.2E-007"
  B "3.2E-006"
  ___TECHNO_INSTANCE ""
  ___CALIBRATION ""
END_HEADER

BEGIN_DB
 ICCAP_VAR vc         0              

 #va              ia              ic             
  0               7.6e-013        2.11e-011      
  -0.02           -1.3e-012       2.18e-011      
  -0.04           -4.78e-012      1.358e-011     
  -0.06           -1.022e-011     3.658e-011     
  -0.08           -1.758e-011     3.174e-011     
  -0.1            -2.864e-011     3.508e-011     
  -0.12           -4.56e-011      6.23e-011      
  -0.14           -7.25e-011      7.58e-011      
  -0.16           -1.141e-010     1.6062e-010    
  -0.18           -1.7688e-010    1.798e-010     
  -0.2            -2.7108e-010    2.8246e-010    
  -0.22           -4.1144e-010    4.225e-010     
  -0.24           -6.2154e-010    6.2832e-010    
  -0.26           -9.309e-010     9.4352e-010    
  -0.28           -1.388e-009     1.3846e-009    
  -0.3            -2.066e-009     2.0846e-009    
  -0.32           -3.0698e-009    3.075e-009     
  -0.34           -4.5662e-009    4.5714e-009    
  -0.36           -6.7914e-009    6.7854e-009    
  -0.38           -1.00946e-008   1.00714e-008   
  -0.4            -1.5066e-008    1.5044e-008    
  -0.42           -2.2656e-008    2.2632e-008    
  -0.44           -3.4234e-008    3.4116e-008    
  -0.46           -5.2336e-008    5.216e-008     
  -0.48           -8.098e-008     8.068e-008     
  -0.5            -1.2744e-007    1.2754e-007    
  -0.52           -2.0398e-007    2.0388e-007    
  -0.54           -3.313e-007     3.3104e-007    
  -0.56           -5.4802e-007    5.4814e-007    
  -0.58           -9.2116e-007    9.2114e-007    
  -0.6            -1.5624e-006    1.5646e-006    
  -0.62           -2.6816e-006    2.6828e-006    
  -0.64           -4.6066e-006    4.6084e-006    
  -0.66           -7.8906e-006    7.8942e-006    
  -0.68           -1.33e-005      1.3324e-005    
  -0.7            -2.2046e-005    2.2062e-005    
  -0.72           -3.5494e-005    3.5512e-005    
  -0.74           -5.5454e-005    5.5476e-005    
  -0.76           -8.36e-005      8.363e-005     
  -0.78           -0.00012164     0.0001218      
  -0.8            -0.00017198     0.0001721      
  -0.82           -0.00023562     0.00023574     
  -0.84           -0.00031446     0.00031458     
  -0.86           -0.0004091      0.00040922     
  -0.88           -0.00052118     0.00052132     
  -0.9            -0.00065056     0.00065072     
  -0.92           -0.00079884     0.00079894     
  -0.94           -0.00096524     0.00096526     
  -0.96           -0.0011506      0.0011518      
  -0.98           -0.0013548      0.001356       
  -1              -0.001579       0.00158        
END_DB

