! VERSION = 6.00
BEGIN_HEADER
 ICCAP_INPUTS
  vc         V  cathode GROUND SMU1 0.1 CON        0
  va         V  anode GROUND SMU2 0.1 LIN        1    0          -1         51   -0.02     
 ICCAP_OUTPUTS
  ia         I  anode GROUND SMU2 B
  ic         I  cathode GROUND SMU1 B
 ICCAP_VALUES
  DataOrigin "Measure"
  ___CONTEXT ""
  Date "Jan 12 Wed 13:59:05 2022"
  Version "WaferPro.2016.01"
  Bench "B1500_B2200"
  Temperature "85"
  Lot "M135205"
  Reticle "M135205"
  Wafer "01D2"
  Die "X-3-Y0"
  DieList "TargetDie"
  Block "WholeDie"
  Subsite "diod1-5V"
  Routine "DIODE_EXTR_Measure"
  MeasCond "Set1"
  Device "9"
  DeviceName "ndiode_Dn5_A128B640"
  DevTechno "DIO"
  DevPolarity "N"
  Setup "iv_fwd"
  Type "1"
  ___SPICE_INSTANCE ""
  A "1.28E-006"
  B "6.4E-005"
  ___TECHNO_INSTANCE ""
  ___CALIBRATION ""
END_HEADER

BEGIN_DB
 ICCAP_VAR vc         0              

 #va              ia              ic             
  0               -3.6e-013       3.43e-011      
  -0.02           -1.746e-011     3.182e-011     
  -0.04           -4.408e-011     6.072e-011     
  -0.06           -8.724e-011     9.888e-011     
  -0.08           -1.5606e-010    1.7416e-010    
  -0.1            -2.6328e-010    2.715e-010     
  -0.12           -4.3238e-010    4.5084e-010    
  -0.14           -6.9494e-010    7.0488e-010    
  -0.16           -1.1008e-009    1.1118e-009    
  -0.18           -1.724e-009     1.7312e-009    
  -0.2            -2.681e-009     2.6868e-009    
  -0.22           -4.13e-009      4.1268e-009    
  -0.24           -6.3372e-009    6.3066e-009    
  -0.26           -9.6538e-009    9.606e-009     
  -0.28           -1.4638e-008    1.4576e-008    
  -0.3            -2.2208e-008    2.207e-008     
  -0.32           -3.3558e-008    3.345e-008     
  -0.34           -5.0894e-008    5.0756e-008    
  -0.36           -7.7422e-008    7.7318e-008    
  -0.38           -1.1808e-007    1.1816e-007    
  -0.4            -1.8188e-007    1.8216e-007    
  -0.42           -2.8334e-007    2.8306e-007    
  -0.44           -4.4468e-007    4.4476e-007    
  -0.46           -7.0946e-007    7.1018e-007    
  -0.48           -1.14502e-006   1.14472e-006   
  -0.5            -1.8772e-006    1.8788e-006    
  -0.52           -3.1174e-006    3.1196e-006    
  -0.54           -5.2164e-006    5.2092e-006    
  -0.56           -8.7702e-006    8.7694e-006    
  -0.58           -1.4774e-005    1.4788e-005    
  -0.6            -2.4788e-005    2.4802e-005    
  -0.62           -4.142e-005     4.1442e-005    
  -0.64           -6.8468e-005    6.8486e-005    
  -0.66           -0.00011179     0.000111796    
  -0.68           -0.0001786      0.00017874     
  -0.7            -0.00027918     0.00027928     
  -0.72           -0.00042326     0.00042336     
  -0.74           -0.00062226     0.0006224      
  -0.76           -0.00088364     0.00088384     
  -0.78           -0.0012138      0.0012152      
  -0.8            -0.0016202      0.0016216      
  -0.82           -0.0020996      0.002101       
  -0.84           -0.0026538      0.0026552      
  -0.86           -0.0032752      0.0032764      
  -0.88           -0.003963       0.0039642      
  -0.9            -0.0047068      0.004708       
  -0.92           -0.0055066      0.0055078      
  -0.94           -0.0063502      0.0063514      
  -0.96           -0.0072394      0.0072406      
  -0.98           -0.0081626      0.0081636      
  -1              -0.0091228      0.0091242      
END_DB

