! VERSION = 6.00
BEGIN_HEADER
 ICCAP_INPUTS
  vc         V  cathode GROUND SMU1 0.1 CON        0
  va         V  anode GROUND SMU2 0.1 LIN        1    15         0          151  -0.1      
 ICCAP_OUTPUTS
  ia         I  anode GROUND SMU2 B
  ic         I  cathode GROUND SMU1 B
 ICCAP_VALUES
  DataOrigin "Measure"
  ___CONTEXT ""
  Date "Jan 12 Wed 13:57:10 2022"
  Version "WaferPro.2016.01"
  Bench "B1500_B2200"
  Temperature "85"
  Lot "M135205"
  Reticle "M135205"
  Wafer "01D2"
  Die "X-3-Y0"
  DieList "TargetDie"
  Block "WholeDie"
  Subsite "diod1-5V"
  Routine "DIODE_EXTR_Measure"
  MeasCond "Set1"
  Device "8"
  DeviceName "ndiode_Dn5_A064B640"
  DevTechno "DIO"
  DevPolarity "N"
  Setup "iv_rev"
  Type "1"
  ___SPICE_INSTANCE ""
  A "6.4E-007"
  B "6.4E-005"
  ___TECHNO_INSTANCE ""
  ___CALIBRATION ""
END_HEADER

BEGIN_DB
 ICCAP_VAR vc         0              

 #va              ia              ic             
  15              0.006521        -0.0066218     
  14.9            0.0058988       -0.005936      
  14.8            0.0053064       -0.0053296     
  14.7            0.004723        -0.0047398     
  14.6            0.004145        -0.0041582     
  14.5            0.003568        -0.0035766     
  14.4            0.0029894       -0.0029972     
  14.3            0.0024156       -0.0024198     
  14.2            0.0018324       -0.0018366     
  14.1            0.0012408       -0.0012456     
  14              0.00058682      -0.00059382    
  13.9            1.7984e-005     -2.0862e-005   
  13.8            3.701e-007      -4.0952e-007   
  13.7            1.399e-007      -1.4302e-007   
  13.6            8.4606e-008     -8.6516e-008   
  13.5            6.0422e-008     -6.1256e-008   
  13.4            4.6752e-008     -4.7324e-008   
  13.3            3.8044e-008     -3.849e-008    
  13.2            3.1964e-008     -3.2308e-008   
  13.1            2.7424e-008     -2.7746e-008   
  13              2.3892e-008     -2.4166e-008   
  12.9            2.118e-008      -2.1374e-008   
  12.8            1.8918e-008     -1.9088e-008   
  12.7            1.7064e-008     -1.7202e-008   
  12.6            1.5496e-008     -1.5618e-008   
  12.5            1.4142e-008     -1.4276e-008   
  12.4            1.2924e-008     -1.309e-008    
  12.3            1.1932e-008     -1.2044e-008   
  12.2            1.1022e-008     -1.1118e-008   
  12.1            1.023e-008      -1.0318e-008   
  12              9.4886e-009     -9.6e-009      
  11.9            8.8212e-009     -8.8742e-009   
  11.8            8.25e-009       -8.2884e-009   
  11.7            7.7322e-009     -7.7612e-009   
  11.6            7.2358e-009     -7.2538e-009   
  11.5            6.818e-009      -6.8406e-009   
  11.4            6.4252e-009     -6.4522e-009   
  11.3            6.0734e-009     -6.0718e-009   
  11.2            5.7406e-009     -5.7484e-009   
  11.1            5.4446e-009     -5.4442e-009   
  11              5.1684e-009     -5.1486e-009   
  10.9            4.9038e-009     -4.8932e-009   
  10.8            4.6668e-009     -4.655e-009    
  10.7            4.437e-009      -4.4108e-009   
  10.6            4.229e-009      -4.2072e-009   
  10.5            4.0414e-009     -4.0218e-009   
  10.4            3.8638e-009     -3.8338e-009   
  10.3            3.6944e-009     -3.66e-009     
  10.2            3.5424e-009     -3.5154e-009   
  10.1            3.388e-009      -3.3526e-009   
  10              3.2544e-009     -3.2166e-009   
  9.9             3.1216e-009     -3.097e-009    
  9.8             2.9948e-009     -2.9646e-009   
  9.7             2.871e-009      -2.8456e-009   
  9.6             2.7594e-009     -2.738e-009    
  9.5             2.652e-009      -2.6254e-009   
  9.4             2.551e-009      -2.5084e-009   
  9.3             2.4544e-009     -2.4384e-009   
  9.2             2.363e-009      -2.3312e-009   
  9.1             2.272e-009      -2.2344e-009   
  9               2.193e-009      -2.1618e-009   
  8.9             2.108e-009      -2.081e-009    
  8.8             2.041e-009      -1.9904e-009   
  8.7             1.967e-009      -1.93e-009     
  8.6             1.8922e-009     -1.8576e-009   
  8.5             1.8286e-009     -1.7828e-009   
  8.4             1.7622e-009     -1.7206e-009   
  8.3             1.7052e-009     -1.6724e-009   
  8.2             1.6482e-009     -1.6076e-009   
  8.1             1.5876e-009     -1.5446e-009   
  8               1.5392e-009     -1.5366e-009   
  7.9             1.481e-009      -1.4372e-009   
  7.8             1.4352e-009     -1.3962e-009   
  7.7             1.3878e-009     -1.3514e-009   
  7.6             1.3436e-009     -1.3034e-009   
  7.5             1.301e-009      -1.2564e-009   
  7.4             1.257e-009      -1.2168e-009   
  7.3             1.2152e-009     -1.1654e-009   
  7.2             1.1768e-009     -1.1302e-009   
  7.1             1.141e-009      -1.0948e-009   
  7               1.105e-009      -1.0554e-009   
  6.9             1.0706e-009     -1.0222e-009   
  6.8             1.037e-009      -9.92e-010     
  6.7             1.0046e-009     -9.526e-010    
  6.6             9.728e-010      -9.188e-010    
  6.5             9.4318e-010     -8.934e-010    
  6.4             9.1524e-010     -8.728e-010    
  6.3             8.8692e-010     -8.37e-010     
  6.2             8.582e-010      -8.152e-010    
  6.1             8.3308e-010     -7.91e-010     
  6               8.096e-010      -7.604e-010    
  5.9             7.828e-010      -7.34e-010     
  5.8             7.5954e-010     -7.116e-010    
  5.7             7.3622e-010     -6.942e-010    
  5.6             7.1526e-010     -6.774e-010    
  5.5             6.947e-010      -6.686e-010    
  5.4             6.7512e-010     -6.258e-010    
  5.3             6.5372e-010     -6.2278e-010   
  5.2             6.3492e-010     -5.9452e-010   
  5.1             6.1682e-010     -5.6784e-010   
  5               5.9936e-010     -5.5712e-010   
  4.9             5.81e-010       -5.433e-010    
  4.8             5.5974e-010     -5.1774e-010   
  4.7             5.4932e-010     -4.8724e-010   
  4.6             5.3402e-010     -4.8428e-010   
  4.5             5.188e-010      -4.7478e-010   
  4.4             5.0428e-010     -4.6172e-010   
  4.3             4.9156e-010     -4.4726e-010   
  4.2             4.7846e-010     -4.2278e-010   
  4.1             4.6532e-010     -4.1802e-010   
  4               4.519e-010      -4.1338e-010   
  3.9             4.3956e-010     -3.9406e-010   
  3.8             4.2856e-010     -3.727e-010    
  3.7             4.1784e-010     -3.6172e-010   
  3.6             4.0664e-010     -3.5438e-010   
  3.5             3.9426e-010     -3.52e-010     
  3.4             3.8534e-010     -3.4066e-010   
  3.3             3.751e-010      -3.2092e-010   
  3.2             3.6622e-010     -3.1746e-010   
  3.1             3.564e-010      -3.139e-010    
  3               3.47e-010       -2.9938e-010   
  2.9             3.377e-010      -2.8342e-010   
  2.8             3.2936e-010     -2.754e-010    
  2.7             3.2122e-010     -2.704e-010    
  2.6             3.1234e-010     -2.6618e-010   
  2.5             3.045e-010      -2.5598e-010   
  2.4             2.9616e-010     -2.4338e-010   
  2.3             2.8736e-010     -2.414e-010    
  2.2             2.795e-010      -2.3978e-010   
  2.1             2.7104e-010     -2.1816e-010   
  2               2.636e-010      -2.062e-010    
  1.9             2.5496e-010     -2.0236e-010   
  1.8             2.4654e-010     -2.0014e-010   
  1.7             2.3796e-010     -1.8558e-010   
  1.6             2.2942e-010     -1.904e-010    
  1.5             2.2116e-010     -1.8246e-010   
  1.4             2.1252e-010     -1.7662e-010   
  1.3             2.0384e-010     -1.6952e-010   
  1.2             1.9572e-010     -1.5886e-010   
  1.1             1.8754e-010     -1.4664e-010   
  1               1.7838e-010     -1.5052e-010   
  0.9             1.6984e-010     -1.4212e-010   
  0.8             1.5944e-010     -1.2664e-010   
  0.7             1.521e-010      -1.2052e-010   
  0.6             1.4346e-010     -1.1122e-010   
  0.5             1.3324e-010     -1.0074e-010   
  0.4             1.2334e-010     -8.826e-011    
  0.3             1.106e-010      -7.918e-011    
  0.2             9.618e-011      -7.448e-011    
  0.1             7.336e-011      -4.202e-011    
  0               -2.68e-012      3.618e-011     
END_DB

