! VERSION = 6.00
BEGIN_HEADER
 ICCAP_INPUTS
  vc         V  cathode GROUND SMU1 0.1 CON        0
  va         V  anode GROUND SMU2 0.1 LIN        1    -15        0          151  0.1       
 ICCAP_OUTPUTS
  ia         I  anode GROUND SMU2 B
  ic         I  cathode GROUND SMU1 B
 ICCAP_VALUES
  DataOrigin "Measure"
  ___CONTEXT ""
  Date "Jan 11 Tue 13:11:56 2022"
  Version "WaferPro.2016.01"
  Bench "B1500_B2200"
  Temperature "-40"
  Lot "M135205"
  Reticle "M135205"
  Wafer "01D2"
  Die "X-3-Y0"
  DieList "TargetDie"
  Block "WholeDie"
  Subsite "diod2-5V"
  Routine "DIODE_EXTR_Measure"
  MeasCond "Set1"
  Device "9"
  DeviceName "pdiode_Dp5_A128B640"
  DevTechno "DIO"
  DevPolarity "P"
  Setup "iv_rev"
  Type "-1"
  ___SPICE_INSTANCE ""
  A "1.28E-006"
  B "6.4E-005"
  ___TECHNO_INSTANCE ""
  ___CALIBRATION ""
END_HEADER

BEGIN_DB
 ICCAP_VAR vc         0              

 #va              ia              ic             
  -15             -0.021928       0.022536       
  -14.9           -0.021284       0.021396       
  -14.8           -0.020818       0.020878       
  -14.7           -0.020394       0.020432       
  -14.6           -0.019988       0.020016       
  -14.5           -0.019578       0.019602       
  -14.4           -0.01917        0.019188       
  -14.3           -0.018744       0.01876        
  -14.2           -0.01831        0.018326       
  -14.1           -0.017856       0.017868       
  -14             -0.017384       0.017396       
  -13.9           -0.016896       0.016904       
  -13.8           -0.016384       0.016392       
  -13.7           -0.01585        0.015858       
  -13.6           -0.015286       0.015296       
  -13.5           -0.014706       0.014712       
  -13.4           -0.014092       0.0141         
  -13.3           -0.013458       0.013464       
  -13.2           -0.012792       0.0128         
  -13.1           -0.012096       0.012104       
  -13             -0.011378       0.011386       
  -12.9           -0.010628       0.010634       
  -12.8           -0.0098632      0.0098624      
  -12.7           -0.0090562      0.009055       
  -12.6           -0.0082284      0.008227       
  -12.5           -0.0073666      0.0073662      
  -12.4           -0.0064784      0.006477       
  -12.3           -0.0055714      0.0055706      
  -12.2           -0.0046318      0.0046312      
  -12.1           -0.0036692      0.0036688      
  -12             -0.002693       0.0026916      
  -11.9           -0.0016842      0.0016832      
  -11.8           -0.00057        0.0005669      
  -11.7           -5.32e-010      9.346e-010     
  -11.6           -1.8628e-010    1.2764e-010    
  -11.5           -9.358e-011     5.61e-011      
  -11.4           -5.036e-011     3.074e-011     
  -11.3           -3.146e-011     1.71e-011      
  -11.2           -1.988e-011     1.102e-011     
  -11.1           -1.178e-011     6.66e-012      
  -11             -8.04e-012      4.92e-012      
  -10.9           -6.16e-012      3.26e-012      
  -10.8           -5.52e-012      2.92e-012      
  -10.7           -3.34e-012      1.6e-012       
  -10.6           -2.1e-012       1.48e-012      
  -10.5           -1.86e-012      2.38e-012      
  -10.4           -2.28e-012      1.96e-012      
  -10.3           -1.88e-012      2.28e-012      
  -10.2           -6.8e-013       5.8e-013       
  -10.1           -1.2e-013       9.8e-013       
  -10             -8.6e-013       9.2e-013       
  -9.9            -1.92e-012      1.18e-012      
  -9.8            -9.2e-013       3.2e-013       
  -9.7            -2.4e-013       -1.6e-013      
  -9.6            -6e-014         5e-013         
  -9.5            -8.8e-013       1.14e-012      
  -9.4            -1.36e-012      2.04e-012      
  -9.3            -4.8e-013       4.4e-013       
  -9.2            4e-013          6e-013         
  -9.1            2.6e-013        6e-014         
  -9              -9.6e-013       6.6e-013       
  -8.9            -8.6e-013       3.4e-013       
  -8.8            -4.6e-013       -1.8e-013      
  -8.7            5.6e-013        -3.6e-013      
  -8.6            1e-013          4.4e-013       
  -8.5            -6.8e-013       1.14e-012      
  -8.4            -4.6e-013       5.2e-013       
  -8.3            2.6e-013        5e-013         
  -8.2            7.4e-013        -3.4e-013      
  -8.1            -6e-014         2e-013         
  -8              -6e-013         4e-014         
  -7.9            -5.2e-013       -6e-013        
  -7.8            4.4e-013        -5e-013        
  -7.7            3e-013          -2.4e-013      
  -7.6            -3.6e-013       8.4e-013       
  -7.5            -5.2e-013       5.6e-013       
  -7.4            0               6.2e-013       
  -7.3            7.4e-013        -1.6e-013      
  -7.2            3.4e-013        -1e-013        
  -7.1            -4e-013         1.4e-013       
  -7              -4e-013         -5.2e-013      
  -6.9            3.2e-013        -6.2e-013      
  -6.8            4.6e-013        -4.8e-013      
  -6.7            4e-014          1.6e-013       
  -6.6            -4e-013         2.6e-013       
  -6.5            -1.4e-013       2e-014         
  -6.4            8e-013          -2.8e-013      
  -6.3            5e-013          3.2e-013       
  -6.2            0               -1e-013        
  -6.1            -5e-013         -5.4e-013      
  -6              0               -1.1e-012      
  -5.9            5.2e-013        -1.48e-012     
  -5.8            3e-013          -2e-014        
  -5.7            -3.4e-013       -1e-013        
  -5.6            -4e-013         4e-014         
  -5.5            4.8e-013        -6.2e-013      
  -5.4            6e-013          -2.6e-013      
  -5.3            4.2e-013        -4.6e-013      
  -5.2            -4.2e-013       -4e-013        
  -5.1            -1.4e-013       -8.4e-013      
  -5              3.4e-013        -2.38e-012     
  -4.9            4.4e-013        -8e-013        
  -4.8            -6e-014         -1.22e-012     
  -4.7            -6e-013         -4.8e-013      
  -4.6            3e-013          -7.6e-013      
  -4.5            4.4e-013        -8.8e-013      
  -4.4            7e-013          -7.8e-013      
  -4.3            -2e-013         -1.2e-012      
  -4.2            -6e-014         -1.66e-012     
  -4.1            2e-013          -2.5e-012      
  -4              5e-013          -1.92e-012     
  -3.9            1.8e-013        -2.34e-012     
  -3.8            -4e-013         -1.54e-012     
  -3.7            4e-014          -2.26e-012     
  -3.6            2.6e-013        -1.76e-012     
  -3.5            7.2e-013        -2.12e-012     
  -3.4            6e-014          -1.96e-012     
  -3.3            -1.8e-013       -2.76e-012     
  -3.2            8e-014          -3.58e-012     
  -3.1            4e-013          -3.26e-012     
  -3              3.6e-013        -4.16e-012     
  -2.9            -1.4e-013       -2.8e-012      
  -2.8            -1.8e-013       -4.18e-012     
  -2.7            1e-013          -3.72e-012     
  -2.6            8.2e-013        -4.2e-012      
  -2.5            1.8e-013        -3.74e-012     
  -2.4            1.2e-013        -4.38e-012     
  -2.3            -2.4e-013       -5.66e-012     
  -2.2            4.4e-013        -6.34e-012     
  -2.1            3.8e-013        -6.94e-012     
  -2              -2e-014         -5.78e-012     
  -1.9            -3.2e-013       -7e-012        
  -1.8            -4e-014         -6.54e-012     
  -1.7            6.6e-013        -8.14e-012     
  -1.6            4.2e-013        -7.84e-012     
  -1.5            2.6e-013        -7.8e-012      
  -1.4            -4.4e-013       -8.48e-012     
  -1.3            3.4e-013        -1.008e-011    
  -1.2            4.2e-013        -1.16e-011     
  -1.1            2.2e-013        -1.116e-011    
  -1              -1.4e-013       -1.168e-011    
  -0.9            -2.4e-013       -1.108e-011    
  -0.8            2.6e-013        -1.332e-011    
  -0.7            4.2e-013        -1.318e-011    
  -0.6            4.6e-013        -1.398e-011    
  -0.5            -2.8e-013       -1.42e-011     
  -0.4            1.4e-013        -1.532e-011    
  -0.3            1.8e-013        -1.71e-011     
  -0.2            8e-013          -1.83e-011     
  -0.1            1.6e-013        -1.868e-011    
  0               -1.8e-013       -1.8e-011      
END_DB

