! VERSION = 6.00
BEGIN_HEADER
 ICCAP_INPUTS
  vc         V  cathode GROUND SMU1 0.1 CON        0
  va         V  anode GROUND SMU2 0.1 LIN        1    -15        0          151  0.1       
 ICCAP_OUTPUTS
  ia         I  anode GROUND SMU2 B
  ic         I  cathode GROUND SMU1 B
 ICCAP_VALUES
  DataOrigin "Measure"
  ___CONTEXT ""
  Date "Jan 11 Tue 13:03:19 2022"
  Version "WaferPro.2016.01"
  Bench "B1500_B2200"
  Temperature "-40"
  Lot "M135205"
  Reticle "M135205"
  Wafer "01D2"
  Die "X-3-Y0"
  DieList "TargetDie"
  Block "WholeDie"
  Subsite "diod2-5V"
  Routine "DIODE_EXTR_Measure"
  MeasCond "Set1"
  Device "2"
  DeviceName "pdiode_Dp5_A032B32"
  DevTechno "DIO"
  DevPolarity "P"
  Setup "iv_rev"
  Type "-1"
  ___SPICE_INSTANCE ""
  A "3.2E-007"
  B "3.2E-006"
  ___TECHNO_INSTANCE ""
  ___CALIBRATION ""
END_HEADER

BEGIN_DB
 ICCAP_VAR vc         0              

 #va              ia              ic             
  -15             -0.0012142      0.0012568      
  -14.9           -0.001155       0.0011666      
  -14.8           -0.0011072      0.001115       
  -14.7           -0.0010624      0.001068       
  -14.6           -0.0010206      0.0010236      
  -14.5           -0.00097872     0.00098096     
  -14.4           -0.00093554     0.00093668     
  -14.3           -0.00089276     0.00089232     
  -14.2           -0.00084602     0.00084744     
  -14.1           -0.00079886     0.00079928     
  -14             -0.00075058     0.0007511      
  -13.9           -0.00070214     0.00070162     
  -13.8           -0.00065006     0.00065082     
  -13.7           -0.00059842     0.0005981      
  -13.6           -0.00054354     0.0005436      
  -13.5           -0.00048968     0.0004892      
  -13.4           -0.00043362     0.00043366     
  -13.3           -0.00037508     0.00037554     
  -13.2           -0.00031678     0.00031644     
  -13.1           -0.000257       0.00025598     
  -13             -0.00019548     0.00019526     
  -12.9           -0.00013406     0.00013278     
  -12.8           -7.3456e-005    7.3624e-005    
  -12.7           -8.396e-010     1.0012e-010    
  -12.6           -2.006e-011     -1.119e-010    
  -12.5           -7.84e-012      -9.096e-011    
  -12.4           -4.34e-012      -8.026e-011    
  -12.3           -2.1e-012       -7.33e-011     
  -12.2           -2.1e-012       -6.778e-011    
  -12.1           -2.62e-012      -6.114e-011    
  -12             -2.08e-012      -5.69e-011     
  -11.9           -9.8e-013       -5.69e-011     
  -11.8           -2.2e-013       -5.472e-011    
  -11.7           -1.04e-012      -5.016e-011    
  -11.6           -1.74e-012      -4.884e-011    
  -11.5           -9.8e-013       -4.826e-011    
  -11.4           1.4e-013        -4.786e-011    
  -11.3           -4e-014         -4.322e-011    
  -11.2           -7.4e-013       -4.418e-011    
  -11.1           -1.24e-012      -4.364e-011    
  -11             -3.4e-013       -4.322e-011    
  -10.9           3.6e-013        -4.382e-011    
  -10.8           4e-014          -4.068e-011    
  -10.7           -9.2e-013       -4.048e-011    
  -10.6           -1e-012         -3.972e-011    
  -10.5           2e-014          -3.948e-011    
  -10.4           5.2e-013        -3.786e-011    
  -10.3           1.6e-013        -3.86e-011     
  -10.2           -9.6e-013       -3.954e-011    
  -10.1           -6.2e-013       -3.79e-011     
  -10             1.8e-013        -3.762e-011    
  -9.9            6.2e-013        -3.818e-011    
  -9.8            -2e-013         -3.918e-011    
  -9.7            -9.8e-013       -3.856e-011    
  -9.6            -5e-013         -3.928e-011    
  -9.5            4.4e-013        -3.708e-011    
  -9.4            5.8e-013        -3.804e-011    
  -9.3            -4e-013         -3.746e-011    
  -9.2            -7e-013         -3.73e-011     
  -9.1            -2.2e-013       -3.814e-011    
  -9              6e-013          -3.704e-011    
  -8.9            3.4e-013        -4.024e-011    
  -8.8            -6e-013         -3.758e-011    
  -8.7            -8e-013         -3.832e-011    
  -8.6            0               -3.84e-011     
  -8.5            7.8e-013        -3.72e-011     
  -8.4            1.4e-013        -3.756e-011    
  -8.3            -4.8e-013       -3.802e-011    
  -8.2            -7e-013         -3.724e-011    
  -8.1            3.4e-013        -3.718e-011    
  -8              6.6e-013        -3.782e-011    
  -7.9            -8e-014         -3.83e-011     
  -7.8            -7.2e-013       -3.936e-011    
  -7.7            -4.6e-013       -3.778e-011    
  -7.6            5.4e-013        -3.958e-011    
  -7.5            5.6e-013        -3.928e-011    
  -7.4            -1.4e-013       -3.76e-011     
  -7.3            -6.8e-013       -3.78e-011     
  -7.2            -1.2e-013       -3.956e-011    
  -7.1            5.4e-013        -3.968e-011    
  -7              4.4e-013        -3.952e-011    
  -6.9            -5.2e-013       -4.016e-011    
  -6.8            -8.2e-013       -3.998e-011    
  -6.7            -6e-014         -3.938e-011    
  -6.6            7e-013          -3.932e-011    
  -6.5            2.6e-013        -4.138e-011    
  -6.4            -6.6e-013       -4.228e-011    
  -6.3            -5e-013         -4.27e-011     
  -6.2            2.8e-013        -4.026e-011    
  -6.1            8e-013          -4.172e-011    
  -6              4e-014          -4.102e-011    
  -5.9            -7.4e-013       -4.182e-011    
  -5.8            -3.6e-013       -4.112e-011    
  -5.7            4e-013          -4.062e-011    
  -5.6            6.2e-013        -4.262e-011    
  -5.5            -2.2e-013       -4.188e-011    
  -5.4            -6e-013         -4.108e-011    
  -5.3            -1e-013         -4.222e-011    
  -5.2            6.6e-013        -4.148e-011    
  -5.1            4.6e-013        -4.328e-011    
  -5              -4.4e-013       -4.292e-011    
  -4.9            -7.2e-013       -4.122e-011    
  -4.8            0               -4.176e-011    
  -4.7            6.6e-013        -4.794e-011    
  -4.6            1.6e-013        -4.218e-011    
  -4.5            -5e-013         -4.216e-011    
  -4.4            -5.6e-013       -4.2e-011      
  -4.3            4e-013          -4.016e-011    
  -4.2            7.8e-013        -4.198e-011    
  -4.1            1e-013          -4.39e-011     
  -4              -6.4e-013       -4.414e-011    
  -3.9            -3.8e-013       -4.566e-011    
  -3.8            4.2e-013        -4.422e-011    
  -3.7            5e-013          -4.37e-011     
  -3.6            -2e-013         -4.516e-011    
  -3.5            -7.2e-013       -4.336e-011    
  -3.4            -1.2e-013       -4.426e-011    
  -3.3            6.6e-013        -4.684e-011    
  -3.2            4.6e-013        -4.56e-011     
  -3.1            -4.4e-013       -4.724e-011    
  -3              -5.8e-013       -4.69e-011     
  -2.9            2e-014          -4.656e-011    
  -2.8            6.8e-013        -4.676e-011    
  -2.7            2e-013          -4.602e-011    
  -2.6            -5e-013         -4.754e-011    
  -2.5            -5.2e-013       -4.692e-011    
  -2.4            4.6e-013        -4.744e-011    
  -2.3            6.4e-013        -4.904e-011    
  -2.2            0               -5.136e-011    
  -2.1            -7.4e-013       -5.046e-011    
  -2              -3.2e-013       -4.93e-011     
  -1.9            5e-013          -5.696e-011    
  -1.8            6.4e-013        -5.036e-011    
  -1.7            -3e-013         -5.312e-011    
  -1.6            -6.6e-013       -5.206e-011    
  -1.5            -6e-014         -5.418e-011    
  -1.4            7e-013          -5.178e-011    
  -1.3            5.2e-013        -5.418e-011    
  -1.2            -3.8e-013       -5.41e-011     
  -1.1            -5.6e-013       -5.572e-011    
  -1              1.8e-013        -6.068e-011    
  -0.9            7.4e-013        -5.524e-011    
  -0.8            1e-013          -5.634e-011    
  -0.7            -6.6e-013       -5.488e-011    
  -0.6            -4.4e-013       -5.522e-011    
  -0.5            2.4e-013        -5.338e-011    
  -0.4            7.6e-013        -5.5e-011      
  -0.3            -8e-014         -5.67e-011     
  -0.2            -5.6e-013       -5.65e-011     
  -0.1            -1.4e-013       -5.964e-011    
  0               6.2e-013        -5.728e-011    
END_DB

