! VERSION = 6.00
BEGIN_HEADER
 ICCAP_INPUTS
  vc         V  cathode GROUND SMU1 0.1 CON        0
  va         V  anode GROUND SMU2 0.1 LIN        1    -15        0          151  0.1       
 ICCAP_OUTPUTS
  ia         I  anode GROUND SMU2 B
  ic         I  cathode GROUND SMU1 B
 ICCAP_VALUES
  DataOrigin "Measure"
  ___CONTEXT ""
  Date "Jan 11 Tue 13:14:20 2022"
  Version "WaferPro.2016.01"
  Bench "B1500_B2200"
  Temperature "-40"
  Lot "M135205"
  Reticle "M135205"
  Wafer "01D2"
  Die "X-3-Y0"
  DieList "TargetDie"
  Block "WholeDie"
  Subsite "diod2-5V"
  Routine "DIODE_EXTR_Measure"
  MeasCond "Set1"
  Device "11"
  DeviceName "pdiode_Dp5_A320B640"
  DevTechno "DIO"
  DevPolarity "P"
  Setup "iv_rev"
  Type "-1"
  ___SPICE_INSTANCE ""
  A "3.2E-005"
  B "6.4E-005"
  ___TECHNO_INSTANCE ""
  ___CALIBRATION ""
END_HEADER

BEGIN_DB
 ICCAP_VAR vc         0              

 #va              ia              ic             
  -15             -0.02008        0.020694       
  -14.9           -0.019454       0.019566       
  -14.8           -0.01901        0.01907        
  -14.7           -0.018604       0.018646       
  -14.6           -0.01822        0.018246       
  -14.5           -0.017838       0.017858       
  -14.4           -0.017454       0.017474       
  -14.3           -0.017056       0.017072       
  -14.2           -0.016652       0.016666       
  -14.1           -0.016228       0.016242       
  -14             -0.015794       0.015804       
  -13.9           -0.01534        0.015348       
  -13.8           -0.014872       0.014876       
  -13.7           -0.01438        0.014388       
  -13.6           -0.013866       0.013874       
  -13.5           -0.013336       0.013344       
  -13.4           -0.01278        0.012788       
  -13.3           -0.012208       0.012218       
  -13.2           -0.011612       0.011618       
  -13.1           -0.010992       0.010998       
  -13             -0.010354       0.010362       
  -12.9           -0.0097152      0.009701       
  -12.8           -0.0090362      0.0090368      
  -12.7           -0.008328       0.0083276      
  -12.6           -0.0076048      0.0076058      
  -12.5           -0.006858       0.0068604      
  -12.4           -0.0060942      0.006092       
  -12.3           -0.0053174      0.005317       
  -12.2           -0.0045214      0.0045198      
  -12.1           -0.0037126      0.0037116      
  -12             -0.0029026      0.0029014      
  -11.9           -0.0020816      0.0020812      
  -11.8           -0.0012668      0.0012664      
  -11.7           -0.00040958     0.00040752     
  -11.6           -2.755e-010     2.694e-010     
  -11.5           -2.596e-011     2.684e-011     
  -11.4           -1.038e-011     1.116e-011     
  -11.3           -7.46e-012      6.54e-012      
  -11.2           -6.02e-012      4.82e-012      
  -11.1           -4.56e-012      3.68e-012      
  -11             -2.08e-012      3.16e-012      
  -10.9           -1.7e-012       2.1e-012       
  -10.8           -2.18e-012      1.7e-012       
  -10.7           -2.62e-012      2.08e-012      
  -10.6           -1.32e-012      2.42e-012      
  -10.5           -3.4e-013       2.24e-012      
  -10.4           -8.4e-013       1.3e-012       
  -10.3           -1.78e-012      1.02e-012      
  -10.2           -2.1e-012       3.6e-013       
  -10.1           -2.8e-013       1.22e-012      
  -10             6.2e-013        4.4e-013       
  -9.9            -1.4e-013       4.2e-013       
  -9.8            -1.3e-012       6.6e-013       
  -9.7            -7e-013         6.6e-013       
  -9.6            4e-013          1.62e-012      
  -9.5            7.8e-013        1.1e-012       
  -9.4            -7.4e-013       4.4e-013       
  -9.3            -1.86e-012      -4e-014        
  -9.2            -6e-013         1.6e-013       
  -9.1            4.8e-013        2e-014         
  -9              8.8e-013        2e-014         
  -8.9            -6e-013         -4e-013        
  -8.8            -9.2e-013       6e-014         
  -8.7            1e-013          9.8e-013       
  -8.6            9.2e-013        6.2e-013       
  -8.5            2.8e-013        5.2e-013       
  -8.4            -1.36e-012      -1.6e-013      
  -8.3            -9e-013         2.8e-013       
  -8.2            1e-013          -2.8e-013      
  -8.1            1.04e-012       0              
  -8              -2e-013         -6.6e-013      
  -7.9            -7.2e-013       -5e-013        
  -7.8            -1e-013         5.8e-013       
  -7.7            1.1e-012        2.8e-013       
  -7.6            8e-013          8e-013         
  -7.5            -7.4e-013       -1.8e-013      
  -7.4            -1.08e-012      3e-013         
  -7.3            -3.4e-013       -1.2e-013      
  -7.2            1.24e-012       -6e-014        
  -7.1            2e-013          -1.08e-012     
  -7              -4e-013         -9e-013        
  -6.9            -7.8e-013       -2.2e-013      
  -6.8            7.8e-013        3.6e-013       
  -6.7            1.18e-012       8.4e-013       
  -6.6            -2e-014         -4e-013        
  -6.5            -1.04e-012      8e-014         
  -6.4            -1.02e-012      -2.2e-013      
  -6.3            9.4e-013        3.2e-013       
  -6.2            6.6e-013        -8e-013        
  -6.1            -2e-014         -9.8e-013      
  -6              -1.32e-012      -1.54e-012     
  -5.9            4e-014          -4.6e-013      
  -5.8            1.36e-012       7.6e-013       
  -5.7            8.8e-013        -2.6e-013      
  -5.6            -6.4e-013       2.4e-013       
  -5.5            -1.32e-012      -1e-012        
  -5.4            2.8e-013        1.2e-013       
  -5.3            7.8e-013        -5e-013        
  -5.2            7.2e-013        -1.04e-012     
  -5.1            -1.08e-012      -1.48e-012     
  -5              -3e-013         -1.18e-012     
  -4.9            7e-013          -3.2e-013      
  -4.8            1.36e-012       -6.2e-013      
  -4.7            1.8e-013        1e-013         
  -4.6            -1.1e-012       -1.02e-012     
  -4.5            -2.2e-013       -1.2e-013      
  -4.4            5.2e-013        -1.02e-012     
  -4.3            1.26e-012       -1.3e-012      
  -4.2            -7.8e-013       -2.06e-012     
  -4.1            -5.2e-013       -1.38e-012     
  -4              -2e-014         -1.2e-012      
  -3.9            1.34e-012       -1.22e-012     
  -3.8            7.6e-013        -1.04e-012     
  -3.7            -6.2e-013       -1.88e-012     
  -3.6            -5.8e-013       -4.2e-013      
  -3.5            1.4e-013        -2.06e-012     
  -3.4            1.14e-012       -1.5e-012      
  -3.3            2e-014          -2.98e-012     
  -3.2            -5.2e-013       -2.68e-012     
  -3.1            -5.6e-013       -2.6e-012      
  -3              1.24e-012       -2.4e-012      
  -2.9            8.6e-013        -2.5e-012      
  -2.8            -1.4e-013       -3.34e-012     
  -2.7            -9.6e-013       -2.34e-012     
  -2.6            -2e-014         -3e-012        
  -2.5            1.1e-012        -2.78e-012     
  -2.4            3.2e-013        -4.44e-012     
  -2.3            -3.6e-013       -4.54e-012     
  -2.2            -1.14e-012      -4.76e-012     
  -2.1            9.4e-013        -4.04e-012     
  -2              9e-013          -4.86e-012     
  -1.9            6.4e-013        -5.04e-012     
  -1.8            -8.2e-013       -5.1e-012      
  -1.7            -8.2e-013       -5.52e-012     
  -1.6            7.8e-013        -5.08e-012     
  -1.5            1.12e-012       -6.98e-012     
  -1.4            1.6e-013        -6.92e-012     
  -1.3            -1.34e-012      -8.28e-012     
  -1.2            -2.8e-013       -7.78e-012     
  -1.1            6e-013          -8.38e-012     
  -1              1.54e-012       -8.58e-012     
  -0.9            -3.8e-013       -9.18e-012     
  -0.8            -9.2e-013       -9.64e-012     
  -0.7            -3.6e-013       -9.3e-012      
  -0.6            1.16e-012       -1.06e-011     
  -0.5            1.1e-012        -1.076e-011    
  -0.4            -5.8e-013       -1.276e-011    
  -0.3            -6.8e-013       -1.286e-011    
  -0.2            -2e-014         -1.382e-011    
  -0.1            1.82e-012       -1.334e-011    
  0               4.6e-013        -1.438e-011    
END_DB

