! VERSION = 6.00
BEGIN_HEADER
 ICCAP_INPUTS
  vc         V  cathode GROUND SMU1 0.1 CON        0
  va         V  anode GROUND SMU2 0.1 LIN        1    -15        0          151  0.1       
 ICCAP_OUTPUTS
  ia         I  anode GROUND SMU2 B
  ic         I  cathode GROUND SMU1 B
 ICCAP_VALUES
  DataOrigin "Measure"
  ___CONTEXT ""
  Date "Jan 11 Tue 13:05:47 2022"
  Version "WaferPro.2016.01"
  Bench "B1500_B2200"
  Temperature "-40"
  Lot "M135205"
  Reticle "M135205"
  Wafer "01D2"
  Die "X-3-Y0"
  DieList "TargetDie"
  Block "WholeDie"
  Subsite "diod2-5V"
  Routine "DIODE_EXTR_Measure"
  MeasCond "Set1"
  Device "4"
  DeviceName "pdiode_Dp5_A32B32"
  DevTechno "DIO"
  DevPolarity "P"
  Setup "iv_rev"
  Type "-1"
  ___SPICE_INSTANCE ""
  A "3.2E-006"
  B "3.2E-006"
  ___TECHNO_INSTANCE ""
  ___CALIBRATION ""
END_HEADER

BEGIN_DB
 ICCAP_VAR vc         0              

 #va              ia              ic             
  -15             -0.0014288      0.0014588      
  -14.9           -0.0013924      0.001399       
  -14.8           -0.001364       0.001368       
  -14.7           -0.0013376      0.0013404      
  -14.6           -0.0013124      0.0013146      
  -14.5           -0.0012864      0.0012896      
  -14.4           -0.0012616      0.0012634      
  -14.3           -0.001235       0.0012368      
  -14.2           -0.0012084      0.0012102      
  -14.1           -0.0011808      0.001182       
  -14             -0.001152       0.0011536      
  -13.9           -0.0011226      0.0011236      
  -13.8           -0.001091       0.0010924      
  -13.7           -0.0010582      0.0010598      
  -13.6           -0.0010236      0.0010246      
  -13.5           -0.00098856     0.00098822     
  -13.4           -0.00095078     0.00095062     
  -13.3           -0.00091144     0.00091132     
  -13.2           -0.00086976     0.0008697      
  -13.1           -0.00082624     0.00082624     
  -13             -0.00078102     0.000781       
  -12.9           -0.00073334     0.0007333      
  -12.8           -0.000684       0.00068404     
  -12.7           -0.00063214     0.0006322      
  -12.6           -0.00057844     0.00057856     
  -12.5           -0.00052234     0.00052234     
  -12.4           -0.00046422     0.00046426     
  -12.3           -0.0004051      0.00040508     
  -12.2           -0.00034378     0.00034384     
  -12.1           -0.0002813      0.00028122     
  -12             -0.00021774     0.00021778     
  -11.9           -0.00015282     0.00015286     
  -11.8           -1.012e-007     7.308e-008     
  -11.7           -1.496e-011     1.884e-011     
  -11.6           -5.2e-013       1.14e-012      
  -11.5           1.4e-013        6.6e-013       
  -11.4           -2e-013         1.8e-013       
  -11.3           -1.8e-013       6e-014         
  -11.2           -5e-013         4.2e-013       
  -11.1           1.4e-013        8e-014         
  -11             1.2e-013        -7.8e-013      
  -10.9           -3.8e-013       -7.2e-013      
  -10.8           -5e-013         -5.6e-013      
  -10.7           -5.2e-013       8e-013         
  -10.6           1.8e-013        7.2e-013       
  -10.5           4.2e-013        2.2e-013       
  -10.4           1.6e-013        -1.4e-013      
  -10.3           -2e-013         -2.8e-013      
  -10.2           1e-013          2e-013         
  -10.1           2e-013          -3.4e-013      
  -10             -6e-014         -7.8e-013      
  -9.9            -3e-013         -1.06e-012     
  -9.8            -6.2e-013       2e-014         
  -9.7            -6e-014         5e-013         
  -9.6            3e-013          2e-013         
  -9.5            4.4e-013        -1.8e-013      
  -9.4            2e-014          -5.6e-013      
  -9.3            0               3.2e-013       
  -9.2            4e-014          -8e-014        
  -9.1            1e-013          -4.8e-013      
  -9              4e-014          -1.2e-012      
  -8.9            -4e-013         -9e-013        
  -8.8            0               -1.4e-013      
  -8.7            -1.4e-013       4.4e-013       
  -8.6            2.4e-013        -1.8e-013      
  -8.5            1.6e-013        -7e-013        
  -8.4            2e-014          -4e-013        
  -8.3            8e-014          -1e-013        
  -8.2            1.6e-013        1.6e-013       
  -8.1            1e-013          -7.2e-013      
  -8              -3.4e-013       -9.2e-013      
  -7.9            -1.8e-013       -1.1e-012      
  -7.8            -2.2e-013       -1e-013        
  -7.7            2.2e-013        -8e-014        
  -7.6            4e-014          -2e-013        
  -7.5            2e-014          -1.6e-013      
  -7.4            -2e-014         -4.4e-013      
  -7.3            4e-013          2e-014         
  -7.2            3.4e-013        -9.8e-013      
  -7.1            6e-014          -1.08e-012     
  -7              -1.6e-013       -1.28e-012     
  -6.9            -5.6e-013       -7.8e-013      
  -6.8            2.6e-013        -4.4e-013      
  -6.7            6e-014          -2.4e-013      
  -6.6            2.4e-013        -5.6e-013      
  -6.5            2e-014          -6.2e-013      
  -6.4            2.6e-013        4e-014         
  -6.3            3.2e-013        -1.12e-012     
  -6.2            2.2e-013        -8e-013        
  -6.1            0               -1.78e-012     
  -6              -5.4e-013       -8.4e-013      
  -5.9            -4e-014         -7.8e-013      
  -5.8            -4e-014         -4.8e-013      
  -5.7            3.6e-013        -1.1e-012      
  -5.6            -4e-014         -9.6e-013      
  -5.5            6e-014          -2.4e-013      
  -5.4            2.2e-013        -8.4e-013      
  -5.3            4e-013          -6.8e-013      
  -5.2            1.2e-013        -2.48e-012     
  -5.1            -2.4e-013       -1.68e-012     
  -5              -1e-013         -1.7e-012      
  -4.9            -3.8e-013       -8.2e-013      
  -4.8            4.4e-013        -1.44e-012     
  -4.7            -6e-014         -1.66e-012     
  -4.6            3.6e-013        -1.64e-012     
  -4.5            1.6e-013        -1.32e-012     
  -4.4            2e-013          -6.6e-013      
  -4.3            2.4e-013        -2.36e-012     
  -4.2            -1.2e-013       -1.96e-012     
  -4.1            0               -3.18e-012     
  -4              -3e-013         -1.98e-012     
  -3.9            2.2e-013        -2.22e-012     
  -3.8            -2.4e-013       -2.12e-012     
  -3.7            3.2e-013        -2.48e-012     
  -3.6            -6e-014         -2.2e-012      
  -3.5            2.2e-013        -1.88e-012     
  -3.4            3e-013          -3.04e-012     
  -3.3            1.8e-013        -2.82e-012     
  -3.2            1.4e-013        -4.64e-012     
  -3.1            -2e-013         -3.36e-012     
  -3              -8e-014         -3.88e-012     
  -2.9            -2.6e-013       -3.7e-012      
  -2.8            3e-013          -4.3e-012      
  -2.7            -6e-014         -4.3e-012      
  -2.6            3.2e-013        -3.96e-012     
  -2.5            2.8e-013        -4.92e-012     
  -2.4            2.8e-013        -4.78e-012     
  -2.3            2.8e-013        -6.66e-012     
  -2.2            -1.8e-013       -5.78e-012     
  -2.1            6e-014          -7.06e-012     
  -2              -4e-013         -6.12e-012     
  -1.9            2.2e-013        -7.26e-012     
  -1.8            -2.8e-013       -7.42e-012     
  -1.7            3e-013          -7.48e-012     
  -1.6            1.4e-013        -8.22e-012     
  -1.5            3.2e-013        -8.44e-012     
  -1.4            4.2e-013        -1.036e-011    
  -1.3            -1e-013         -9.46e-012     
  -1.2            -8e-014         -1.136e-011    
  -1.1            -2.8e-013       -1.066e-011    
  -1              1.2e-013        -1.216e-011    
  -0.9            -8e-014         -1.264e-011    
  -0.8            4e-013          -1.282e-011    
  -0.7            -2.6e-013       -1.342e-011    
  -0.6            2.4e-013        -1.346e-011    
  -0.5            2.2e-013        -1.556e-011    
  -0.4            1e-013          -1.574e-011    
  -0.3            3.8e-013        -1.792e-011    
  -0.2            -2.2e-013       -1.746e-011    
  -0.1            -8e-014         -1.964e-011    
  0               -1.8e-013       -1.974e-011    
END_DB

