! VERSION = 6.00
BEGIN_HEADER
 ICCAP_INPUTS
  vc         V  cathode GROUND SMU1 0.1 CON        0
  va         V  anode GROUND SMU2 0.1 LIN        1    -15        0          151  0.1       
 ICCAP_OUTPUTS
  ia         I  anode GROUND SMU2 B
  ic         I  cathode GROUND SMU1 B
 ICCAP_VALUES
  DataOrigin "Measure"
  ___CONTEXT ""
  Date "Jan 11 Tue 13:02:08 2022"
  Version "WaferPro.2016.01"
  Bench "B1500_B2200"
  Temperature "-40"
  Lot "M135205"
  Reticle "M135205"
  Wafer "01D2"
  Die "X-3-Y0"
  DieList "TargetDie"
  Block "WholeDie"
  Subsite "diod2-5V"
  Routine "DIODE_EXTR_Measure"
  MeasCond "Set1"
  Device "1"
  DeviceName "pdiode_Dp5_A032B032"
  DevTechno "DIO"
  DevPolarity "P"
  Setup "iv_rev"
  Type "-1"
  ___SPICE_INSTANCE ""
  A "3.2E-007"
  B "3.2E-007"
  ___TECHNO_INSTANCE ""
  ___CALIBRATION ""
END_HEADER

BEGIN_DB
 ICCAP_VAR vc         0              

 #va              ia              ic             
  -15             -0.00015078     0.00015736     
  -14.9           -0.00014064     0.00014132     
  -14.8           -0.00013084     0.0001321      
  -14.7           -0.000122       0.00012212     
  -14.6           -0.00011278     0.00011332     
  -14.5           -0.00010226     0.00010332     
  -14.4           -9.3352e-005    9.313e-005     
  -14.3           -8.3078e-005    8.3344e-005    
  -14.2           -7.214e-005     7.2228e-005    
  -14.1           -6.1494e-005    6.0936e-005    
  -14             -5.0252e-005    4.9936e-005    
  -13.9           -3.8592e-005    3.8246e-005    
  -13.8           -2.7144e-005    2.6998e-005    
  -13.7           -4.3772e-006    2.198e-006     
  -13.6           -2.0708e-009    1.0286e-009    
  -13.5           -2.202e-011     -6.838e-011    
  -13.4           -4.82e-012      -5.63e-011     
  -13.3           -1.82e-012      -5.238e-011    
  -13.2           -9.6e-013       -4.382e-011    
  -13.1           -1.26e-012      -4.088e-011    
  -13             -1.26e-012      -3.648e-011    
  -12.9           -2.8e-013       -3.374e-011    
  -12.8           3e-013          -3.062e-011    
  -12.7           -1.4e-013       -2.936e-011    
  -12.6           -6e-013         -2.824e-011    
  -12.5           -7.8e-013       -2.63e-011     
  -12.4           0               -2.338e-011    
  -12.3           3.4e-013        -2.242e-011    
  -12.2           -1.4e-013       -2.334e-011    
  -12.1           -5.8e-013       -2.18e-011     
  -12             -4.6e-013       -2.308e-011    
  -11.9           3.2e-013        -2.17e-011     
  -11.8           3.8e-013        -1.994e-011    
  -11.7           -8e-014         -2.016e-011    
  -11.6           -6.2e-013       -1.976e-011    
  -11.5           -1.6e-013       -1.816e-011    
  -11.4           3.6e-013        -1.776e-011    
  -11.3           1.6e-013        -1.888e-011    
  -11.2           -3e-013         -1.972e-011    
  -11.1           -7.2e-013       -1.888e-011    
  -11             4e-014          -1.754e-011    
  -10.9           5.2e-013        -1.778e-011    
  -10.8           3.6e-013        -1.852e-011    
  -10.7           -3.6e-013       -1.77e-011     
  -10.6           -4e-013         -1.64e-011     
  -10.5           1.4e-013        -1.634e-011    
  -10.4           4.2e-013        -1.696e-011    
  -10.3           6e-014          -1.794e-011    
  -10.2           -6e-013         -1.8e-011      
  -10.1           -4.6e-013       -1.794e-011    
  -10             2.4e-013        -1.586e-011    
  -9.9            6.6e-013        -2.04e-011     
  -9.8            0               -1.634e-011    
  -9.7            -4.6e-013       -1.618e-011    
  -9.6            -2.4e-013       -1.51e-011     
  -9.5            3.6e-013        -1.578e-011    
  -9.4            5.4e-013        -1.518e-011    
  -9.3            -2.6e-013       -1.89e-011     
  -9.2            -5.2e-013       -1.62e-011     
  -9.1            -1.8e-013       -1.648e-011    
  -9              6.6e-013        -1.482e-011    
  -8.9            5e-013          -1.63e-011     
  -8.8            -6e-014         -1.66e-011     
  -8.7            -5.8e-013       -1.53e-011     
  -8.6            6e-014          -1.616e-011    
  -8.5            6.4e-013        -1.48e-011     
  -8.4            4e-014          -1.672e-011    
  -8.3            -4.4e-013       -1.598e-011    
  -8.2            -5.4e-013       -1.738e-011    
  -8.1            3.8e-013        -1.688e-011    
  -8              6.6e-013        -1.75e-011     
  -7.9            1.4e-013        -1.686e-011    
  -7.8            -5.2e-013       -1.638e-011    
  -7.7            -3.6e-013       -1.676e-011    
  -7.6            3.8e-013        -1.59e-011     
  -7.5            5.2e-013        -1.812e-011    
  -7.4            4e-014          -1.638e-011    
  -7.3            -6.2e-013       -1.988e-011    
  -7.2            -8e-014         -1.774e-011    
  -7.1            3.8e-013        -1.902e-011    
  -7              5.6e-013        -1.79e-011     
  -6.9            -1.4e-013       -2.11e-011     
  -6.8            -4.8e-013       -1.922e-011    
  -6.7            -1e-013         -1.762e-011    
  -6.6            4.8e-013        -1.79e-011     
  -6.5            3.6e-013        -1.914e-011    
  -6.4            -4.2e-013       -2.014e-011    
  -6.3            -3.6e-013       -1.936e-011    
  -6.2            -2e-014         -2.086e-011    
  -6.1            6.6e-013        -1.978e-011    
  -6              2.2e-013        -2.072e-011    
  -5.9            -2.4e-013       -2.136e-011    
  -5.8            -3.8e-013       -1.998e-011    
  -5.7            2.2e-013        -2.08e-011     
  -5.6            5.6e-013        -2.148e-011    
  -5.5            6e-014          -2.136e-011    
  -5.4            -3.8e-013       -2.202e-011    
  -5.3            -4.6e-013       -2.306e-011    
  -5.2            5.6e-013        -2.086e-011    
  -5.1            5.4e-013        -2.274e-011    
  -5              1.4e-013        -2.368e-011    
  -4.9            -4.4e-013       -2.408e-011    
  -4.8            -1.6e-013       -2.338e-011    
  -4.7            5.2e-013        -2.296e-011    
  -4.6            3.6e-013        -2.532e-011    
  -4.5            -1.8e-013       -2.512e-011    
  -4.4            -6.4e-013       -2.514e-011    
  -4.3            6e-014          -2.528e-011    
  -4.2            4e-013          -2.588e-011    
  -4.1            6e-013          -2.508e-011    
  -4              -2.4e-013       -2.748e-011    
  -3.9            -3.6e-013       -2.718e-011    
  -3.8            1e-013          -2.71e-011     
  -3.7            5.8e-013        -2.628e-011    
  -3.6            3.4e-013        -2.8e-011      
  -3.5            -5.4e-013       -2.852e-011    
  -3.4            -3.6e-013       -2.878e-011    
  -3.3            1.8e-013        -2.94e-011     
  -3.2            7e-013          -2.888e-011    
  -3.1            6e-014          -3.154e-011    
  -3              -2.4e-013       -3.25e-011     
  -2.9            -1.6e-013       -3.138e-011    
  -2.8            4.2e-013        -3.06e-011     
  -2.7            4.8e-013        -3.07e-011     
  -2.6            -1.2e-013       -3.156e-011    
  -2.5            -5e-013         -3.19e-011     
  -2.4            -8e-014         -3.33e-011     
  -2.3            5e-013          -3.316e-011    
  -2.2            2.2e-013        -3.426e-011    
  -2.1            -2.4e-013       -3.35e-011     
  -2              -3.4e-013       -3.502e-011    
  -1.9            1.2e-013        -3.378e-011    
  -1.8            4.4e-013        -3.572e-011    
  -1.7            2e-013          -3.506e-011    
  -1.6            -3.4e-013       -3.588e-011    
  -1.5            -3e-013         -3.778e-011    
  -1.4            3.2e-013        -3.646e-011    
  -1.3            4.2e-013        -3.872e-011    
  -1.2            2.6e-013        -4.058e-011    
  -1.1            -2.4e-013       -3.916e-011    
  -1              -1.2e-013       -3.844e-011    
  -0.9            3.8e-013        -4.358e-011    
  -0.8            2.6e-013        -4.292e-011    
  -0.7            -6e-014         -4.126e-011    
  -0.6            -4.4e-013       -4.39e-011     
  -0.5            -8e-014         -4.266e-011    
  -0.4            4.6e-013        -4.334e-011    
  -0.3            4.2e-013        -4.64e-011     
  -0.2            -1.8e-013       -4.616e-011    
  -0.1            -2.4e-013       -4.63e-011     
  0               1.8e-013        -4.494e-011    
END_DB

