! VERSION = 6.00
BEGIN_HEADER
 ICCAP_INPUTS
  vc         V  cathode GROUND SMU1 0.1 CON        0
  va         V  anode GROUND SMU2 0.1 LIN        1    -15        0          151  0.1       
 ICCAP_OUTPUTS
  ia         I  anode GROUND SMU2 B
  ic         I  cathode GROUND SMU1 B
 ICCAP_VALUES
  DataOrigin "Measure"
  ___CONTEXT ""
  Date "Jan 11 Tue 13:10:35 2022"
  Version "WaferPro.2016.01"
  Bench "B1500_B2200"
  Temperature "-40"
  Lot "M135205"
  Reticle "M135205"
  Wafer "01D2"
  Die "X-3-Y0"
  DieList "TargetDie"
  Block "WholeDie"
  Subsite "diod2-5V"
  Routine "DIODE_EXTR_Measure"
  MeasCond "Set1"
  Device "8"
  DeviceName "pdiode_Dp5_A064B640"
  DevTechno "DIO"
  DevPolarity "P"
  Setup "iv_rev"
  Type "-1"
  ___SPICE_INSTANCE ""
  A "6.4E-007"
  B "6.4E-005"
  ___TECHNO_INSTANCE ""
  ___CALIBRATION ""
END_HEADER

BEGIN_DB
 ICCAP_VAR vc         0              

 #va              ia              ic             
  -15             -0.02124        0.02192        
  -14.9           -0.020536       0.020666       
  -14.8           -0.020026       0.020094       
  -14.7           -0.019558       0.019602       
  -14.6           -0.019104       0.01914        
  -14.5           -0.01865        0.018676       
  -14.4           -0.018184       0.018208       
  -14.3           -0.017708       0.017728       
  -14.2           -0.01722        0.017236       
  -14.1           -0.016708       0.016724       
  -14             -0.016176       0.01619        
  -13.9           -0.015622       0.015638       
  -13.8           -0.01504        0.015052       
  -13.7           -0.014438       0.014452       
  -13.6           -0.013806       0.013816       
  -13.5           -0.01315        0.013162       
  -13.4           -0.012462       0.01247        
  -13.3           -0.011754       0.011762       
  -13.2           -0.011006       0.011018       
  -13.1           -0.010234       0.010242       
  -13             -0.0094438      0.009446       
  -12.9           -0.0086116      0.0086132      
  -12.8           -0.0077594      0.0077582      
  -12.7           -0.00687        0.0068696      
  -12.6           -0.0059586      0.0059568      
  -12.5           -0.0050152      0.0050132      
  -12.4           -0.0040424      0.0040396      
  -12.3           -0.003052       0.0030488      
  -12.2           -0.0020276      0.0020224      
  -12.1           -0.0009511      0.00094182     
  -12             -7.6222e-010    1.209e-009     
  -11.9           -2.0412e-010    1.442e-010     
  -11.8           -1.0214e-010    6.902e-011     
  -11.7           -5.868e-011     3.758e-011     
  -11.6           -3.91e-011      2.226e-011     
  -11.5           -2.322e-011     1.486e-011     
  -11.4           -1.724e-011     1.13e-011      
  -11.3           -1.276e-011     7.64e-012      
  -11.2           -1.01e-011      6.58e-012      
  -11.1           -7.14e-012      5.78e-012      
  -11             -7.8e-012       4.28e-012      
  -10.9           -6.14e-012      3.94e-012      
  -10.8           -4.22e-012      4.1e-012       
  -10.7           -4.62e-012      2.74e-012      
  -10.6           -4.64e-012      2.4e-012       
  -10.5           -3.22e-012      2.88e-012      
  -10.4           -3.06e-012      2.56e-012      
  -10.3           -3.44e-012      2.6e-012       
  -10.2           -3.02e-012      8.6e-013       
  -10.1           -2.5e-012       2.1e-012       
  -10             -1.62e-012      1.6e-012       
  -9.9            -2.78e-012      7e-013         
  -9.8            -2.46e-012      1.92e-012      
  -9.7            -8.6e-013       1.28e-012      
  -9.6            -3.78e-012      9.8e-013       
  -9.5            -2.06e-012      3.2e-013       
  -9.4            -1.62e-012      1.52e-012      
  -9.3            -1.14e-012      5.6e-013       
  -9.2            -2.1e-012       1.1e-012       
  -9.1            -1.44e-012      -3e-013        
  -9              -9e-013         1.64e-012      
  -8.9            -1.02e-012      4.8e-013       
  -8.8            -1.6e-012       -7e-013        
  -8.7            -1.38e-012      1.66e-012      
  -8.6            -2e-014         5e-013         
  -8.5            -1.7e-012       2.4e-013       
  -8.4            2.4e-013        1.2e-013       
  -8.3            -8.4e-013       1.06e-012      
  -8.2            1.2e-012        0              
  -8.1            -1.18e-012      2.6e-013       
  -8              4e-014          2.2e-013       
  -7.9            -5.8e-013       1.26e-012      
  -7.8            -7.2e-013       2e-014         
  -7.7            -6e-013         -4.8e-013      
  -7.6            -1.2e-013       1.48e-012      
  -7.5            -9.8e-013       -3.4e-013      
  -7.4            -1.16e-012      -2.6e-013      
  -7.3            5.6e-013        4.6e-013       
  -7.2            -2e-014         5e-013         
  -7.1            -9.8e-013       -4.4e-013      
  -7              -2.4e-013       -3.2e-013      
  -6.9            3.2e-013        1.2e-013       
  -6.8            -1.8e-013       3e-013         
  -6.7            -9e-013         -2.4e-013      
  -6.6            -8e-014         -7.8e-013      
  -6.5            2.8e-013        8.2e-013       
  -6.4            -6.2e-013       -1e-012        
  -6.3            -5.8e-013       -5.6e-013      
  -6.2            5.8e-013        5.2e-013       
  -6.1            0               -5.2e-013      
  -6              -1.02e-012      -6.6e-013      
  -5.9            4e-014          -9.2e-013      
  -5.8            1.6e-013        -1.2e-013      
  -5.7            -5.2e-013       -3.2e-013      
  -5.6            -5.6e-013       -1.14e-012     
  -5.5            1e-013          -3.2e-013      
  -5.4            6.4e-013        -2.4e-013      
  -5.3            -8e-013         -1.58e-012     
  -5.2            -2.2e-013       -9.2e-013      
  -5.1            7.8e-013        3.8e-013       
  -5              4e-013          -1.4e-012      
  -4.9            -9e-013         -1.12e-012     
  -4.8            4.4e-013        -8.6e-013      
  -4.7            4.2e-013        -1.1e-012      
  -4.6            -9.8e-013       -6.4e-013      
  -4.5            4e-014          -1.94e-012     
  -4.4            3e-013          -5.4e-013      
  -4.3            9.8e-013        -1.48e-012     
  -4.2            -7.4e-013       -2.06e-012     
  -4.1            7.6e-013        -1.3e-012      
  -4              6e-014          -8.8e-013      
  -3.9            -6e-013         -3.06e-012     
  -3.8            -6e-014         -1.6e-012      
  -3.7            9.4e-013        -1.48e-012     
  -3.6            1e-013          -3.28e-012     
  -3.5            -4.4e-013       -1.72e-012     
  -3.4            1.04e-012       -2.7e-012      
  -3.3            2e-013          -2.24e-012     
  -3.2            3.6e-013        -3.38e-012     
  -3.1            2e-013          -2.96e-012     
  -3              9.8e-013        -3.2e-012      
  -2.9            3.2e-013        -3.24e-012     
  -2.8            -1.8e-013       -4.28e-012     
  -2.7            7e-013          -3.42e-012     
  -2.6            4.2e-013        -4.2e-012      
  -2.5            4e-014          -5.1e-012      
  -2.4            4.4e-013        -3.64e-012     
  -2.3            9.8e-013        -5.36e-012     
  -2.2            -4.4e-013       -5.46e-012     
  -2.1            8.8e-013        -5.22e-012     
  -2              9e-013          -5.42e-012     
  -1.9            3.4e-013        -6.44e-012     
  -1.8            2.8e-013        -6.26e-012     
  -1.7            5.4e-013        -6.48e-012     
  -1.6            7.4e-013        -7.12e-012     
  -1.5            4e-013          -7.26e-012     
  -1.4            6.8e-013        -8.12e-012     
  -1.3            4.4e-013        -7.02e-012     
  -1.2            5.6e-013        -9.12e-012     
  -1.1            2.2e-013        -9.4e-012      
  -1              1.14e-012       -8.14e-012     
  -0.9            6.8e-013        -9.38e-012     
  -0.8            2e-013          -1.034e-011    
  -0.7            8.8e-013        -1.064e-011    
  -0.6            9.6e-013        -1.06e-011     
  -0.5            2.8e-013        -1.106e-011    
  -0.4            4.8e-013        -1.168e-011    
  -0.3            1e-012          -1.212e-011    
  -0.2            8.6e-013        -1.188e-011    
  -0.1            4.4e-013        -1.32e-011     
  0               5.2e-013        -1.306e-011    
END_DB

