! VERSION = 6.00
BEGIN_HEADER
 ICCAP_INPUTS
  vc         V  cathode GROUND SMU1 0.1 CON        0
  va         V  anode GROUND SMU2 0.1 LIN        1    -15        0          151  0.1       
 ICCAP_OUTPUTS
  ia         I  anode GROUND SMU2 B
  ic         I  cathode GROUND SMU1 B
 ICCAP_VALUES
  DataOrigin "Measure"
  ___CONTEXT ""
  Date "Jan 11 Tue 13:06:57 2022"
  Version "WaferPro.2016.01"
  Bench "B1500_B2200"
  Temperature "-40"
  Lot "M135205"
  Reticle "M135205"
  Wafer "01D2"
  Die "X-3-Y0"
  DieList "TargetDie"
  Block "WholeDie"
  Subsite "diod2-5V"
  Routine "DIODE_EXTR_Measure"
  MeasCond "Set1"
  Device "5"
  DeviceName "pdiode_Dp5_A32B320"
  DevTechno "DIO"
  DevPolarity "P"
  Setup "iv_rev"
  Type "-1"
  ___SPICE_INSTANCE ""
  A "3.2E-006"
  B "3.2E-005"
  ___TECHNO_INSTANCE ""
  ___CALIBRATION ""
END_HEADER

BEGIN_DB
 ICCAP_VAR vc         0              

 #va              ia              ic             
  -15             -0.011328       0.011662       
  -14.9           -0.011002       0.011064       
  -14.8           -0.010774       0.010806       
  -14.7           -0.01057        0.010594       
  -14.6           -0.010378       0.010396       
  -14.5           -0.010184       0.0102         
  -14.4           -0.009996       0.010002       
  -14.3           -0.0097932      0.0097976      
  -14.2           -0.009591       0.0095936      
  -14.1           -0.009378       0.0093806      
  -14             -0.0091552      0.0091574      
  -13.9           -0.0089254      0.0089264      
  -13.8           -0.0086818      0.008683       
  -13.7           -0.0084282      0.008429       
  -13.6           -0.0081602      0.008161       
  -13.5           -0.0078804      0.0078812      
  -13.4           -0.0075852      0.0075858      
  -13.3           -0.0072774      0.0072778      
  -13.2           -0.0069524      0.006953       
  -13.1           -0.0066132      0.0066136      
  -13             -0.0062604      0.0062606      
  -12.9           -0.0058884      0.0058886      
  -12.8           -0.0055032      0.0055032      
  -12.7           -0.0050974      0.0050974      
  -12.6           -0.0046784      0.0046782      
  -12.5           -0.0042416      0.0042422      
  -12.4           -0.0037888      0.0037894      
  -12.3           -0.0033258      0.0033262      
  -12.2           -0.0028454      0.0028458      
  -12.1           -0.0023528      0.0023534      
  -12             -0.001855       0.0018558      
  -11.9           -0.001345       0.0013456      
  -11.8           -0.00083056     0.00083016     
  -11.7           -0.00019974     0.00029282     
  -11.6           -1.624e-011     1.524e-011     
  -11.5           -5.32e-012      4.4e-012       
  -11.4           -4.92e-012      1.76e-012      
  -11.3           -3.3e-012       1.48e-012      
  -11.2           -2.72e-012      6.8e-013       
  -11.1           -2.42e-012      6.8e-013       
  -11             -2.32e-012      -1.14e-012     
  -10.9           -2.86e-012      -4e-014        
  -10.8           -1.56e-012      -5.2e-013      
  -10.7           -1.42e-012      3.8e-013       
  -10.6           -6e-014         -3.6e-013      
  -10.5           -1.28e-012      -1e-012        
  -10.4           -7.4e-013       -9.8e-013      
  -10.3           -8e-013         -1.34e-012     
  -10.2           -3.2e-013       -1.38e-012     
  -10.1           -5.4e-013       -2.3e-012      
  -10             -1.34e-012      -1.4e-012      
  -9.9            -6.8e-013       -2.18e-012     
  -9.8            -9.8e-013       -8.2e-013      
  -9.7            1e-013          -9.4e-013      
  -9.6            -6.8e-013       -1.52e-012     
  -9.5            8e-014          -1.78e-012     
  -9.4            -6.4e-013       -1.5e-012      
  -9.3            1.6e-013        -1.22e-012     
  -9.2            -3.4e-013       -2.38e-012     
  -9.1            -8.8e-013       -2.02e-012     
  -9              -6e-013         -2.74e-012     
  -8.9            -9.2e-013       -1.32e-012     
  -8.8            2e-013          -1.9e-012      
  -8.7            -6.4e-013       -1.48e-012     
  -8.6            3.2e-013        -2.12e-012     
  -8.5            -7.4e-013       -2.04e-012     
  -8.4            4.2e-013        -1.66e-012     
  -8.3            1.8e-013        -2.42e-012     
  -8.2            -2.2e-013       -2.32e-012     
  -8.1            -4.8e-013       -3.58e-012     
  -8              -1.2e-012       -2.04e-012     
  -7.9            -2e-014         -2.58e-012     
  -7.8            -2.6e-013       -1.68e-012     
  -7.7            3.4e-013        -2.3e-012      
  -7.6            -5.2e-013       -2.08e-012     
  -7.5            3e-013          -1.42e-012     
  -7.4            -4e-014         -2.56e-012     
  -7.3            4.2e-013        -2.84e-012     
  -7.2            -2.8e-013       -3.76e-012     
  -7.1            -1.06e-012      -2.36e-012     
  -7              -3e-013         -2.88e-012     
  -6.9            -3.4e-013       -2.3e-012      
  -6.8            6.2e-013        -3.56e-012     
  -6.7            -3.2e-013       -2.8e-012      
  -6.6            2.4e-013        -2.56e-012     
  -6.5            -3e-013         -2.44e-012     
  -6.4            5.8e-013        -2.84e-012     
  -6.3            1.4e-013        -3.98e-012     
  -6.2            -4.8e-013       -3.74e-012     
  -6.1            -1e-013         -4.42e-012     
  -6              -7.4e-013       -2.76e-012     
  -5.9            3.2e-013        -3.92e-012     
  -5.8            -2e-013         -3.54e-012     
  -5.7            4e-014          -3.8e-012      
  -5.6            -8e-014         -3.9e-012      
  -5.5            3.4e-013        -3.22e-012     
  -5.4            4e-014          -4.6e-012      
  -5.3            -8e-014         -4.44e-012     
  -5.2            -1.6e-013       -5.3e-012      
  -5.1            -6.2e-013       -4.62e-012     
  -5              4e-014          -4.6e-012      
  -4.9            -4.8e-013       -4.56e-012     
  -4.8            -8e-014         -4.82e-012     
  -4.7            -3.6e-013       -4.72e-012     
  -4.6            1.6e-013        -3.86e-012     
  -4.5            3e-013          -5.24e-012     
  -4.4            8e-014          -5.6e-012      
  -4.3            -1.4e-013       -6.58e-012     
  -4.2            -6.8e-013       -6.28e-012     
  -4.1            4e-014          -5.92e-012     
  -4              -4.2e-013       -8.76e-012     
  -3.9            -4e-014         -6.8e-012      
  -3.8            -2.6e-013       -6.94e-012     
  -3.7            -1e-013         -6.1e-012      
  -3.6            4e-013          -6.8e-012      
  -3.5            3.2e-013        -6.96e-012     
  -3.4            -2.6e-013       -8.42e-012     
  -3.3            -5.8e-013       -8.38e-012     
  -3.2            -4.8e-013       -8.22e-012     
  -3.1            -3.2e-013       -8.32e-012     
  -3              -2e-014         -8.74e-012     
  -2.9            -2.6e-013       -9.7e-012      
  -2.8            -3.4e-013       -8.98e-012     
  -2.7            -4e-014         -1.048e-011    
  -2.6            2.2e-013        -1e-011        
  -2.5            3.4e-013        -1.142e-011    
  -2.4            -2.2e-013       -1.212e-011    
  -2.3            -4.4e-013       -1.166e-011    
  -2.2            -5.8e-013       -1.222e-011    
  -2.1            -6e-014         -1.27e-011     
  -2              -2e-013         -1.396e-011    
  -1.9            -2.6e-013       -1.456e-011    
  -1.8            -1.2e-013       -1.432e-011    
  -1.7            -3.6e-013       -1.512e-011    
  -1.6            2.6e-013        -1.56e-011     
  -1.5            -3e-013         -1.736e-011    
  -1.4            -1.4e-013       -1.81e-011     
  -1.3            -3.4e-013       -1.852e-011    
  -1.2            -3.4e-013       -1.878e-011    
  -1.1            -2e-013         -2.074e-011    
  -1              -3.8e-013       -2.018e-011    
  -0.9            -1.6e-013       -2.17e-011     
  -0.8            -4.6e-013       -2.14e-011     
  -0.7            1.6e-013        -2.306e-011    
  -0.6            -3.2e-013       -2.402e-011    
  -0.5            2e-014          -2.614e-011    
  -0.4            -2.8e-013       -2.696e-011    
  -0.3            -5.4e-013       -2.664e-011    
  -0.2            -5.6e-013       -2.84e-011     
  -0.1            -5.2e-013       -2.886e-011    
  0               -4e-013         -3.062e-011    
END_DB

