! VERSION = 6.00
BEGIN_HEADER
 ICCAP_INPUTS
  vc         V  cathode GROUND SMU1 0.1 CON        0
  va         V  anode GROUND SMU2 0.1 LIN        1    -15        0          151  0.1       
 ICCAP_OUTPUTS
  ia         I  anode GROUND SMU2 B
  ic         I  cathode GROUND SMU1 B
 ICCAP_VALUES
  DataOrigin "Measure"
  ___CONTEXT ""
  Date "Jan 11 Tue 13:04:33 2022"
  Version "WaferPro.2016.01"
  Bench "B1500_B2200"
  Temperature "-40"
  Lot "M135205"
  Reticle "M135205"
  Wafer "01D2"
  Die "X-3-Y0"
  DieList "TargetDie"
  Block "WholeDie"
  Subsite "diod2-5V"
  Routine "DIODE_EXTR_Measure"
  MeasCond "Set1"
  Device "3"
  DeviceName "pdiode_Dp5_A032B320"
  DevTechno "DIO"
  DevPolarity "P"
  Setup "iv_rev"
  Type "-1"
  ___SPICE_INSTANCE ""
  A "3.2E-007"
  B "3.2E-005"
  ___TECHNO_INSTANCE ""
  ___CALIBRATION ""
END_HEADER

BEGIN_DB
 ICCAP_VAR vc         0              

 #va              ia              ic             
  -15             -0.010238       0.010726       
  -14.9           -0.009699       0.0097922      
  -14.8           -0.0093486      0.0093856      
  -14.7           -0.0090126      0.0090388      
  -14.6           -0.0086876      0.0087076      
  -14.5           -0.0083582      0.0083716      
  -14.4           -0.0080192      0.0080338      
  -14.3           -0.0076714      0.0076796      
  -14.2           -0.0073198      0.0073246      
  -14.1           -0.0069482      0.006957       
  -14             -0.0065694      0.0065738      
  -13.9           -0.0061756      0.0061796      
  -13.8           -0.0057644      0.0057686      
  -13.7           -0.0053426      0.0053448      
  -13.6           -0.0049034      0.0049098      
  -13.5           -0.0044584      0.004459       
  -13.4           -0.0039914      0.0039932      
  -13.3           -0.003514       0.003516       
  -13.2           -0.0030266      0.0030244      
  -13.1           -0.0025234      0.0025192      
  -13             -0.0020122      0.0020076      
  -12.9           -0.0014834      0.0014786      
  -12.8           -0.00094918     0.00094512     
  -12.7           -0.00038448     0.0003703      
  -12.6           -7.922e-010     5.0792e-010    
  -12.5           -1.2546e-010    -4.49e-011     
  -12.4           -6.12e-011      -6.094e-011    
  -12.3           -4.016e-011     -6.786e-011    
  -12.2           -3.006e-011     -6.44e-011     
  -12.1           -2.26e-011      -6.304e-011    
  -12             -1.672e-011     -5.876e-011    
  -11.9           -1.392e-011     -6.228e-011    
  -11.8           -1.28e-011      -5.622e-011    
  -11.7           -1.174e-011     -5.556e-011    
  -11.6           -9.42e-012      -5.386e-011    
  -11.5           -6.78e-012      -4.856e-011    
  -11.4           -5.86e-012      -5.13e-011     
  -11.3           -7.48e-012      -4.874e-011    
  -11.2           -7e-012         -4.792e-011    
  -11.1           -5.36e-012      -4.652e-011    
  -11             -3.6e-012       -4.64e-011     
  -10.9           -3.98e-012      -4.45e-011     
  -10.8           -5.1e-012       -4.648e-011    
  -10.7           -4.4e-012       -4.372e-011    
  -10.6           -2.68e-012      -4.312e-011    
  -10.5           -1.52e-012      -4.376e-011    
  -10.4           -3.08e-012      -4.404e-011    
  -10.3           -3.94e-012      -4.342e-011    
  -10.2           -3.58e-012      -4.486e-011    
  -10.1           -1.76e-012      -4.272e-011    
  -10             -1.06e-012      -4.312e-011    
  -9.9            -2.62e-012      -4.502e-011    
  -9.8            -3.08e-012      -4.376e-011    
  -9.7            -2.1e-012       -4.274e-011    
  -9.6            -3.6e-013       -4.336e-011    
  -9.5            -7e-013         -4.418e-011    
  -9.4            -2.08e-012      -4.466e-011    
  -9.3            -2.88e-012      -4.414e-011    
  -9.2            -1.54e-012      -4.362e-011    
  -9.1            -1.8e-013       -4.486e-011    
  -9              -8.4e-013       -4.37e-011     
  -8.9            -1.82e-012      -4.46e-011     
  -8.8            -1.98e-012      -4.42e-011     
  -8.7            -2.6e-013       -4.352e-011    
  -8.6            1e-013          -4.362e-011    
  -8.5            -7.6e-013       -4.644e-011    
  -8.4            -2.38e-012      -4.788e-011    
  -8.3            -1.52e-012      -4.784e-011    
  -8.2            -1.8e-013       -4.708e-011    
  -8.1            2e-014          -4.53e-011     
  -8              -1e-012         -4.64e-011     
  -7.9            -2.08e-012      -4.582e-011    
  -7.8            -6e-013         -4.73e-011     
  -7.7            3.6e-013        -4.484e-011    
  -7.6            2.6e-013        -4.678e-011    
  -7.5            -1.5e-012       -4.838e-011    
  -7.4            -1.76e-012      -4.612e-011    
  -7.3            -6.6e-013       -4.798e-011    
  -7.2            3e-013          -4.57e-011     
  -7.1            -2.6e-013       -4.516e-011    
  -7              -1.98e-012      -4.45e-011     
  -6.9            -1.1e-012       -4.746e-011    
  -6.8            -6e-014         -4.626e-011    
  -6.7            1.16e-012       -4.588e-011    
  -6.6            -4.2e-013       -4.646e-011    
  -6.5            -1.48e-012      -4.69e-011     
  -6.4            -1.46e-012      -4.718e-011    
  -6.3            3e-013          -4.666e-011    
  -6.2            3.4e-013        -4.708e-011    
  -6.1            -1e-012         -4.57e-011     
  -6              -1.4e-012       -4.798e-011    
  -5.9            -7.4e-013       -4.722e-011    
  -5.8            1.14e-012       -4.658e-011    
  -5.7            3.2e-013        -5.002e-011    
  -5.6            -9.2e-013       -4.852e-011    
  -5.5            -1.84e-012      -5.08e-011     
  -5.4            -3e-013         -4.878e-011    
  -5.3            4.6e-013        -4.888e-011    
  -5.2            -1.8e-013       -4.892e-011    
  -5.1            -1.3e-012       -5.016e-011    
  -5              -1.32e-012      -5.078e-011    
  -4.9            6.4e-013        -4.95e-011     
  -4.8            7.4e-013        -4.864e-011    
  -4.7            -1.4e-013       -5.012e-011    
  -4.6            -1.74e-012      -5.178e-011    
  -4.5            -8.8e-013       -5.22e-011     
  -4.4            1.6e-013        -5.048e-011    
  -4.3            4.8e-013        -4.95e-011     
  -4.2            -9e-013         -5.268e-011    
  -4.1            -1.48e-012      -5.098e-011    
  -4              -1.6e-013       -5.124e-011    
  -3.9            6.8e-013        -5.026e-011    
  -3.8            7.4e-013        -5.222e-011    
  -3.7            -1.18e-012      -5.448e-011    
  -3.6            -1.06e-012      -5.312e-011    
  -3.5            -2.4e-013       -5.388e-011    
  -3.4            6.6e-013        -5.448e-011    
  -3.3            -2.4e-013       -5.3e-011      
  -3.2            -1.32e-012      -5.344e-011    
  -3.1            -1.04e-012      -5.506e-011    
  -3              3.2e-013        -5.256e-011    
  -2.9            1.1e-012        -5.512e-011    
  -2.8            -3e-013         -5.358e-011    
  -2.7            -1.2e-012       -5.424e-011    
  -2.6            -7.6e-013       -5.524e-011    
  -2.5            5.4e-013        -5.452e-011    
  -2.4            3.4e-013        -5.568e-011    
  -2.3            -8.8e-013       -5.472e-011    
  -2.2            -1.48e-012      -5.676e-011    
  -2.1            -3e-013         -5.396e-011    
  -2              1.12e-012       -5.528e-011    
  -1.9            3.2e-013        -5.542e-011    
  -1.8            -5.4e-013       -5.558e-011    
  -1.7            -1.34e-012      -5.418e-011    
  -1.6            -8e-014         -5.63e-011     
  -1.5            7.4e-013        -6.14e-011     
  -1.4            -1.4e-013       -5.636e-011    
  -1.3            -1.24e-012      -5.728e-011    
  -1.2            -9.2e-013       -5.866e-011    
  -1.1            5.2e-013        -5.81e-011     
  -1              8.2e-013        -5.448e-011    
  -0.9            -4e-014         -5.744e-011    
  -0.8            -1.24e-012      -6.056e-011    
  -0.7            -4.8e-013       -5.752e-011    
  -0.6            6e-013          -5.758e-011    
  -0.5            2.8e-013        -5.784e-011    
  -0.4            -7e-013         -5.918e-011    
  -0.3            -1.38e-012      -5.726e-011    
  -0.2            -1.8e-013       -5.754e-011    
  -0.1            9e-013          -5.656e-011    
  0               5.2e-013        -5.668e-011    
END_DB

