! VERSION = 6.00
BEGIN_HEADER
 ICCAP_INPUTS
  vc         V  cathode GROUND SMU1 0.1 CON        0
  va         V  anode GROUND SMU2 0.1 LIN        1    -15        0          151  0.1       
 ICCAP_OUTPUTS
  ia         I  anode GROUND SMU2 B
  ic         I  cathode GROUND SMU1 B
 ICCAP_VALUES
  DataOrigin "Measure"
  ___CONTEXT ""
  Date "Jan 11 Tue 13:09:22 2022"
  Version "WaferPro.2016.01"
  Bench "B1500_B2200"
  Temperature "-40"
  Lot "M135205"
  Reticle "M135205"
  Wafer "01D2"
  Die "X-3-Y0"
  DieList "TargetDie"
  Block "WholeDie"
  Subsite "diod2-5V"
  Routine "DIODE_EXTR_Measure"
  MeasCond "Set1"
  Device "7"
  DeviceName "pdiode_Dp5_A032B640"
  DevTechno "DIO"
  DevPolarity "P"
  Setup "iv_rev"
  Type "-1"
  ___SPICE_INSTANCE ""
  A "3.2E-007"
  B "6.4E-005"
  ___TECHNO_INSTANCE ""
  ___CALIBRATION ""
END_HEADER

BEGIN_DB
 ICCAP_VAR vc         0              

 #va              ia              ic             
  -15             -0.019254       0.02019        
  -14.9           -0.01828        0.01846        
  -14.8           -0.017566       0.017662       
  -14.7           -0.016902       0.016968       
  -14.6           -0.016266       0.016312       
  -14.5           -0.015618       0.015658       
  -14.4           -0.014966       0.015          
  -14.3           -0.014294       0.014322       
  -14.2           -0.013614       0.013634       
  -14.1           -0.012904       0.012926       
  -14             -0.01217        0.01219        
  -13.9           -0.01142        0.011434       
  -13.8           -0.01064        0.01065        
  -13.7           -0.0098452      0.0098474      
  -13.6           -0.0090164      0.0090198      
  -13.5           -0.0081664      0.0081714      
  -13.4           -0.0072862      0.0072894      
  -13.3           -0.0063912      0.006392       
  -13.2           -0.0054676      0.0054616      
  -13.1           -0.0045186      0.004516       
  -13             -0.0035604      0.0035516      
  -12.9           -0.0025672      0.0025632      
  -12.8           -0.0015688      0.0015508      
  -12.7           -0.00049244     0.000454       
  -12.6           -1.0714e-009    1.3796e-009    
  -12.5           -3.4878e-010    2.9382e-010    
  -12.4           -1.9966e-010    1.4778e-010    
  -12.3           -1.3146e-010    9.372e-011     
  -12.2           -8.492e-011     6.304e-011     
  -12.1           -6.422e-011     4.426e-011     
  -12             -4.77e-011      3.39e-011      
  -11.9           -3.86e-011      2.61e-011      
  -11.8           -3.102e-011     2.166e-011     
  -11.7           -2.572e-011     1.65e-011      
  -11.6           -2.07e-011      1.366e-011     
  -11.5           -1.712e-011     1.092e-011     
  -11.4           -1.578e-011     1.086e-011     
  -11.3           -1.29e-011      8.78e-012      
  -11.2           -1.134e-011     8.26e-012      
  -11.1           -8.6e-012       6.62e-012      
  -11             -8.14e-012      5.74e-012      
  -10.9           -7.5e-012       5.48e-012      
  -10.8           -6.82e-012      3.28e-012      
  -10.7           -5.56e-012      3.48e-012      
  -10.6           -5e-012         2.16e-012      
  -10.5           -5.46e-012      2.88e-012      
  -10.4           -4.66e-012      2.14e-012      
  -10.3           -4.44e-012      2.1e-012       
  -10.2           -2.44e-012      1.24e-012      
  -10.1           -2.76e-012      1.02e-012      
  -10             -2.86e-012      1.38e-012      
  -9.9            -3.2e-012       -4e-014        
  -9.8            -2.3e-012       -1.8e-013      
  -9.7            -1.72e-012      -1.58e-012     
  -9.6            -2.26e-012      -4.2e-013      
  -9.5            -2.5e-012       -3.8e-013      
  -9.4            -2.96e-012      -1.4e-013      
  -9.3            -9.8e-013       -1.42e-012     
  -9.2            -9.2e-013       -1.46e-012     
  -9.1            -6e-013         -1.28e-012     
  -9              -1.54e-012      -1.36e-012     
  -8.9            -1.56e-012      -1.54e-012     
  -8.8            -7.6e-013       -3.52e-012     
  -8.7            -6.4e-013       -2.86e-012     
  -8.6            -9e-013         -3.12e-012     
  -8.5            -1.92e-012      -2.04e-012     
  -8.4            -1.02e-012      -2.88e-012     
  -8.3            -3.8e-013       -3.24e-012     
  -8.2            3.2e-013        -2.96e-012     
  -8.1            -6.4e-013       -3.08e-012     
  -8              -1.06e-012      -2.36e-012     
  -7.9            -6.2e-013       -4.2e-012      
  -7.8            -2e-013         -4.18e-012     
  -7.7            -1.6e-013       -4.46e-012     
  -7.6            -1.1e-012       -3.86e-012     
  -7.5            -8.8e-013       -3.64e-012     
  -7.4            -5.8e-013       -4.34e-012     
  -7.3            4.2e-013        -4.02e-012     
  -7.2            8e-014          -3.84e-012     
  -7.1            -5e-013         -3.68e-012     
  -7              -3.2e-013       -4.64e-012     
  -6.9            -2.6e-013       -4.74e-012     
  -6.8            2.6e-013        -5.18e-012     
  -6.7            -3.6e-013       -4.72e-012     
  -6.6            -6.6e-013       -4.54e-012     
  -6.5            -2.8e-013       -5.12e-012     
  -6.4            3e-013          -4.9e-012      
  -6.3            6.2e-013        -4.7e-012      
  -6.2            -3e-013         -4.12e-012     
  -6.1            2e-014          -4.88e-012     
  -6              -1e-013         -5.16e-012     
  -5.9            5.2e-013        -6.14e-012     
  -5.8            1.6e-013        -5.56e-012     
  -5.7            -7e-013         -5.28e-012     
  -5.6            -5.4e-013       -5.66e-012     
  -5.5            1.2e-013        -5.36e-012     
  -5.4            5.8e-013        -6e-012        
  -5.3            2.8e-013        -4.92e-012     
  -5.2            -1.2e-013       -5.1e-012      
  -5.1            -4e-013         -5.58e-012     
  -5              6.4e-013        -6e-012        
  -4.9            2e-013          -6.48e-012     
  -4.8            1.4e-013        -6.32e-012     
  -4.7            -6.2e-013       -6.42e-012     
  -4.6            -3.2e-013       -6.24e-012     
  -4.5            4.6e-013        -6.9e-012      
  -4.4            4.4e-013        -5.64e-012     
  -4.3            1.4e-013        -6.14e-012     
  -4.2            -4e-013         -5.92e-012     
  -4.1            4.4e-013        -6.88e-012     
  -4              3.6e-013        -7.62e-012     
  -3.9            6.2e-013        -7.66e-012     
  -3.8            -4.2e-013       -7.38e-012     
  -3.7            -6.4e-013       -7.22e-012     
  -3.6            0               -7.92e-012     
  -3.5            2.4e-013        -7.14e-012     
  -3.4            4.6e-013        -7.58e-012     
  -3.3            -1.8e-013       -6.92e-012     
  -3.2            -4e-014         -8.02e-012     
  -3.1            1.6e-013        -8.66e-012     
  -3              7.8e-013        -9.38e-012     
  -2.9            -2.4e-013       -9.44e-012     
  -2.8            -2.8e-013       -9.1e-012      
  -2.7            -4.2e-013       -9.8e-012      
  -2.6            6e-014          -9.46e-012     
  -2.5            3.8e-013        -1.028e-011    
  -2.4            -4e-014         -9.16e-012     
  -2.3            2.2e-013        -1.05e-011     
  -2.2            -2e-014         -1.062e-011    
  -2.1            8.2e-013        -1.184e-011    
  -2              -2e-014         -1.204e-011    
  -1.9            -1e-013         -1.19e-011     
  -1.8            -4.2e-013       -1.268e-011    
  -1.7            -2e-014         -1.268e-011    
  -1.6            5.6e-013        -1.378e-011    
  -1.5            0               -1.252e-011    
  -1.4            1.8e-013        -1.418e-011    
  -1.3            0               -1.41e-011     
  -1.2            5.6e-013        -1.54e-011     
  -1.1            3.2e-013        -1.586e-011    
  -1              2.4e-013        -1.556e-011    
  -0.9            -4.2e-013       -1.694e-011    
  -0.8            -8e-014         -1.726e-011    
  -0.7            3e-013          -1.832e-011    
  -0.6            1.2e-013        -1.748e-011    
  -0.5            2.4e-013        -1.834e-011    
  -0.4            -3.6e-013       -1.81e-011     
  -0.3            5.2e-013        -2.008e-011    
  -0.2            3.8e-013        -2.048e-011    
  -0.1            5.6e-013        -2.048e-011    
  0               -4.2e-013       -2.11e-011     
END_DB

