! VERSION = 6.00
BEGIN_HEADER
 ICCAP_INPUTS
  vc         V  cathode GROUND SMU1 0.1 CON        0
  va         V  anode GROUND SMU2 0.1 LIN        1    -15        0          151  0.1       
 ICCAP_OUTPUTS
  ia         I  anode GROUND SMU2 B
  ic         I  cathode GROUND SMU1 B
 ICCAP_VALUES
  DataOrigin "Measure"
  ___CONTEXT ""
  Date "Jan 11 Tue 13:08:11 2022"
  Version "WaferPro.2016.01"
  Bench "B1500_B2200"
  Temperature "-40"
  Lot "M135205"
  Reticle "M135205"
  Wafer "01D2"
  Die "X-3-Y0"
  DieList "TargetDie"
  Block "WholeDie"
  Subsite "diod2-5V"
  Routine "DIODE_EXTR_Measure"
  MeasCond "Set1"
  Device "6"
  DeviceName "pdiode_Dp5_A320B320"
  DevTechno "DIO"
  DevPolarity "P"
  Setup "iv_rev"
  Type "-1"
  ___SPICE_INSTANCE ""
  A "3.2E-005"
  B "3.2E-005"
  ___TECHNO_INSTANCE ""
  ___CALIBRATION ""
END_HEADER

BEGIN_DB
 ICCAP_VAR vc         0              

 #va              ia              ic             
  -15             -0.01075        0.011086       
  -14.9           -0.010414       0.010486       
  -14.8           -0.010227       0.010218       
  -14.7           -0.0100124      0.0100264      
  -14.6           -0.0098188      0.009833       
  -14.5           -0.009626       0.0096344      
  -14.4           -0.0094292      0.0094376      
  -14.3           -0.0092296      0.009234       
  -14.2           -0.0090258      0.00903        
  -14.1           -0.0088116      0.0088166      
  -14             -0.0085912      0.0085936      
  -13.9           -0.00836        0.0083622      
  -13.8           -0.0081218      0.008123       
  -13.7           -0.0078704      0.0078736      
  -13.6           -0.0076044      0.0076076      
  -13.5           -0.0073338      0.0073324      
  -13.4           -0.0070424      0.007043       
  -13.3           -0.0067432      0.0067442      
  -13.2           -0.006428       0.0064282      
  -13.1           -0.0060984      0.0060984      
  -13             -0.0057602      0.0057606      
  -12.9           -0.0054046      0.0054054      
  -12.8           -0.0050378      0.0050406      
  -12.7           -0.0046544      0.004657       
  -12.6           -0.0042624      0.0042618      
  -12.5           -0.003854       0.0038546      
  -12.4           -0.0034326      0.0034346      
  -12.3           -0.0030032      0.0030016      
  -12.2           -0.0025582      0.0025582      
  -12.1           -0.002111       0.0021074      
  -12             -0.001653       0.0016546      
  -11.9           -0.0011906      0.001193       
  -11.8           -0.00072556     0.0007279      
  -11.7           -9.482e-008     0.00022536     
  -11.6           -2.0208e-010    2.188e-010     
  -11.5           -1.59e-011      1.686e-011     
  -11.4           -6.94e-012      6.82e-012      
  -11.3           -3.78e-012      3.94e-012      
  -11.2           -4.42e-012      2.84e-012      
  -11.1           -1.96e-012      2.56e-012      
  -11             -2.8e-012       1.48e-012      
  -10.9           -1.78e-012      1.52e-012      
  -10.8           -1.44e-012      1.4e-012       
  -10.7           -1.2e-012       2.52e-012      
  -10.6           3.4e-013        9.8e-013       
  -10.5           -8e-013         1.14e-012      
  -10.4           -2.8e-013       -8e-014        
  -10.3           -1.82e-012      7e-013         
  -10.2           -3.2e-013       8.6e-013       
  -10.1           -1.26e-012      3e-013         
  -10             -2.2e-013       6e-013         
  -9.9            -1.04e-012      2.8e-013       
  -9.8            -5.2e-013       1.42e-012      
  -9.7            5.4e-013        4.2e-013       
  -9.6            1.8e-013        9.4e-013       
  -9.5            7e-013          -6e-013        
  -9.4            -1.1e-012       4.2e-013       
  -9.3            -3e-013         4.2e-013       
  -9.2            -1.34e-012      3.4e-013       
  -9.1            4.4e-013        -1.6e-013      
  -9              -6.6e-013       -2.6e-013      
  -8.9            -1.4e-013       7.2e-013       
  -8.8            -8e-014         5e-013         
  -8.7            -1e-013         1.16e-012      
  -8.6            1.22e-012       -6e-013        
  -8.5            -2e-013         3.2e-013       
  -8.4            2.4e-013        -4e-013        
  -8.3            -9.2e-013       4e-013         
  -8.2            2.6e-013        -2e-014        
  -8.1            -8.4e-013       -7.6e-013      
  -8              4e-014          -4e-014        
  -7.9            -3.6e-013       3.8e-013       
  -7.8            4e-014          1.54e-012      
  -7.7            8e-013          1.2e-013       
  -7.6            4e-014          4.6e-013       
  -7.5            3.8e-013        -9.2e-013      
  -7.4            -5.4e-013       1.8e-013       
  -7.3            3.4e-013        -2e-014        
  -7.2            -8.8e-013       -5.6e-013      
  -7.1            1.8e-013        -2.2e-013      
  -7              -8.2e-013       -5.4e-013      
  -6.9            2.4e-013        8e-013         
  -6.8            6.6e-013        3.2e-013       
  -6.7            6e-014          6.8e-013       
  -6.6            1.26e-012       -7e-013        
  -6.5            -2.6e-013       1.6e-013       
  -6.4            7.6e-013        -7.8e-013      
  -6.3            -4.6e-013       -4.2e-013      
  -6.2            1.2e-013        -5.8e-013      
  -6.1            -6.8e-013       -7.2e-013      
  -6              8e-014          3.4e-013       
  -5.9            2.2e-013        -6e-014        
  -5.8            4.2e-013        4e-013         
  -5.7            9.8e-013        -1.1e-012      
  -5.6            -3.2e-013       3.4e-013       
  -5.5            3.2e-013        -5.6e-013      
  -5.4            -4e-013         6e-014         
  -5.3            2.4e-013        -1.08e-012     
  -5.2            -5.4e-013       -1.42e-012     
  -5.1            2e-014          1.8e-013       
  -5              -3.4e-013       -3.4e-013      
  -4.9            5e-013          5e-013         
  -4.8            7e-013          -8.6e-013      
  -4.7            4e-014          -4.4e-013      
  -4.6            6.8e-013        -7.2e-013      
  -4.5            -6.2e-013       -2.6e-013      
  -4.4            5.6e-013        -1.04e-012     
  -4.3            -2.4e-013       -1.76e-012     
  -4.2            4e-014          -9.8e-013      
  -4.1            -4e-013         -1.02e-012     
  -4              -2e-014         2e-014         
  -3.9            5e-013          -9e-013        
  -3.8            3.6e-013        -9.4e-013      
  -3.7            1.02e-012       -1.78e-012     
  -3.6            -1.6e-013       -1.18e-012     
  -3.5            4.8e-013        -1.72e-012     
  -3.4            -4e-013         -1.78e-012     
  -3.3            0               -2.08e-012     
  -3.2            -1e-013         -2.24e-012     
  -3.1            -1.4e-013       -1.12e-012     
  -3              -1e-013         -1.92e-012     
  -2.9            3e-013          -1.48e-012     
  -2.8            4.8e-013        -2.48e-012     
  -2.7            2.8e-013        -2.44e-012     
  -2.6            6.4e-013        -2.88e-012     
  -2.5            -2e-013         -3.22e-012     
  -2.4            -1.6e-013       -3.56e-012     
  -2.3            -6.4e-013       -4.12e-012     
  -2.2            -2.4e-013       -3.44e-012     
  -2.1            8e-014          -3.88e-012     
  -2              3e-013          -3.88e-012     
  -1.9            5.2e-013        -4.7e-012      
  -1.8            1.8e-013        -4.94e-012     
  -1.7            5.8e-013        -5e-012        
  -1.6            1.6e-013        -5.9e-012      
  -1.5            2.2e-013        -6.66e-012     
  -1.4            -3e-013         -7.3e-012      
  -1.3            -5.2e-013       -6.94e-012     
  -1.2            2e-014          -7.44e-012     
  -1.1            4e-014          -7.24e-012     
  -1              4.6e-013        -8.52e-012     
  -0.9            2.8e-013        -8.86e-012     
  -0.8            3e-013          -9.14e-012     
  -0.7            2.4e-013        -1.016e-011    
  -0.6            4.8e-013        -1.116e-011    
  -0.5            1e-013          -1.218e-011    
  -0.4            -1.6e-013       -1.274e-011    
  -0.3            -2.6e-013       -1.298e-011    
  -0.2            -2.2e-013       -1.324e-011    
  -0.1            6.4e-013        -1.43e-011     
  0               2.4e-013        -1.462e-011    
END_DB

