! VERSION = 6.00
BEGIN_HEADER
 ICCAP_INPUTS
  vc         V  cathode GROUND SMU1 0.1 CON        0
  va         V  anode GROUND SMU2 0.1 LIN        1    0          1          51   0.02      
 ICCAP_OUTPUTS
  ia         I  anode GROUND SMU2 B
  ic         I  cathode GROUND SMU1 B
 ICCAP_VALUES
  DataOrigin "Measure"
  ___CONTEXT ""
  Date "Jan 11 Tue 13:14:20 2022"
  Version "WaferPro.2016.01"
  Bench "B1500_B2200"
  Temperature "-40"
  Lot "M135205"
  Reticle "M135205"
  Wafer "01D2"
  Die "X-3-Y0"
  DieList "TargetDie"
  Block "WholeDie"
  Subsite "diod2-5V"
  Routine "DIODE_EXTR_Measure"
  MeasCond "Set1"
  Device "11"
  DeviceName "pdiode_Dp5_A320B640"
  DevTechno "DIO"
  DevPolarity "P"
  Setup "iv_fwd"
  Type "-1"
  ___SPICE_INSTANCE ""
  A "3.2E-005"
  B "6.4E-005"
  ___TECHNO_INSTANCE ""
  ___CALIBRATION ""
END_HEADER

BEGIN_DB
 ICCAP_VAR vc         0              

 #va              ia              ic             
  0               -6.6e-013       -4.4e-013      
  0.02            -1.6e-013       -2.4e-013      
  0.04            1.42e-012       3.6e-013       
  0.06            1.86e-012       1.62e-012      
  0.08            1.2e-012        4e-014         
  0.1             9.8e-013        1.2e-013       
  0.12            -2e-013         6.2e-013       
  0.14            -7e-013         -8.6e-013      
  0.16            -1.6e-013       -9.6e-013      
  0.18            1.08e-012       2.4e-013       
  0.2             8.8e-013        2e-014         
  0.22            1.14e-012       -2e-013        
  0.24            6.2e-013        1.16e-012      
  0.26            -8e-013         5.8e-013       
  0.28            -1.04e-012      -3.2e-013      
  0.3             -1.2e-013       4.4e-013       
  0.32            3.8e-013        5.8e-013       
  0.34            1.26e-012       1.2e-013       
  0.36            1.84e-012       4.6e-013       
  0.38            1.02e-012       7e-013         
  0.4             -1e-013         -7.4e-013      
  0.42            8.2e-013        -9.4e-013      
  0.44            3.52e-012       -1.12e-012     
  0.46            1.014e-011      -1.98e-012     
  0.48            2.772e-011      -4.46e-012     
  0.5             7.236e-011      -9.16e-012     
  0.52            1.892e-010      -2.554e-011    
  0.54            5.0506e-010     -6.84e-011     
  0.56            1.3554e-009     -1.8176e-010   
  0.58            3.6074e-009     -4.865e-010    
  0.6             7.457e-009      -4.9094e-009   
  0.62            1.9648e-008     -1.321e-008    
  0.64            4.9794e-008     -4.1926e-008   
  0.66            1.3114e-007     -1.139e-007    
  0.68            3.4132e-007     -3.0582e-007   
  0.7             8.9558e-007     -8.795e-007    
  0.72            2.335e-006      -2.333e-006    
  0.74            6.068e-006      -6.0572e-006   
  0.76            1.5382e-005     -1.5378e-005   
  0.78            3.7334e-005     -3.732e-005    
  0.8             8.45e-005       -8.4476e-005   
  0.82            0.00017496      -0.00017486    
  0.84            0.00033156      -0.00033144    
  0.86            0.00057598      -0.00057584    
  0.88            0.00092104      -0.0009209     
  0.9             0.0013732       -0.0013718     
  0.92            0.0019196       -0.0019182     
  0.94            0.0025516       -0.0025502     
  0.96            0.0032498       -0.0032484     
  0.98            0.0040062       -0.0040046     
  1               0.0048034       -0.004802      
END_DB

