! VERSION = 6.00
BEGIN_HEADER
 ICCAP_INPUTS
  vc         V  cathode GROUND SMU1 0.1 CON        0
  va         V  anode GROUND SMU2 0.1 LIN        1    -15        0          151  0.1       
 ICCAP_OUTPUTS
  ia         I  anode GROUND SMU2 B
  ic         I  cathode GROUND SMU1 B
 ICCAP_VALUES
  DataOrigin "Measure"
  ___CONTEXT ""
  Date "Jan 11 Tue 13:13:09 2022"
  Version "WaferPro.2016.01"
  Bench "B1500_B2200"
  Temperature "-40"
  Lot "M135205"
  Reticle "M135205"
  Wafer "01D2"
  Die "X-3-Y0"
  DieList "TargetDie"
  Block "WholeDie"
  Subsite "diod2-5V"
  Routine "DIODE_EXTR_Measure"
  MeasCond "Set1"
  Device "10"
  DeviceName "pdiode_Dp5_A32B640"
  DevTechno "DIO"
  DevPolarity "P"
  Setup "iv_rev"
  Type "-1"
  ___SPICE_INSTANCE ""
  A "3.2E-006"
  B "6.4E-005"
  ___TECHNO_INSTANCE ""
  ___CALIBRATION ""
END_HEADER

BEGIN_DB
 ICCAP_VAR vc         0              

 #va              ia              ic             
  -15             -0.0214         0.021992       
  -14.9           -0.020772       0.020888       
  -14.8           -0.020336       0.020394       
  -14.7           -0.019936       0.019976       
  -14.6           -0.019558       0.019586       
  -14.5           -0.019176       0.0192         
  -14.4           -0.018798       0.018816       
  -14.3           -0.018406       0.018422       
  -14.2           -0.018004       0.018018       
  -14.1           -0.017586       0.017598       
  -14             -0.01715        0.01716        
  -13.9           -0.0167         0.01671        
  -13.8           -0.016224       0.016234       
  -13.7           -0.015732       0.01574        
  -13.6           -0.01521        0.01522        
  -13.5           -0.01467        0.014678       
  -13.4           -0.0141         0.014108       
  -13.3           -0.013506       0.013516       
  -13.2           -0.012884       0.01289        
  -13.1           -0.012234       0.012242       
  -13             -0.011562       0.011568       
  -12.9           -0.010856       0.010864       
  -12.8           -0.010128       0.010136       
  -12.7           -0.0093748      0.0093744      
  -12.6           -0.0085918      0.0085908      
  -12.5           -0.0077766      0.007776       
  -12.4           -0.0069352      0.0069342      
  -12.3           -0.0060758      0.006075       
  -12.2           -0.0051872      0.0051862      
  -12.1           -0.0042776      0.004277       
  -12             -0.003359       0.0033584      
  -11.9           -0.0024216      0.002421       
  -11.8           -0.0014784      0.0014782      
  -11.7           -0.00048782     0.00048618     
  -11.6           -6.7156e-010    1.3486e-009    
  -11.5           -2.1292e-010    1.6002e-010    
  -11.4           -1.0554e-010    7.17e-011      
  -11.3           -5.82e-011      3.804e-011     
  -11.2           -3.654e-011     2.098e-011     
  -11.1           -2.408e-011     1.296e-011     
  -11             -1.43e-011      7.08e-012      
  -10.9           -8.34e-012      5.4e-012       
  -10.8           -4.9e-012       3.52e-012      
  -10.7           -5.98e-012      3.62e-012      
  -10.6           -3.78e-012      2.12e-012      
  -10.5           -1.96e-012      1.68e-012      
  -10.4           1.2e-013        1.52e-012      
  -10.3           -1.66e-012      6.6e-013       
  -10.2           -2.68e-012      1.3e-012       
  -10.1           -1.54e-012      -2.8e-013      
  -10             1.2e-013        7e-013         
  -9.9            1.22e-012       2.2e-013       
  -9.8            -1.76e-012      1.4e-012       
  -9.7            -1.58e-012      4.4e-013       
  -9.6            -4.2e-013       4.4e-013       
  -9.5            2.3e-012        1.6e-013       
  -9.4            7e-013          2e-014         
  -9.3            -1.18e-012      9e-013         
  -9.2            -2.6e-012       -6.4e-013      
  -9.1            -3.2e-013       1.8e-013       
  -9              1.98e-012       -7e-013        
  -8.9            -8e-014         7e-013         
  -8.8            -4.4e-013       5.2e-013       
  -8.7            -2.08e-012      9.6e-013       
  -8.6            1.36e-012       0              
  -8.5            1.46e-012       -2e-013        
  -8.4            8e-014          4.4e-013       
  -8.3            -1.32e-012      -1e-012        
  -8.2            -1.36e-012      4.6e-013       
  -8.1            1.06e-012       -9.2e-013      
  -8              6.6e-013        3.8e-013       
  -7.9            -8e-014         -2e-014        
  -7.8            -2.02e-012      6e-013         
  -7.7            7.8e-013        0              
  -7.6            1.52e-012       -2e-014        
  -7.5            1.28e-012       3e-013         
  -7.4            -1.2e-012       -4.4e-013      
  -7.3            -1.76e-012      3.6e-013       
  -7.2            3.4e-013        -1.22e-012     
  -7.1            1.36e-012       2e-014         
  -7              7.4e-013        -3.6e-013      
  -6.9            -1.76e-012      4.8e-013       
  -6.8            -3.6e-013       -2e-014        
  -6.7            6.4e-013        -1.6e-013      
  -6.6            2.28e-012       -2e-013        
  -6.5            1.8e-013        -3.6e-013      
  -6.4            -1.56e-012      -8e-014        
  -6.3            -6.2e-013       -1.16e-012     
  -6.2            4e-013          -4.6e-013      
  -6.1            1.2e-012        -8.2e-013      
  -6              -8e-013         1e-013         
  -5.9            -6.4e-013       -2.6e-013      
  -5.8            6e-014          -3.8e-013      
  -5.7            1.86e-012       -3.4e-013      
  -5.6            1.06e-012       -2.8e-013      
  -5.5            -1e-012         -2e-013        
  -5.4            -6.8e-013       -1.32e-012     
  -5.3            6.2e-013        -1.34e-012     
  -5.2            1.44e-012       -1.56e-012     
  -5.1            -2.8e-013       -2.4e-013      
  -5              -1.66e-012      -2e-013        
  -4.9            -7.4e-013       -1.04e-012     
  -4.8            2.02e-012       -1.2e-012      
  -4.7            1.9e-012        -1.22e-012     
  -4.6            -2.4e-013       -7.8e-013      
  -4.5            -1.42e-012      -1.2e-012      
  -4.4            -6.6e-013       -1.92e-012     
  -4.3            1.6e-012        -2.56e-012     
  -4.2            9.6e-013        -1.88e-012     
  -4.1            -1.06e-012      -1.22e-012     
  -4              -1.5e-012       -1.66e-012     
  -3.9            4.2e-013        -1.84e-012     
  -3.8            2.22e-012       -2.38e-012     
  -3.7            1.08e-012       -2.14e-012     
  -3.6            -4.4e-013       -2.12e-012     
  -3.5            -1.24e-012      -2.86e-012     
  -3.4            9e-013          -3.5e-012      
  -3.3            1e-012          -3.72e-012     
  -3.2            -1e-013         -3.48e-012     
  -3.1            -1.2e-012       -3.42e-012     
  -3              -8.2e-013       -3.2e-012      
  -2.9            1.52e-012       -4.44e-012     
  -2.8            1.4e-012        -3.66e-012     
  -2.7            8e-014          -4.36e-012     
  -2.6            -1.06e-012      -5.22e-012     
  -2.5            6.6e-013        -5.8e-012      
  -2.4            1.04e-012       -6.46e-012     
  -2.3            3.6e-013        -5.66e-012     
  -2.2            -1.46e-012      -6.38e-012     
  -2.1            -1.3e-012       -6.62e-012     
  -2              8.6e-013        -7.82e-012     
  -1.9            1.66e-012       -7.12e-012     
  -1.8            1.02e-012       -7.6e-012      
  -1.7            -1.14e-012      -8.08e-012     
  -1.6            -8e-014         -9.48e-012     
  -1.5            6.2e-013        -1.094e-011    
  -1.4            1.4e-012        -1.076e-011    
  -1.3            -5.2e-013       -1.116e-011    
  -1.2            -1.58e-012      -1.1e-011      
  -1.1            0               -1.296e-011    
  -1              9.8e-013        -1.272e-011    
  -0.9            1.66e-012       -1.392e-011    
  -0.8            -6e-013         -1.354e-011    
  -0.7            -6.2e-013       -1.478e-011    
  -0.6            6e-014          -1.662e-011    
  -0.5            1.8e-012        -1.718e-011    
  -0.4            3.6e-013        -1.826e-011    
  -0.3            -1.26e-012      -1.802e-011    
  -0.2            -1.28e-012      -1.954e-011    
  -0.1            4.6e-013        -1.99e-011     
  0               2.08e-012       -2.154e-011    
END_DB

