! VERSION = 6.00
BEGIN_HEADER
 ICCAP_INPUTS
  vc         V  cathode GROUND SMU1 0.1 CON        0
  va         V  anode GROUND SMU2 0.1 LIN        1    15         0          151  -0.1      
 ICCAP_OUTPUTS
  ia         I  anode GROUND SMU2 B
  ic         I  cathode GROUND SMU1 B
 ICCAP_VALUES
  DataOrigin "Measure"
  ___CONTEXT ""
  Date "Jan 13 Thu 19:37:02 2022"
  Version "WaferPro.2016.01"
  Bench "B1500_B2200"
  Temperature "125"
  Lot "M135205"
  Reticle "M135205"
  Wafer "01D2"
  Die "X-3-Y0"
  DieList "TargetDie"
  Block "WholeDie"
  Subsite "diod1-5V"
  Routine "DIODE_EXTR_Measure"
  MeasCond "Set1"
  Device "11"
  DeviceName "ndiode_Dn5_A320B640"
  DevTechno "DIO"
  DevPolarity "N"
  Setup "iv_rev"
  Type "1"
  ___SPICE_INSTANCE ""
  A "3.2E-005"
  B "6.4E-005"
  ___TECHNO_INSTANCE ""
  ___CALIBRATION ""
END_HEADER

BEGIN_DB
 ICCAP_VAR vc         0              

 #va              ia              ic             
  15              0.011798        -0.011822      
  14.9            0.01072         -0.010714      
  14.8            0.0096428       -0.0096416     
  14.7            0.0085744       -0.0085706     
  14.6            0.0075134       -0.0075086     
  14.5            0.00644         -0.0064352     
  14.4            0.0053656       -0.0053604     
  14.3            0.0042944       -0.0042894     
  14.2            0.0032092       -0.003205      
  14.1            0.0021162       -0.002111      
  14              0.00098932      -0.00098596    
  13.9            4.124e-007      -4.1e-007      
  13.8            8.9222e-008     -8.975e-008    
  13.7            5.9072e-008     -5.923e-008    
  13.6            4.4674e-008     -4.4768e-008   
  13.5            3.5838e-008     -3.5956e-008   
  13.4            2.9878e-008     -2.99e-008     
  13.3            2.558e-008      -2.56e-008     
  13.2            2.2306e-008     -2.2356e-008   
  13.1            1.9744e-008     -1.9742e-008   
  13              1.7682e-008     -1.768e-008    
  12.9            1.5934e-008     -1.5928e-008   
  12.8            1.451e-008      -1.4484e-008   
  12.7            1.3278e-008     -1.3276e-008   
  12.6            1.2198e-008     -1.2156e-008   
  12.5            1.1278e-008     -1.125e-008    
  12.4            1.047e-008      -1.0446e-008   
  12.3            9.7218e-009     -9.746e-009    
  12.2            9.0802e-009     -9.1e-009      
  12.1            8.5014e-009     -8.5158e-009   
  12              7.9812e-009     -7.9814e-009   
  11.9            7.5212e-009     -7.5316e-009   
  11.8            7.1e-009        -7.0824e-009   
  11.7            6.7128e-009     -6.7064e-009   
  11.6            6.3698e-009     -6.3532e-009   
  11.5            6.0444e-009     -6.0276e-009   
  11.4            5.7392e-009     -5.7182e-009   
  11.3            5.4602e-009     -5.4328e-009   
  11.2            5.2122e-009     -5.179e-009    
  11.1            4.9772e-009     -4.9498e-009   
  11              4.7602e-009     -4.7192e-009   
  10.9            4.553e-009      -4.5088e-009   
  10.8            4.3588e-009     -4.335e-009    
  10.7            4.1792e-009     -4.1424e-009   
  10.6            4.0064e-009     -3.963e-009    
  10.5            3.8458e-009     -3.808e-009    
  10.4            3.6976e-009     -3.6632e-009   
  10.3            3.5528e-009     -3.5092e-009   
  10.2            3.4214e-009     -3.3814e-009   
  10.1            3.2988e-009     -3.248e-009    
  10              3.1794e-009     -3.1472e-009   
  9.9             3.0652e-009     -3.0314e-009   
  9.8             2.9552e-009     -2.9112e-009   
  9.7             2.8556e-009     -2.8074e-009   
  9.6             2.759e-009      -2.7266e-009   
  9.5             2.6686e-009     -2.6214e-009   
  9.4             2.5798e-009     -2.5258e-009   
  9.3             2.492e-009      -2.451e-009    
  9.2             2.4126e-009     -2.3732e-009   
  9.1             2.3326e-009     -2.2858e-009   
  9               2.2604e-009     -2.2116e-009   
  8.9             2.192e-009      -2.1488e-009   
  8.8             2.123e-009      -2.0756e-009   
  8.7             2.0582e-009     -2.0122e-009   
  8.6             1.9968e-009     -1.94e-009     
  8.5             1.9352e-009     -1.8856e-009   
  8.4             1.878e-009      -1.838e-009    
  8.3             1.8214e-009     -1.7742e-009   
  8.2             1.7684e-009     -1.7116e-009   
  8.1             1.718e-009      -1.6858e-009   
  8               1.6716e-009     -1.6298e-009   
  7.9             1.625e-009      -1.5682e-009   
  7.8             1.5792e-009     -1.5352e-009   
  7.7             1.5376e-009     -1.4942e-009   
  7.6             1.4952e-009     -1.4472e-009   
  7.5             1.4574e-009     -1.4212e-009   
  7.4             1.4164e-009     -1.3646e-009   
  7.3             1.3798e-009     -1.33e-009     
  7.2             1.3432e-009     -1.3e-009      
  7.1             1.307e-009      -1.2568e-009   
  7               1.2738e-009     -1.2234e-009   
  6.9             1.2404e-009     -1.1976e-009   
  6.8             1.209e-009      -1.1622e-009   
  6.7             1.1784e-009     -1.13e-009     
  6.6             1.1494e-009     -1.1038e-009   
  6.5             1.1206e-009     -1.0674e-009   
  6.4             1.0932e-009     -1.046e-009    
  6.3             1.0676e-009     -1.0194e-009   
  6.2             1.0414e-009     -9.924e-010    
  6.1             1.016e-009      -9.698e-010    
  6               9.936e-010      -9.442e-010    
  5.9             9.6764e-010     -9.272e-010    
  5.8             9.4594e-010     -9.01e-010     
  5.7             9.2276e-010     -8.86e-010     
  5.6             9.0262e-010     -8.61e-010     
  5.5             8.8138e-010     -8.384e-010    
  5.4             8.6128e-010     -8.324e-010    
  5.3             8.419e-010      -8.022e-010    
  5.2             8.2316e-010     -7.84e-010     
  5.1             8.0518e-010     -7.666e-010    
  5               7.892e-010      -7.45e-010     
  4.9             7.7212e-010     -7.5444e-010   
  4.8             7.5752e-010     -7.1702e-010   
  4.7             7.4068e-010     -6.9206e-010   
  4.6             7.2496e-010     -7.028e-010    
  4.5             7.1156e-010     -6.808e-010    
  4.4             6.9598e-010     -6.558e-010    
  4.3             6.8188e-010     -6.38e-010     
  4.2             6.6856e-010     -6.322e-010    
  4.1             6.5622e-010     -6.154e-010    
  4               6.4322e-010     -6.094e-010    
  3.9             6.317e-010      -6.004e-010    
  3.8             6.1864e-010     -5.8864e-010   
  3.7             6.0704e-010     -5.7052e-010   
  3.6             5.9552e-010     -5.4918e-010   
  3.5             5.8508e-010     -5.353e-010    
  3.4             5.7344e-010     -5.4534e-010   
  3.3             5.6264e-010     -5.2098e-010   
  3.2             5.5026e-010     -5.08e-010     
  3.1             5.3954e-010     -5.0052e-010   
  3               5.2952e-010     -4.8466e-010   
  2.9             5.1908e-010     -4.7518e-010   
  2.8             5.0818e-010     -4.6954e-010   
  2.7             4.9732e-010     -4.516e-010    
  2.6             4.875e-010      -4.3448e-010   
  2.5             4.7616e-010     -4.2958e-010   
  2.4             4.6462e-010     -4.2178e-010   
  2.3             4.5224e-010     -4.1042e-010   
  2.2             4.4156e-010     -4.3898e-010   
  2.1             4.2958e-010     -3.8432e-010   
  2               4.1668e-010     -3.7312e-010   
  1.9             4.0426e-010     -3.556e-010    
  1.8             3.932e-010      -3.4662e-010   
  1.7             3.8136e-010     -3.3788e-010   
  1.6             3.6804e-010     -3.2248e-010   
  1.5             3.5568e-010     -3.1176e-010   
  1.4             3.4384e-010     -3.0212e-010   
  1.3             3.3248e-010     -2.813e-010    
  1.2             3.1844e-010     -2.7716e-010   
  1.1             3.0578e-010     -2.6272e-010   
  1               2.9326e-010     -2.423e-010    
  0.9             2.8006e-010     -2.3362e-010   
  0.8             2.6478e-010     -2.0762e-010   
  0.7             2.5046e-010     -2.1146e-010   
  0.6             2.3542e-010     -1.854e-010    
  0.5             2.1956e-010     -1.8156e-010   
  0.4             2.0064e-010     -1.5712e-010   
  0.3             1.7944e-010     -1.3442e-010   
  0.2             1.5588e-010     -1.0898e-010   
  0.1             1.2066e-010     -7.67e-011     
  0               -3.34e-012      4.864e-011     
END_DB

