! VERSION = 6.00
BEGIN_HEADER
 ICCAP_INPUTS
  vc         V  cathode GROUND SMU1 0.1 CON        0
  va         V  anode GROUND SMU2 0.1 LIN        1    0          -1         51   -0.02     
 ICCAP_OUTPUTS
  ia         I  anode GROUND SMU2 B
  ic         I  cathode GROUND SMU1 B
 ICCAP_VALUES
  DataOrigin "Measure"
  ___CONTEXT ""
  Date "Jan 13 Thu 19:19:33 2022"
  Version "WaferPro.2016.01"
  Bench "B1500_B2200"
  Temperature "125"
  Lot "M135205"
  Reticle "M135205"
  Wafer "01D2"
  Die "X-3-Y0"
  DieList "TargetDie"
  Block "WholeDie"
  Subsite "diod1-5V"
  Routine "DIODE_EXTR_Measure"
  MeasCond "Set1"
  Device "4"
  DeviceName "ndiode_Dn5_A32B32"
  DevTechno "DIO"
  DevPolarity "N"
  Setup "iv_fwd"
  Type "1"
  ___SPICE_INSTANCE ""
  A "3.2E-006"
  B "3.2E-006"
  ___TECHNO_INSTANCE ""
  ___CALIBRATION ""
END_HEADER

BEGIN_DB
 ICCAP_VAR vc         0              

 #va              ia              ic             
  0               2e-013          1.878e-011     
  -0.02           -8.44e-012      1.072e-011     
  -0.04           -2.046e-011     3.614e-011     
  -0.06           -4.022e-011     5.534e-011     
  -0.08           -7.058e-011     7.366e-011     
  -0.1            -1.1774e-010    1.3914e-010    
  -0.12           -1.9186e-010    2.1366e-010    
  -0.14           -3.0742e-010    3.1386e-010    
  -0.16           -4.8784e-010    4.9752e-010    
  -0.18           -7.7016e-010    7.8544e-010    
  -0.2            -1.2114e-009    1.2146e-009    
  -0.22           -1.906e-009     1.916e-009     
  -0.24           -3.011e-009     3.0176e-009    
  -0.26           -4.7742e-009    4.7732e-009    
  -0.28           -7.6086e-009    7.5984e-009    
  -0.3            -1.224e-008     1.2226e-008    
  -0.32           -1.9824e-008    1.9762e-008    
  -0.34           -3.2474e-008    3.2356e-008    
  -0.36           -5.3696e-008    5.3504e-008    
  -0.38           -8.938e-008     8.9126e-008    
  -0.4            -1.5004e-007    1.5016e-007    
  -0.42           -2.5394e-007    2.5376e-007    
  -0.44           -4.3122e-007    4.3086e-007    
  -0.46           -7.3544e-007    7.3506e-007    
  -0.48           -1.2498e-006    1.2516e-006    
  -0.5            -2.1276e-006    2.1284e-006    
  -0.52           -3.5992e-006    3.6e-006       
  -0.54           -6.0208e-006    6.0214e-006    
  -0.56           -9.9658e-006    9.9676e-006    
  -0.58           -1.6228e-005    1.625e-005     
  -0.6            -2.59e-005      2.5912e-005    
  -0.62           -4.0494e-005    4.0508e-005    
  -0.64           -6.1708e-005    6.1722e-005    
  -0.66           -9.1722e-005    9.1746e-005    
  -0.68           -0.00013242     0.00013256     
  -0.7            -0.0001866      0.00018674     
  -0.72           -0.00025592     0.00025604     
  -0.74           -0.00034264     0.00034276     
  -0.76           -0.0004475      0.0004476      
  -0.78           -0.00057154     0.00057166     
  -0.8            -0.00071624     0.00071634     
  -0.82           -0.0008804      0.00088048     
  -0.84           -0.00106518     0.00106528     
  -0.86           -0.0012682      0.0012696      
  -0.88           -0.001492       0.0014932      
  -0.9            -0.0017334      0.0017348      
  -0.92           -0.0019942      0.0019954      
  -0.94           -0.0022714      0.0022726      
  -0.96           -0.0025666      0.0025678      
  -0.98           -0.0028772      0.0028784      
  -1              -0.0032048      0.003206       
END_DB

