! VERSION = 6.00
BEGIN_HEADER
 ICCAP_INPUTS
  vc         V  cathode GROUND SMU1 0.1 CON        0
  va         V  anode GROUND SMU2 0.1 LIN        1    15         0          151  -0.1      
 ICCAP_OUTPUTS
  ia         I  anode GROUND SMU2 B
  ic         I  cathode GROUND SMU1 B
 ICCAP_VALUES
  DataOrigin "Measure"
  ___CONTEXT ""
  Date "Jan 13 Thu 19:17:02 2022"
  Version "WaferPro.2016.01"
  Bench "B1500_B2200"
  Temperature "125"
  Lot "M135205"
  Reticle "M135205"
  Wafer "01D2"
  Die "X-3-Y0"
  DieList "TargetDie"
  Block "WholeDie"
  Subsite "diod1-5V"
  Routine "DIODE_EXTR_Measure"
  MeasCond "Set1"
  Device "3"
  DeviceName "ndiode_Dn5_A032B320"
  DevTechno "DIO"
  DevPolarity "N"
  Setup "iv_rev"
  Type "1"
  ___SPICE_INSTANCE ""
  A "3.2E-007"
  B "3.2E-005"
  ___TECHNO_INSTANCE ""
  ___CALIBRATION ""
END_HEADER

BEGIN_DB
 ICCAP_VAR vc         0              

 #va              ia              ic             
  15              0.0011948       -0.001281      
  14.9            0.0008905       -0.00092732    
  14.8            0.00062536      -0.00064464    
  14.7            0.00035802      -0.00037382    
  14.6            6.1962e-005     -7.5834e-005   
  14.5            7.7962e-007     -1.0298e-006   
  14.4            2.0742e-007     -2.195e-007    
  14.3            1.1612e-007     -1.1938e-007   
  14.2            7.7776e-008     -7.9896e-008   
  14.1            5.867e-008      -5.9392e-008   
  14              4.6652e-008     -4.7432e-008   
  13.9            3.8316e-008     -3.8778e-008   
  13.8            3.2526e-008     -3.2914e-008   
  13.7            2.8108e-008     -2.8362e-008   
  13.6            2.471e-008      -2.4872e-008   
  13.5            2.1894e-008     -2.2044e-008   
  13.4            1.9634e-008     -1.9776e-008   
  13.3            1.7696e-008     -1.78e-008     
  13.2            1.6188e-008     -1.6236e-008   
  13.1            1.4808e-008     -1.487e-008    
  13              1.3656e-008     -1.37e-008     
  12.9            1.2662e-008     -1.2704e-008   
  12.8            1.1802e-008     -1.18e-008     
  12.7            1.0984e-008     -1.1004e-008   
  12.6            1.0288e-008     -1.0288e-008   
  12.5            9.5978e-009     -9.638e-009    
  12.4            8.994e-009      -9.03e-009     
  12.3            8.4326e-009     -8.49e-009     
  12.2            7.9218e-009     -7.9642e-009   
  12.1            7.5114e-009     -7.5178e-009   
  12              7.0998e-009     -7.1172e-009   
  11.9            6.7478e-009     -6.7514e-009   
  11.8            6.4132e-009     -6.4042e-009   
  11.7            6.1026e-009     -6.1058e-009   
  11.6            5.8094e-009     -5.8094e-009   
  11.5            5.5408e-009     -5.5376e-009   
  11.4            5.2988e-009     -5.2714e-009   
  11.3            5.0738e-009     -5.0774e-009   
  11.2            4.8616e-009     -4.8338e-009   
  11.1            4.6628e-009     -4.6286e-009   
  11              4.487e-009      -4.4686e-009   
  10.9            4.305e-009      -4.286e-009    
  10.8            4.141e-009      -4.1116e-009   
  10.7            3.9774e-009     -3.9532e-009   
  10.6            3.8344e-009     -3.816e-009    
  10.5            3.6938e-009     -3.6538e-009   
  10.4            3.5556e-009     -3.5236e-009   
  10.3            3.428e-009      -3.3926e-009   
  10.2            3.3094e-009     -3.2844e-009   
  10.1            3.1884e-009     -3.1554e-009   
  10              3.0806e-009     -3.0372e-009   
  9.9             2.9784e-009     -2.9444e-009   
  9.8             2.8844e-009     -2.8584e-009   
  9.7             2.7914e-009     -2.755e-009    
  9.6             2.7058e-009     -2.6504e-009   
  9.5             2.6226e-009     -2.588e-009    
  9.4             2.5418e-009     -2.5032e-009   
  9.3             2.4636e-009     -2.4166e-009   
  9.2             2.3878e-009     -2.3366e-009   
  9.1             2.3138e-009     -2.2654e-009   
  9               2.25e-009       -2.1948e-009   
  8.9             2.1818e-009     -2.135e-009    
  8.8             2.1256e-009     -2.072e-009    
  8.7             2.059e-009      -2.0092e-009   
  8.6             2.0036e-009     -1.9514e-009   
  8.5             1.948e-009      -1.8884e-009   
  8.4             1.8932e-009     -1.8372e-009   
  8.3             1.839e-009      -1.7938e-009   
  8.2             1.7894e-009     -1.7322e-009   
  8.1             1.7428e-009     -1.6844e-009   
  8               1.7002e-009     -1.6508e-009   
  7.9             1.657e-009      -1.6e-009      
  7.8             1.6156e-009     -1.5566e-009   
  7.7             1.572e-009      -1.5256e-009   
  7.6             1.5316e-009     -1.4776e-009   
  7.5             1.4898e-009     -1.4362e-009   
  7.4             1.452e-009      -1.4036e-009   
  7.3             1.4174e-009     -1.3678e-009   
  7.2             1.3832e-009     -1.3332e-009   
  7.1             1.3512e-009     -1.3054e-009   
  7               1.3182e-009     -1.2638e-009   
  6.9             1.2886e-009     -1.2286e-009   
  6.8             1.2562e-009     -1.1594e-009   
  6.7             1.2274e-009     -1.1698e-009   
  6.6             1.2008e-009     -1.1452e-009   
  6.5             1.1732e-009     -1.1166e-009   
  6.4             1.1458e-009     -1.0854e-009   
  6.3             1.1188e-009     -1.0638e-009   
  6.2             1.0908e-009     -1.0342e-009   
  6.1             1.0658e-009     -1.0052e-009   
  6               1.0438e-009     -9.93e-010     
  5.9             1.0204e-009     -9.628e-010    
  5.8             9.974e-010      -9.428e-010    
  5.7             9.754e-010      -9.248e-010    
  5.6             9.5426e-010     -9.13e-010     
  5.5             9.3246e-010     -8.852e-010    
  5.4             9.1402e-010     -8.708e-010    
  5.3             8.9504e-010     -8.506e-010    
  5.2             8.7706e-010     -8.302e-010    
  5.1             8.5866e-010     -8.148e-010    
  5               8.4124e-010     -7.924e-010    
  4.9             8.2508e-010     -7.856e-010    
  4.8             8.0892e-010     -7.596e-010    
  4.7             7.9194e-010     -7.54e-010     
  4.6             7.7726e-010     -7.564e-010    
  4.5             7.6108e-010     -7.212e-010    
  4.4             7.4676e-010     -7.084e-010    
  4.3             7.353e-010      -6.892e-010    
  4.2             7.2054e-010     -6.844e-010    
  4.1             7.0798e-010     -6.702e-010    
  4               6.938e-010      -6.548e-010    
  3.9             6.8086e-010     -6.384e-010    
  3.8             6.677e-010      -6.304e-010    
  3.7             6.5674e-010     -6.2362e-010   
  3.6             6.475e-010      -5.946e-010    
  3.5             6.3778e-010     -6.0936e-010   
  3.4             6.2718e-010     -5.805e-010    
  3.3             6.1434e-010     -5.668e-010    
  3.2             6.0394e-010     -5.5444e-010   
  3.1             5.9444e-010     -5.4686e-010   
  3               5.8458e-010     -5.2992e-010   
  2.9             5.7592e-010     -5.2494e-010   
  2.8             5.6448e-010     -5.2148e-010   
  2.7             5.576e-010      -5.0876e-010   
  2.6             5.4966e-010     -4.9676e-010   
  2.5             5.4086e-010     -4.8684e-010   
  2.4             5.3048e-010     -4.8338e-010   
  2.3             5.215e-010      -4.5978e-010   
  2.2             5.1282e-010     -4.6398e-010   
  2.1             5.0442e-010     -4.5808e-010   
  2               4.9598e-010     -4.5228e-010   
  1.9             4.8792e-010     -4.3804e-010   
  1.8             4.7908e-010     -4.515e-010    
  1.7             4.716e-010      -4.2522e-010   
  1.6             4.6164e-010     -4.1352e-010   
  1.5             4.5148e-010     -4.118e-010    
  1.4             4.425e-010      -3.8918e-010   
  1.3             4.3226e-010     -3.7896e-010   
  1.2             4.2226e-010     -3.6626e-010   
  1.1             4.1002e-010     -3.641e-010    
  1               3.982e-010      -3.4228e-010   
  0.9             3.8692e-010     -3.4458e-010   
  0.8             3.7444e-010     -3.249e-010    
  0.7             3.599e-010      -3.1392e-010   
  0.6             3.4566e-010     -2.9524e-010   
  0.5             3.3046e-010     -2.714e-010    
  0.4             3.1348e-010     -2.5948e-010   
  0.3             2.926e-010      -2.4318e-010   
  0.2             2.6404e-010     -2.1228e-010   
  0.1             2.116e-010      -1.5972e-010   
  0               -5.26e-012      5.132e-011     
END_DB

