! VERSION = 6.00
BEGIN_HEADER
 ICCAP_INPUTS
  vc         V  cathode GROUND SMU1 0.1 CON        0
  va         V  anode GROUND SMU2 0.1 LIN        1    0          -1         51   -0.02     
 ICCAP_OUTPUTS
  ia         I  anode GROUND SMU2 B
  ic         I  cathode GROUND SMU1 B
 ICCAP_VALUES
  DataOrigin "Measure"
  ___CONTEXT ""
  Date "Jan 13 Thu 19:34:32 2022"
  Version "WaferPro.2016.01"
  Bench "B1500_B2200"
  Temperature "125"
  Lot "M135205"
  Reticle "M135205"
  Wafer "01D2"
  Die "X-3-Y0"
  DieList "TargetDie"
  Block "WholeDie"
  Subsite "diod1-5V"
  Routine "DIODE_EXTR_Measure"
  MeasCond "Set1"
  Device "10"
  DeviceName "ndiode_Dn5_A32B640"
  DevTechno "DIO"
  DevPolarity "N"
  Setup "iv_fwd"
  Type "1"
  ___SPICE_INSTANCE ""
  A "3.2E-006"
  B "6.4E-005"
  ___TECHNO_INSTANCE ""
  ___CALIBRATION ""
END_HEADER

BEGIN_DB
 ICCAP_VAR vc         0              

 #va              ia              ic             
  0               -1.44e-012      1.044e-011     
  -0.02           -5.814e-011     6.804e-011     
  -0.04           -1.4776e-010    1.5784e-010    
  -0.06           -2.9068e-010    2.964e-010     
  -0.08           -5.1912e-010    5.3702e-010    
  -0.1            -8.8156e-010    8.9054e-010    
  -0.12           -1.4634e-009    1.4676e-009    
  -0.14           -2.392e-009     2.387e-009     
  -0.16           -3.8802e-009    3.872e-009     
  -0.18           -6.261e-009     6.25e-009      
  -0.2            -1.00842e-008   1.0083e-008    
  -0.22           -1.6204e-008    1.6174e-008    
  -0.24           -2.6154e-008    2.601e-008     
  -0.26           -4.224e-008     4.2128e-008    
  -0.28           -6.85e-008      6.842e-008     
  -0.3            -1.11852e-007   1.1176e-007    
  -0.32           -1.832e-007     1.8334e-007    
  -0.34           -3.0218e-007    3.0214e-007    
  -0.36           -5.0032e-007    5.003e-007     
  -0.38           -8.2868e-007    8.2866e-007    
  -0.4            -1.3754e-006    1.3774e-006    
  -0.42           -2.28e-006      2.281e-006     
  -0.44           -3.7564e-006    3.7572e-006    
  -0.46           -6.1594e-006    6.1604e-006    
  -0.48           -1e-005         9.9996e-006    
  -0.5            -1.612e-005     1.6142e-005    
  -0.52           -2.5772e-005    2.5788e-005    
  -0.54           -4.0724e-005    4.074e-005     
  -0.56           -6.3766e-005    6.3784e-005    
  -0.58           -9.8518e-005    9.8544e-005    
  -0.6            -0.00014942     0.00014956     
  -0.62           -0.00022276     0.00022288     
  -0.64           -0.0003241      0.00032422     
  -0.66           -0.0004599      0.00046002     
  -0.68           -0.0006341      0.00063414     
  -0.7            -0.000851       0.00085112     
  -0.72           -0.00111086     0.00111092     
  -0.74           -0.0014152      0.0014166      
  -0.76           -0.0017612      0.0017624      
  -0.78           -0.0021466      0.0021478      
  -0.8            -0.0025718      0.0025728      
  -0.82           -0.003029       0.0030306      
  -0.84           -0.0035198      0.003521       
  -0.86           -0.004037       0.004038       
  -0.88           -0.0045816      0.004582       
  -0.9            -0.005146       0.0051474      
  -0.92           -0.0057338      0.005735       
  -0.94           -0.006337       0.0063386      
  -0.96           -0.0069596      0.0069608      
  -0.98           -0.0075936      0.0075942      
  -1              -0.0082464      0.0082452      
END_DB

