! VERSION = 6.00
BEGIN_HEADER
 ICCAP_INPUTS
  vc         V  cathode GROUND SMU1 0.1 CON        0
  va         V  anode GROUND SMU2 0.1 LIN        1    15         0          151  -0.1      
 ICCAP_OUTPUTS
  ia         I  anode GROUND SMU2 B
  ic         I  cathode GROUND SMU1 B
 ICCAP_VALUES
  DataOrigin "Measure"
  ___CONTEXT ""
  Date "Jan 13 Thu 19:24:36 2022"
  Version "WaferPro.2016.01"
  Bench "B1500_B2200"
  Temperature "125"
  Lot "M135205"
  Reticle "M135205"
  Wafer "01D2"
  Die "X-3-Y0"
  DieList "TargetDie"
  Block "WholeDie"
  Subsite "diod1-5V"
  Routine "DIODE_EXTR_Measure"
  MeasCond "Set1"
  Device "6"
  DeviceName "ndiode_Dn5_A320B320"
  DevTechno "DIO"
  DevPolarity "N"
  Setup "iv_rev"
  Type "1"
  ___SPICE_INSTANCE ""
  A "3.2E-005"
  B "3.2E-005"
  ___TECHNO_INSTANCE ""
  ___CALIBRATION ""
END_HEADER

BEGIN_DB
 ICCAP_VAR vc         0              

 #va              ia              ic             
  15              0.009465        -0.0094824     
  14.9            0.0086204       -0.0086216     
  14.8            0.0077734       -0.0077718     
  14.7            0.0069242       -0.0069216     
  14.6            0.0060788       -0.0060756     
  14.5            0.0052232       -0.0052196     
  14.4            0.0043652       -0.0043616     
  14.3            0.00351         -0.0035062     
  14.2            0.0026456       -0.002642      
  14.1            0.001774        -0.0017704     
  14              0.00088342      -0.0008816     
  13.9            3.2634e-007     -3.2236e-007   
  13.8            4.791e-008      -4.8234e-008   
  13.7            3.4486e-008     -3.4646e-008   
  13.6            2.732e-008      -2.7398e-008   
  13.5            2.2596e-008     -2.2642e-008   
  13.4            1.918e-008      -1.9256e-008   
  13.3            1.667e-008      -1.668e-008    
  13.2            1.471e-008      -1.4718e-008   
  13.1            1.3166e-008     -1.3176e-008   
  13              1.185e-008      -1.1866e-008   
  12.9            1.076e-008      -1.0752e-008   
  12.8            9.856e-009      -9.838e-009    
  12.7            9.0162e-009     -9.056e-009    
  12.6            8.299e-009      -8.3818e-009   
  12.5            7.6932e-009     -7.724e-009    
  12.4            7.1632e-009     -7.1654e-009   
  12.3            6.6936e-009     -6.6852e-009   
  12.2            6.2678e-009     -6.2746e-009   
  12.1            5.884e-009      -5.8734e-009   
  12              5.5386e-009     -5.5226e-009   
  11.9            5.226e-009      -5.2064e-009   
  11.8            4.9474e-009     -4.922e-009    
  11.7            4.6954e-009     -4.6674e-009   
  11.6            4.4532e-009     -4.4242e-009   
  11.5            4.2356e-009     -4.1978e-009   
  11.4            4.0312e-009     -3.9994e-009   
  11.3            3.837e-009      -3.806e-009    
  11.2            3.6658e-009     -3.623e-009    
  11.1            3.5024e-009     -3.4658e-009   
  11              3.3504e-009     -3.3046e-009   
  10.9            3.2062e-009     -3.173e-009    
  10.8            3.0746e-009     -3.033e-009    
  10.7            2.9492e-009     -2.9056e-009   
  10.6            2.8368e-009     -2.7922e-009   
  10.5            2.7216e-009     -2.6768e-009   
  10.4            2.626e-009      -2.5806e-009   
  10.3            2.5236e-009     -2.4728e-009   
  10.2            2.4298e-009     -2.3858e-009   
  10.1            2.3386e-009     -2.349e-009    
  10              2.2544e-009     -2.2116e-009   
  9.9             2.1704e-009     -2.1244e-009   
  9.8             2.0984e-009     -2.0526e-009   
  9.7             2.0268e-009     -1.9828e-009   
  9.6             1.9558e-009     -1.9032e-009   
  9.5             1.8912e-009     -1.849e-009    
  9.4             1.8292e-009     -1.7856e-009   
  9.3             1.7678e-009     -1.7154e-009   
  9.2             1.7122e-009     -1.6552e-009   
  9.1             1.6584e-009     -1.608e-009    
  9               1.6052e-009     -1.5632e-009   
  8.9             1.557e-009      -1.5072e-009   
  8.8             1.509e-009      -1.4574e-009   
  8.7             1.4652e-009     -1.415e-009    
  8.6             1.4218e-009     -1.3768e-009   
  8.5             1.381e-009      -1.3356e-009   
  8.4             1.3398e-009     -1.282e-009    
  8.3             1.301e-009      -1.251e-009    
  8.2             1.2648e-009     -1.227e-009    
  8.1             1.2274e-009     -1.1796e-009   
  8               1.1932e-009     -1.1438e-009   
  7.9             1.1586e-009     -1.1154e-009   
  7.8             1.1262e-009     -1.074e-009    
  7.7             1.0962e-009     -1.0492e-009   
  7.6             1.0672e-009     -1.0244e-009   
  7.5             1.0388e-009     -9.862e-010    
  7.4             1.0118e-009     -9.678e-010    
  7.3             9.826e-010      -9.336e-010    
  7.2             9.5598e-010     -9.216e-010    
  7.1             9.3202e-010     -8.938e-010    
  7               9.079e-010      -8.624e-010    
  6.9             8.8386e-010     -8.496e-010    
  6.8             8.6242e-010     -8.212e-010    
  6.7             8.4018e-010     -7.992e-010    
  6.6             8.1946e-010     -7.742e-010    
  6.5             7.9804e-010     -7.564e-010    
  6.4             7.7834e-010     -7.39e-010     
  6.3             7.5832e-010     -7.178e-010    
  6.2             7.3892e-010     -7.028e-010    
  6.1             7.2248e-010     -6.836e-010    
  6               7.0506e-010     -6.102e-010    
  5.9             6.891e-010      -6.518e-010    
  5.8             6.7292e-010     -6.394e-010    
  5.7             6.5672e-010     -6.292e-010    
  5.6             6.4264e-010     -6.042e-010    
  5.5             6.2904e-010     -5.978e-010    
  5.4             6.1486e-010     -5.8386e-010   
  5.3             6.0038e-010     -5.5304e-010   
  5.2             5.8892e-010     -5.3654e-010   
  5.1             5.7658e-010     -5.2882e-010   
  5               5.6358e-010     -5.1658e-010   
  4.9             5.5228e-010     -5.0296e-010   
  4.8             5.4112e-010     -4.8604e-010   
  4.7             5.2914e-010     -4.8622e-010   
  4.6             5.189e-010      -4.6834e-010   
  4.5             5.0782e-010     -4.68e-010     
  4.4             4.9842e-010     -4.5312e-010   
  4.3             4.8862e-010     -4.401e-010    
  4.2             4.787e-010      -4.23e-010     
  4.1             4.694e-010      -4.2246e-010   
  4               4.6008e-010     -4.0916e-010   
  3.9             4.5188e-010     -3.9752e-010   
  3.8             4.431e-010      -4.0282e-010   
  3.7             4.3488e-010     -3.9116e-010   
  3.6             4.2736e-010     -3.8202e-010   
  3.5             4.2008e-010     -3.6994e-010   
  3.4             4.1254e-010     -3.6826e-010   
  3.3             4.0438e-010     -3.5592e-010   
  3.2             3.968e-010      -3.4404e-010   
  3.1             3.897e-010      -3.3916e-010   
  3               3.8208e-010     -3.4024e-010   
  2.9             3.7504e-010     -3.245e-010    
  2.8             3.6672e-010     -3.2646e-010   
  2.7             3.5944e-010     -3.1134e-010   
  2.6             3.519e-010      -2.9816e-010   
  2.5             3.4394e-010     -2.895e-010    
  2.4             3.3586e-010     -2.816e-010    
  2.3             3.2744e-010     -2.8502e-010   
  2.2             3.1994e-010     -2.7012e-010   
  2.1             3.1056e-010     -2.6106e-010   
  2               3.0248e-010     -2.531e-010    
  1.9             2.951e-010      -2.4822e-010   
  1.8             2.8722e-010     -2.311e-010    
  1.7             2.7814e-010     -2.2858e-010   
  1.6             2.7008e-010     -2.1846e-010   
  1.5             2.6196e-010     -2.0724e-010   
  1.4             2.5324e-010     -2.044e-010    
  1.3             2.4344e-010     -2.009e-010    
  1.2             2.3394e-010     -1.9162e-010   
  1.1             2.2584e-010     -1.7194e-010   
  1               2.1704e-010     -1.7856e-010   
  0.9             2.0756e-010     -1.5538e-010   
  0.8             1.9652e-010     -1.4184e-010   
  0.7             1.8674e-010     -1.3714e-010   
  0.6             1.7516e-010     -1.2868e-010   
  0.5             1.635e-010      -1.1614e-010   
  0.4             1.5052e-010     -1.0368e-010   
  0.3             1.358e-010      -8.486e-011    
  0.2             1.1918e-010     -6.996e-011    
  0.1             9.234e-011      -4.502e-011    
  0               -2.64e-012      5.95e-011      
END_DB

