! VERSION = 6.00
BEGIN_HEADER
 ICCAP_INPUTS
  vc         V  cathode GROUND SMU1 0.1 CON        0
  va         V  anode GROUND SMU2 0.1 LIN        1    0          -1         51   -0.02     
 ICCAP_OUTPUTS
  ia         I  anode GROUND SMU2 B
  ic         I  cathode GROUND SMU1 B
 ICCAP_VALUES
  DataOrigin "Measure"
  ___CONTEXT ""
  Date "Jan 13 Thu 19:11:58 2022"
  Version "WaferPro.2016.01"
  Bench "B1500_B2200"
  Temperature "125"
  Lot "M135205"
  Reticle "M135205"
  Wafer "01D2"
  Die "X-3-Y0"
  DieList "TargetDie"
  Block "WholeDie"
  Subsite "diod1-5V"
  Routine "DIODE_EXTR_Measure"
  MeasCond "Set1"
  Device "1"
  DeviceName "ndiode_Dn5_A032B032"
  DevTechno "DIO"
  DevPolarity "N"
  Setup "iv_fwd"
  Type "1"
  ___SPICE_INSTANCE ""
  A "3.2E-007"
  B "3.2E-007"
  ___TECHNO_INSTANCE ""
  ___CALIBRATION ""
END_HEADER

BEGIN_DB
 ICCAP_VAR vc         0              

 #va              ia              ic             
  0               1.6e-013        1.056e-011     
  -0.02           -1.9e-012       -2.244e-011    
  -0.04           -4.44e-012      5.36e-012      
  -0.06           -8.88e-012      2.792e-011     
  -0.08           -1.534e-011     8.1e-012       
  -0.1            -2.538e-011     6.06e-012      
  -0.12           -4.018e-011     5.958e-011     
  -0.14           -6.254e-011     8.284e-011     
  -0.16           -9.636e-011     9.198e-011     
  -0.18           -1.4784e-010    1.3894e-010    
  -0.2            -2.2456e-010    2.358e-010     
  -0.22           -3.4488e-010    3.564e-010     
  -0.24           -5.2726e-010    5.1218e-010    
  -0.26           -8.0916e-010    7.99e-010      
  -0.28           -1.2542e-009    1.2628e-009    
  -0.3            -1.9472e-009    1.9164e-009    
  -0.32           -3.0402e-009    2.9952e-009    
  -0.34           -4.7908e-009    4.7366e-009    
  -0.36           -7.5918e-009    7.5176e-009    
  -0.38           -1.204e-008     1.1998e-008    
  -0.4            -1.924e-008     1.913e-008     
  -0.42           -3.0948e-008    3.0786e-008    
  -0.44           -4.9774e-008    4.9754e-008    
  -0.46           -8.0702e-008    8.0468e-008    
  -0.48           -1.2998e-007    1.3024e-007    
  -0.5            -2.109e-007     2.1118e-007    
  -0.52           -3.4202e-007    3.419e-007     
  -0.54           -5.4988e-007    5.5096e-007    
  -0.56           -8.819e-007     8.8258e-007    
  -0.58           -1.398e-006     1.4022e-006    
  -0.6            -2.2e-006       2.2002e-006    
  -0.62           -3.4098e-006    3.41e-006      
  -0.64           -5.1806e-006    5.1872e-006    
  -0.66           -7.7306e-006    7.7364e-006    
  -0.68           -1.12642e-005   1.12752e-005   
  -0.7            -1.6028e-005    1.6074e-005    
  -0.72           -2.2342e-005    2.2358e-005    
  -0.74           -3.0456e-005    3.0488e-005    
  -0.76           -4.0598e-005    4.0622e-005    
  -0.78           -5.3014e-005    5.305e-005     
  -0.8            -6.8032e-005    6.8056e-005    
  -0.82           -8.5734e-005    8.576e-005     
  -0.84           -0.000106496    0.000106512    
  -0.86           -0.00013024     0.00013034     
  -0.88           -0.0001575      0.00015762     
  -0.9            -0.0001881      0.00018816     
  -0.92           -0.00022252     0.00022252     
  -0.94           -0.00026034     0.00026046     
  -0.96           -0.00030192     0.00030206     
  -0.98           -0.00034716     0.00034724     
  -1              -0.00039642     0.00039648     
END_DB

