! VERSION = 6.00
BEGIN_HEADER
 ICCAP_INPUTS
  vc         V  cathode GROUND SMU1 0.1 CON        0
  va         V  anode GROUND SMU2 0.1 LIN        1    15         0          151  -0.1      
 ICCAP_OUTPUTS
  ia         I  anode GROUND SMU2 B
  ic         I  cathode GROUND SMU1 B
 ICCAP_VALUES
  DataOrigin "Measure"
  ___CONTEXT ""
  Date "Jan 13 Thu 19:27:04 2022"
  Version "WaferPro.2016.01"
  Bench "B1500_B2200"
  Temperature "125"
  Lot "M135205"
  Reticle "M135205"
  Wafer "01D2"
  Die "X-3-Y0"
  DieList "TargetDie"
  Block "WholeDie"
  Subsite "diod1-5V"
  Routine "DIODE_EXTR_Measure"
  MeasCond "Set1"
  Device "7"
  DeviceName "ndiode_Dn5_A032B640"
  DevTechno "DIO"
  DevPolarity "N"
  Setup "iv_rev"
  Type "1"
  ___SPICE_INSTANCE ""
  A "3.2E-007"
  B "6.4E-005"
  ___TECHNO_INSTANCE ""
  ___CALIBRATION ""
END_HEADER

BEGIN_DB
 ICCAP_VAR vc         0              

 #va              ia              ic             
  15              0.0026692       -0.0028422     
  14.9            0.002088        -0.0021534     
  14.8            0.0015586       -0.001601      
  14.7            0.0010414       -0.0010722     
  14.6            0.00047954      -0.00051396    
  14.5            2.1156e-005     -2.819e-005    
  14.4            7.1024e-007     -8.1526e-007   
  14.3            2.971e-007      -3.0984e-007   
  14.2            1.836e-007      -1.8742e-007   
  14.1            1.3192e-007     -1.3372e-007   
  14              1.0138e-007     -1.0246e-007   
  13.9            8.134e-008      -8.2308e-008   
  13.8            6.813e-008      -6.8704e-008   
  13.7            5.83e-008       -5.8724e-008   
  13.6            5.0804e-008     -5.1066e-008   
  13.5            4.4808e-008     -4.5046e-008   
  13.4            3.9906e-008     -4.0108e-008   
  13.3            3.5928e-008     -3.6078e-008   
  13.2            3.2636e-008     -3.2748e-008   
  13.1            2.982e-008      -2.9934e-008   
  13              2.74e-008       -2.7434e-008   
  12.9            2.5252e-008     -2.5316e-008   
  12.8            2.3468e-008     -2.351e-008    
  12.7            2.187e-008      -2.1864e-008   
  12.6            2.0346e-008     -2.041e-008    
  12.5            1.9066e-008     -1.9056e-008   
  12.4            1.79e-008       -1.7916e-008   
  12.3            1.6852e-008     -1.6872e-008   
  12.2            1.59e-008       -1.59e-008     
  12.1            1.5032e-008     -1.5024e-008   
  12              1.4238e-008     -1.4242e-008   
  11.9            1.3506e-008     -1.3468e-008   
  11.8            1.282e-008      -1.2802e-008   
  11.7            1.2184e-008     -1.2174e-008   
  11.6            1.1598e-008     -1.1552e-008   
  11.5            1.1082e-008     -1.105e-008    
  11.4            1.0594e-008     -1.0536e-008   
  11.3            1.0134e-008     -1.0076e-008   
  11.2            9.6736e-009     -9.658e-009    
  11.1            9.2622e-009     -9.228e-009    
  11              8.853e-009      -8.823e-009    
  10.9            8.4984e-009     -8.4746e-009   
  10.8            8.1562e-009     -8.133e-009    
  10.7            7.8452e-009     -7.8016e-009   
  10.6            7.5572e-009     -7.5166e-009   
  10.5            7.2566e-009     -7.2218e-009   
  10.4            7.0014e-009     -6.96e-009     
  10.3            6.7316e-009     -6.689e-009    
  10.2            6.5012e-009     -6.4654e-009   
  10.1            6.2712e-009     -6.2232e-009   
  10              6.0496e-009     -6.0112e-009   
  9.9             5.8484e-009     -5.8068e-009   
  9.8             5.665e-009      -5.6092e-009   
  9.7             5.4678e-009     -5.4324e-009   
  9.6             5.2914e-009     -5.252e-009    
  9.5             5.1218e-009     -5.0676e-009   
  9.4             4.9668e-009     -4.917e-009    
  9.3             4.8152e-009     -4.772e-009    
  9.2             4.6628e-009     -4.6098e-009   
  9.1             4.5126e-009     -4.4696e-009   
  9               4.382e-009      -4.3388e-009   
  8.9             4.2482e-009     -4.207e-009    
  8.8             4.1294e-009     -4.089e-009    
  8.7             4.0048e-009     -3.9654e-009   
  8.6             3.8946e-009     -3.8408e-009   
  8.5             3.78e-009       -3.7322e-009   
  8.4             3.6762e-009     -3.6336e-009   
  8.3             3.5776e-009     -3.53e-009     
  8.2             3.4752e-009     -3.421e-009    
  8.1             3.3834e-009     -3.3422e-009   
  8               3.2952e-009     -3.2392e-009   
  7.9             3.2074e-009     -3.1568e-009   
  7.8             3.1196e-009     -3.0668e-009   
  7.7             3.0378e-009     -2.985e-009    
  7.6             2.9566e-009     -2.9048e-009   
  7.5             2.8854e-009     -2.83e-009     
  7.4             2.8092e-009     -2.75e-009     
  7.3             2.7424e-009     -2.6876e-009   
  7.2             2.6762e-009     -2.6314e-009   
  7.1             2.611e-009      -2.5506e-009   
  7               2.549e-009      -2.4938e-009   
  6.9             2.483e-009      -2.4348e-009   
  6.8             2.4262e-009     -2.3738e-009   
  6.7             2.3696e-009     -2.2952e-009   
  6.6             2.311e-009      -2.2626e-009   
  6.5             2.2634e-009     -2.2186e-009   
  6.4             2.2052e-009     -2.158e-009    
  6.3             2.1588e-009     -2.1028e-009   
  6.2             2.1082e-009     -2.054e-009    
  6.1             2.0612e-009     -2.0152e-009   
  6               2.0174e-009     -1.9684e-009   
  5.9             1.9734e-009     -1.9072e-009   
  5.8             1.928e-009      -1.8866e-009   
  5.7             1.8834e-009     -1.8332e-009   
  5.6             1.8448e-009     -1.7814e-009   
  5.5             1.8054e-009     -1.7466e-009   
  5.4             1.7644e-009     -1.7206e-009   
  5.3             1.7324e-009     -1.6794e-009   
  5.2             1.6964e-009     -1.6334e-009   
  5.1             1.6628e-009     -1.6116e-009   
  5               1.6262e-009     -1.5722e-009   
  4.9             1.5932e-009     -1.5378e-009   
  4.8             1.5626e-009     -1.501e-009    
  4.7             1.5336e-009     -1.474e-009    
  4.6             1.5018e-009     -1.4518e-009   
  4.5             1.4738e-009     -1.418e-009    
  4.4             1.4474e-009     -1.3764e-009   
  4.3             1.4192e-009     -1.3682e-009   
  4.2             1.3928e-009     -1.3394e-009   
  4.1             1.368e-009      -1.3166e-009   
  4               1.3426e-009     -1.2818e-009   
  3.9             1.3164e-009     -1.2638e-009   
  3.8             1.2946e-009     -1.25e-009     
  3.7             1.2722e-009     -1.2188e-009   
  3.6             1.2512e-009     -1.1936e-009   
  3.5             1.2288e-009     -1.1818e-009   
  3.4             1.2076e-009     -1.1632e-009   
  3.3             1.188e-009      -1.1296e-009   
  3.2             1.1692e-009     -1.1106e-009   
  3.1             1.1506e-009     -1.123e-009    
  3               1.132e-009      -1.0762e-009   
  2.9             1.1122e-009     -1.0514e-009   
  2.8             1.0946e-009     -1.0406e-009   
  2.7             1.0758e-009     -1.0284e-009   
  2.6             1.0592e-009     -1.0074e-009   
  2.5             1.0416e-009     -9.844e-010    
  2.4             1.0242e-009     -9.962e-010    
  2.3             1.0084e-009     -9.66e-010     
  2.2             9.9108e-010     -9.392e-010    
  2.1             9.7712e-010     -9.276e-010    
  2               9.594e-010      -9.19e-010     
  1.9             9.4198e-010     -8.89e-010     
  1.8             9.2594e-010     -8.702e-010    
  1.7             9.0928e-010     -8.672e-010    
  1.6             8.9218e-010     -8.484e-010    
  1.5             8.7358e-010     -8.214e-010    
  1.4             8.5306e-010     -8.3e-010      
  1.3             8.3342e-010     -7.898e-010    
  1.2             8.1296e-010     -7.704e-010    
  1.1             7.9142e-010     -7.518e-010    
  1               7.6904e-010     -7.29e-010     
  0.9             7.457e-010      -6.93e-010     
  0.8             7.2144e-010     -6.788e-010    
  0.7             6.9744e-010     -6.59e-010     
  0.6             6.7054e-010     -6.264e-010    
  0.5             6.3884e-010     -5.996e-010    
  0.4             6.0376e-010     -5.65e-010     
  0.3             5.6412e-010     -5.3438e-010   
  0.2             5.0998e-010     -4.746e-010    
  0.1             4.085e-010      -3.5992e-010   
  0               -1.02e-011      6.926e-011     
END_DB

