! VERSION = 6.00
BEGIN_HEADER
 ICCAP_INPUTS
  vc         V  cathode GROUND SMU1 0.1 CON        0
  va         V  anode GROUND SMU2 0.1 LIN        1    15         0          151  -0.1      
 ICCAP_OUTPUTS
  ia         I  anode GROUND SMU2 B
  ic         I  cathode GROUND SMU1 B
 ICCAP_VALUES
  DataOrigin "Measure"
  ___CONTEXT ""
  Date "Jan 13 Thu 19:32:03 2022"
  Version "WaferPro.2016.01"
  Bench "B1500_B2200"
  Temperature "125"
  Lot "M135205"
  Reticle "M135205"
  Wafer "01D2"
  Die "X-3-Y0"
  DieList "TargetDie"
  Block "WholeDie"
  Subsite "diod1-5V"
  Routine "DIODE_EXTR_Measure"
  MeasCond "Set1"
  Device "9"
  DeviceName "ndiode_Dn5_A128B640"
  DevTechno "DIO"
  DevPolarity "N"
  Setup "iv_rev"
  Type "1"
  ___SPICE_INSTANCE ""
  A "1.28E-006"
  B "6.4E-005"
  ___TECHNO_INSTANCE ""
  ___CALIBRATION ""
END_HEADER

BEGIN_DB
 ICCAP_VAR vc         0              

 #va              ia              ic             
  15              0.0048088       -0.004856      
  14.9            0.0042212       -0.0042356     
  14.8            0.0036468       -0.0036542     
  14.7            0.0030792       -0.0030826     
  14.6            0.002519        -0.0025212     
  14.5            0.0019554       -0.0019564     
  14.4            0.0013906       -0.0013904     
  14.3            0.00079754      -0.00079896    
  14.2            9.962e-005      -0.00010244    
  14.1            4.7556e-007     -5.1198e-007   
  14              1.4274e-007     -1.4506e-007   
  13.9            8.911e-008      -8.9922e-008   
  13.8            6.6078e-008     -6.6806e-008   
  13.7            5.2582e-008     -5.2926e-008   
  13.6            4.3758e-008     -4.3936e-008   
  13.5            3.7258e-008     -3.7406e-008   
  13.4            3.2452e-008     -3.2534e-008   
  13.3            2.8722e-008     -2.882e-008    
  13.2            2.5684e-008     -2.5762e-008   
  13.1            2.3226e-008     -2.3248e-008   
  13              2.1124e-008     -2.1146e-008   
  12.9            1.9282e-008     -1.9348e-008   
  12.8            1.7758e-008     -1.775e-008    
  12.7            1.6406e-008     -1.6426e-008   
  12.6            1.525e-008      -1.5258e-008   
  12.5            1.4264e-008     -1.4242e-008   
  12.4            1.3316e-008     -1.3368e-008   
  12.3            1.2488e-008     -1.2472e-008   
  12.2            1.1752e-008     -1.1734e-008   
  12.1            1.108e-008      -1.1052e-008   
  12              1.0462e-008     -1.043e-008    
  11.9            9.89e-009       -9.86e-009     
  11.8            9.358e-009      -9.374e-009    
  11.7            8.889e-009      -8.886e-009    
  11.6            8.4454e-009     -8.4468e-009   
  11.5            8.0548e-009     -8.0282e-009   
  11.4            7.6696e-009     -7.6458e-009   
  11.3            7.3288e-009     -7.3068e-009   
  11.2            7.009e-009      -6.9802e-009   
  11.1            6.7044e-009     -6.669e-009    
  11              6.4186e-009     -6.3886e-009   
  10.9            6.1606e-009     -6.1262e-009   
  10.8            5.9196e-009     -5.883e-009    
  10.7            5.6882e-009     -5.6504e-009   
  10.6            5.4664e-009     -5.4364e-009   
  10.5            5.252e-009      -5.2096e-009   
  10.4            5.0644e-009     -5.0236e-009   
  10.3            4.88e-009       -4.8424e-009   
  10.2            4.6968e-009     -4.658e-009    
  10.1            4.5318e-009     -4.488e-009    
  10              4.3724e-009     -4.3302e-009   
  9.9             4.2162e-009     -4.1752e-009   
  9.8             4.0664e-009     -4.0176e-009   
  9.7             3.936e-009      -3.8986e-009   
  9.6             3.8122e-009     -3.7606e-009   
  9.5             3.6908e-009     -3.6414e-009   
  9.4             3.574e-009      -3.5324e-009   
  9.3             3.466e-009      -3.415e-009    
  9.2             3.3552e-009     -3.2998e-009   
  9.1             3.2524e-009     -3.2096e-009   
  9               3.1528e-009     -3.1026e-009   
  8.9             3.0634e-009     -3.0114e-009   
  8.8             2.9752e-009     -2.9376e-009   
  8.7             2.888e-009      -2.8332e-009   
  8.6             2.8038e-009     -2.7524e-009   
  8.5             2.716e-009      -2.679e-009    
  8.4             2.6382e-009     -2.5946e-009   
  8.3             2.563e-009      -2.5102e-009   
  8.2             2.4964e-009     -2.4584e-009   
  8.1             2.4256e-009     -2.3816e-009   
  8               2.3602e-009     -2.3136e-009   
  7.9             2.2978e-009     -2.2546e-009   
  7.8             2.238e-009      -2.1866e-009   
  7.7             2.1798e-009     -2.1316e-009   
  7.6             2.122e-009      -2.073e-009    
  7.5             2.063e-009      -2.0104e-009   
  7.4             2.0138e-009     -1.9628e-009   
  7.3             1.96e-009       -1.9142e-009   
  7.2             1.907e-009      -1.849e-009    
  7.1             1.8568e-009     -1.8026e-009   
  7               1.8088e-009     -1.7634e-009   
  6.9             1.765e-009      -1.7074e-009   
  6.8             1.722e-009      -1.664e-009    
  6.7             1.6796e-009     -1.6302e-009   
  6.6             1.6392e-009     -1.5864e-009   
  6.5             1.5998e-009     -1.5462e-009   
  6.4             1.56e-009       -1.5032e-009   
  6.3             1.5226e-009     -1.4704e-009   
  6.2             1.4862e-009     -1.4354e-009   
  6.1             1.4488e-009     -1.4026e-009   
  6               1.419e-009      -1.3592e-009   
  5.9             1.3846e-009     -1.3342e-009   
  5.8             1.3562e-009     -1.3156e-009   
  5.7             1.327e-009      -1.2716e-009   
  5.6             1.2974e-009     -1.2378e-009   
  5.5             1.2694e-009     -1.2292e-009   
  5.4             1.2436e-009     -1.1876e-009   
  5.3             1.2152e-009     -1.1592e-009   
  5.2             1.1904e-009     -1.1404e-009   
  5.1             1.1656e-009     -1.1196e-009   
  5               1.14e-009       -1.0888e-009   
  4.9             1.1154e-009     -1.0646e-009   
  4.8             1.0928e-009     -1.0332e-009   
  4.7             1.0728e-009     -1.023e-009    
  4.6             1.0522e-009     -1.0034e-009   
  4.5             1.0322e-009     -9.71e-010     
  4.4             1.0114e-009     -9.592e-010    
  4.3             9.9166e-010     -9.406e-010    
  4.2             9.7124e-010     -9.302e-010    
  4.1             9.5372e-010     -8.998e-010    
  4               9.365e-010      -9.018e-010    
  3.9             9.1876e-010     -8.856e-010    
  3.8             9.0394e-010     -8.644e-010    
  3.7             8.8956e-010     -8.506e-010    
  3.6             8.7558e-010     -8.424e-010    
  3.5             8.6056e-010     -8.216e-010    
  3.4             8.4536e-010     -8.06e-010     
  3.3             8.3084e-010     -7.858e-010    
  3.2             8.1596e-010     -7.756e-010    
  3.1             8.0264e-010     -7.652e-010    
  3               7.8896e-010     -7.422e-010    
  2.9             7.7626e-010     -7.442e-010    
  2.8             7.6352e-010     -7.212e-010    
  2.7             7.4944e-010     -7.084e-010    
  2.6             7.3746e-010     -6.98e-010     
  2.5             7.2514e-010     -6.776e-010    
  2.4             7.122e-010      -6.736e-010    
  2.3             6.994e-010      -6.62e-010     
  2.2             6.8492e-010     -6.488e-010    
  2.1             6.7288e-010     -6.406e-010    
  2               6.5892e-010     -6.168e-010    
  1.9             6.4628e-010     -6.3072e-010   
  1.8             6.325e-010      -5.8548e-010   
  1.7             6.1718e-010     -5.7144e-010   
  1.6             6.0244e-010     -5.6042e-010   
  1.5             5.8682e-010     -5.392e-010    
  1.4             5.7052e-010     -5.197e-010    
  1.3             5.5464e-010     -5.1272e-010   
  1.2             5.3756e-010     -4.905e-010    
  1.1             5.2036e-010     -4.7664e-010   
  1               5.0298e-010     -4.566e-010    
  0.9             4.8406e-010     -4.3932e-010   
  0.8             4.652e-010      -4.1592e-010   
  0.7             4.4574e-010     -3.9132e-010   
  0.6             4.2538e-010     -3.7886e-010   
  0.5             4.0264e-010     -3.5424e-010   
  0.4             3.771e-010      -3.287e-010    
  0.3             3.478e-010      -2.9918e-010   
  0.2             3.0986e-010     -2.7282e-010   
  0.1             2.45e-010       -1.948e-010    
  0               -6.34e-012      5.268e-011     
END_DB

