! VERSION = 6.00
BEGIN_HEADER
 ICCAP_INPUTS
  vc         V  cathode GROUND SMU1 0.1 CON        0
  va         V  anode GROUND SMU2 0.1 LIN        1    0          -1         51   -0.02     
 ICCAP_OUTPUTS
  ia         I  anode GROUND SMU2 B
  ic         I  cathode GROUND SMU1 B
 ICCAP_VALUES
  DataOrigin "Measure"
  ___CONTEXT ""
  Date "Jan 13 Thu 19:37:02 2022"
  Version "WaferPro.2016.01"
  Bench "B1500_B2200"
  Temperature "125"
  Lot "M135205"
  Reticle "M135205"
  Wafer "01D2"
  Die "X-3-Y0"
  DieList "TargetDie"
  Block "WholeDie"
  Subsite "diod1-5V"
  Routine "DIODE_EXTR_Measure"
  MeasCond "Set1"
  Device "11"
  DeviceName "ndiode_Dn5_A320B640"
  DevTechno "DIO"
  DevPolarity "N"
  Setup "iv_fwd"
  Type "1"
  ___SPICE_INSTANCE ""
  A "3.2E-005"
  B "6.4E-005"
  ___TECHNO_INSTANCE ""
  ___CALIBRATION ""
END_HEADER

BEGIN_DB
 ICCAP_VAR vc         0              

 #va              ia              ic             
  0               -1.4e-013       2.118e-011     
  -0.02           -6.898e-011     7.754e-011     
  -0.04           -1.7864e-010    1.951e-010     
  -0.06           -3.5574e-010    3.6602e-010    
  -0.08           -6.4166e-010    6.4724e-010    
  -0.1            -1.1054e-009    1.1182e-009    
  -0.12           -1.8692e-009    1.8734e-009    
  -0.14           -3.1188e-009    3.1248e-009    
  -0.16           -5.1794e-009    5.185e-009     
  -0.18           -8.573e-009     8.5774e-009    
  -0.2            -1.4208e-008    1.4202e-008    
  -0.22           -2.3558e-008    2.3526e-008    
  -0.24           -3.9252e-008    3.9168e-008    
  -0.26           -6.54e-008      6.5278e-008    
  -0.28           -1.0935e-007    1.09138e-007   
  -0.3            -1.8374e-007    1.8376e-007    
  -0.32           -3.0882e-007    3.0842e-007    
  -0.34           -5.2024e-007    5.1986e-007    
  -0.36           -8.749e-007     8.7468e-007    
  -0.38           -1.462e-006     1.464e-006     
  -0.4            -2.4386e-006    2.4392e-006    
  -0.42           -4.037e-006     4.0378e-006    
  -0.44           -6.616e-006     6.6174e-006    
  -0.46           -1.0771e-005    1.07722e-005   
  -0.48           -1.7344e-005    1.7366e-005    
  -0.5            -2.7784e-005    2.7796e-005    
  -0.52           -4.412e-005     4.4132e-005    
  -0.54           -6.92e-005      6.9218e-005    
  -0.56           -0.000107268    0.000107276    
  -0.58           -0.00016312     0.00016324     
  -0.6            -0.00024214     0.00024224     
  -0.62           -0.00034982     0.00034988     
  -0.64           -0.00048916     0.00048922     
  -0.66           -0.00066268     0.0006627      
  -0.68           -0.00086914     0.00086916     
  -0.7            -0.00110828     0.0011084      
  -0.72           -0.0013762      0.0013774      
  -0.74           -0.0016732      0.0016742      
  -0.76           -0.0019938      0.0019952      
  -0.78           -0.0023368      0.002338       
  -0.8            -0.0027024      0.0027034      
  -0.82           -0.003085       0.0030862      
  -0.84           -0.0034866      0.0034874      
  -0.86           -0.003901       0.003902       
  -0.88           -0.0043308      0.0043328      
  -0.9            -0.0047716      0.0047732      
  -0.92           -0.0052272      0.005228       
  -0.94           -0.005692       0.0056914      
  -0.96           -0.0061664      0.0061678      
  -0.98           -0.0066456      0.0066484      
  -1              -0.0071396      0.0071396      
END_DB

