! VERSION = 6.00
BEGIN_HEADER
 ICCAP_INPUTS
  vc         V  cathode GROUND SMU1 0.1 CON        0
  va         V  anode GROUND SMU2 0.1 LIN        1    0          -1         51   -0.02     
 ICCAP_OUTPUTS
  ia         I  anode GROUND SMU2 B
  ic         I  cathode GROUND SMU1 B
 ICCAP_VALUES
  DataOrigin "Measure"
  ___CONTEXT ""
  Date "Jan 13 Thu 19:32:03 2022"
  Version "WaferPro.2016.01"
  Bench "B1500_B2200"
  Temperature "125"
  Lot "M135205"
  Reticle "M135205"
  Wafer "01D2"
  Die "X-3-Y0"
  DieList "TargetDie"
  Block "WholeDie"
  Subsite "diod1-5V"
  Routine "DIODE_EXTR_Measure"
  MeasCond "Set1"
  Device "9"
  DeviceName "ndiode_Dn5_A128B640"
  DevTechno "DIO"
  DevPolarity "N"
  Setup "iv_fwd"
  Type "1"
  ___SPICE_INSTANCE ""
  A "1.28E-006"
  B "6.4E-005"
  ___TECHNO_INSTANCE ""
  ___CALIBRATION ""
END_HEADER

BEGIN_DB
 ICCAP_VAR vc         0              

 #va              ia              ic             
  0               -2e-013         5.444e-011     
  -0.02           -7.48e-011      8.822e-011     
  -0.04           -1.8966e-010    2.0226e-010    
  -0.06           -3.6772e-010    3.8086e-010    
  -0.08           -6.4372e-010    6.4438e-010    
  -0.1            -1.0702e-009    1.075e-009     
  -0.12           -1.7352e-009    1.7306e-009    
  -0.14           -2.76e-009      2.741e-009     
  -0.16           -4.3438e-009    4.377e-009     
  -0.18           -6.7836e-009    6.7702e-009    
  -0.2            -1.05684e-008   1.05514e-008   
  -0.22           -1.6394e-008    1.644e-008     
  -0.24           -2.5522e-008    2.545e-008     
  -0.26           -3.9782e-008    3.9712e-008    
  -0.28           -6.224e-008     6.2146e-008    
  -0.3            -9.8182e-008    9.8054e-008    
  -0.32           -1.5558e-007    1.5568e-007    
  -0.34           -2.49e-007      2.4896e-007    
  -0.36           -4.0156e-007    4.0142e-007    
  -0.38           -6.5078e-007    6.506e-007     
  -0.4            -1.0635e-006    1.06312e-006   
  -0.42           -1.7436e-006    1.7458e-006    
  -0.44           -2.8624e-006    2.8628e-006    
  -0.46           -4.705e-006     4.7056e-006    
  -0.48           -7.6914e-006    7.6918e-006    
  -0.5            -1.2532e-005    1.2552e-005    
  -0.52           -2.0296e-005    2.0308e-005    
  -0.54           -3.2524e-005    3.254e-005     
  -0.56           -5.1678e-005    5.1686e-005    
  -0.58           -8.1038e-005    8.105e-005     
  -0.6            -0.00012478     0.00012488     
  -0.62           -0.00018882     0.00018894     
  -0.64           -0.00027892     0.00027904     
  -0.66           -0.00040194     0.00040206     
  -0.68           -0.00056276     0.00056288     
  -0.7            -0.00076708     0.00076718     
  -0.72           -0.00101656     0.00101666     
  -0.74           -0.0013138      0.0013152      
  -0.76           -0.001658       0.001659       
  -0.78           -0.002047       0.0020482      
  -0.8            -0.0024818      0.0024828      
  -0.82           -0.002955       0.0029562      
  -0.84           -0.0034676      0.0034686      
  -0.86           -0.0040116      0.0040126      
  -0.88           -0.0045882      0.0045894      
  -0.9            -0.0051902      0.0051914      
  -0.92           -0.0058196      0.0058204      
  -0.94           -0.006468       0.0064694      
  -0.96           -0.0071398      0.0071404      
  -0.98           -0.0078266      0.0078278      
  -1              -0.0085324      0.0085332      
END_DB

