! VERSION = 6.00
BEGIN_HEADER
 ICCAP_INPUTS
  vc         V  cathode GROUND SMU1 0.1 CON        0
  va         V  anode GROUND SMU2 0.1 LIN        1    15         0          151  -0.1      
 ICCAP_OUTPUTS
  ia         I  anode GROUND SMU2 B
  ic         I  cathode GROUND SMU1 B
 ICCAP_VALUES
  DataOrigin "Measure"
  ___CONTEXT ""
  Date "Jan 13 Thu 19:29:33 2022"
  Version "WaferPro.2016.01"
  Bench "B1500_B2200"
  Temperature "125"
  Lot "M135205"
  Reticle "M135205"
  Wafer "01D2"
  Die "X-3-Y0"
  DieList "TargetDie"
  Block "WholeDie"
  Subsite "diod1-5V"
  Routine "DIODE_EXTR_Measure"
  MeasCond "Set1"
  Device "8"
  DeviceName "ndiode_Dn5_A064B640"
  DevTechno "DIO"
  DevPolarity "N"
  Setup "iv_rev"
  Type "1"
  ___SPICE_INSTANCE ""
  A "6.4E-007"
  B "6.4E-005"
  ___TECHNO_INSTANCE ""
  ___CALIBRATION ""
END_HEADER

BEGIN_DB
 ICCAP_VAR vc         0              

 #va              ia              ic             
  15              0.0040608       -0.0041664     
  14.9            0.003468        -0.0035064     
  14.8            0.0029056       -0.0029298     
  14.7            0.0023566       -0.002373      
  14.6            0.0018126       -0.0018248     
  14.5            0.0012578       -0.0012676     
  14.4            0.00065506      -0.0006665     
  14.3            3.9154e-005     -4.4456e-005   
  14.2            6.5586e-007     -7.2968e-007   
  14.1            2.4472e-007     -2.5092e-007   
  14              1.4762e-007     -1.4978e-007   
  13.9            1.0506e-007     -1.062e-007    
  13.8            8.1068e-008     -8.1916e-008   
  13.7            6.605e-008      -6.6468e-008   
  13.6            5.57e-008       -5.601e-008    
  13.5            4.7808e-008     -4.8082e-008   
  13.4            4.1796e-008     -4.1952e-008   
  13.3            3.7228e-008     -3.729e-008    
  13.2            3.3314e-008     -3.3458e-008   
  13.1            3.0174e-008     -3.0268e-008   
  13              2.7504e-008     -2.7532e-008   
  12.9            2.517e-008      -2.523e-008    
  12.8            2.3242e-008     -2.3266e-008   
  12.7            2.1508e-008     -2.1526e-008   
  12.6            1.9948e-008     -1.9974e-008   
  12.5            1.8588e-008     -1.8616e-008   
  12.4            1.7392e-008     -1.7402e-008   
  12.3            1.6326e-008     -1.6324e-008   
  12.2            1.5384e-008     -1.5354e-008   
  12.1            1.4482e-008     -1.446e-008    
  12              1.3688e-008     -1.3666e-008   
  11.9            1.2938e-008     -1.2936e-008   
  11.8            1.2258e-008     -1.2234e-008   
  11.7            1.1638e-008     -1.1596e-008   
  11.6            1.1058e-008     -1.1018e-008   
  11.5            1.0558e-008     -1.051e-008    
  11.4            1.0104e-008     -1.0048e-008   
  11.3            9.6216e-009     -9.582e-009    
  11.2            9.1634e-009     -9.1458e-009   
  11.1            8.776e-009      -8.7376e-009   
  11              8.4024e-009     -8.3634e-009   
  10.9            8.0496e-009     -8.0276e-009   
  10.8            7.7228e-009     -7.7032e-009   
  10.7            7.4034e-009     -7.366e-009    
  10.6            7.1284e-009     -7.0914e-009   
  10.5            6.8442e-009     -6.8062e-009   
  10.4            6.5892e-009     -6.551e-009    
  10.3            6.3612e-009     -6.3206e-009   
  10.2            6.1234e-009     -6.078e-009    
  10.1            5.914e-009      -5.8606e-009   
  10              5.7022e-009     -5.6758e-009   
  9.9             5.495e-009      -5.4558e-009   
  9.8             5.31e-009       -5.2656e-009   
  9.7             5.147e-009      -5.1096e-009   
  9.6             4.9714e-009     -4.9224e-009   
  9.5             4.8144e-009     -4.7636e-009   
  9.4             4.6634e-009     -4.619e-009    
  9.3             4.526e-009      -4.4714e-009   
  9.2             4.3768e-009     -4.3254e-009   
  9.1             4.2392e-009     -4.2002e-009   
  9               4.122e-009      -4.0662e-009   
  8.9             3.9874e-009     -3.9404e-009   
  8.8             3.8704e-009     -3.8324e-009   
  8.7             3.758e-009      -3.7108e-009   
  8.6             3.6546e-009     -3.6084e-009   
  8.5             3.5514e-009     -3.5016e-009   
  8.4             3.4558e-009     -3.4086e-009   
  8.3             3.356e-009      -3.3078e-009   
  8.2             3.267e-009      -3.2212e-009   
  8.1             3.1748e-009     -3.1234e-009   
  8               3.088e-009      -3.0446e-009   
  7.9             3.0008e-009     -2.9558e-009   
  7.8             2.926e-009      -2.8766e-009   
  7.7             2.8488e-009     -2.7996e-009   
  7.6             2.7762e-009     -2.7328e-009   
  7.5             2.6978e-009     -2.6446e-009   
  7.4             2.6244e-009     -2.574e-009    
  7.3             2.5616e-009     -2.5156e-009   
  7.2             2.4958e-009     -2.4374e-009   
  7.1             2.4346e-009     -2.3782e-009   
  7               2.3712e-009     -2.3242e-009   
  6.9             2.3176e-009     -2.2618e-009   
  6.8             2.26e-009       -2.2032e-009   
  6.7             2.2026e-009     -2.149e-009    
  6.6             2.146e-009      -2.0976e-009   
  6.5             2.0946e-009     -2.0474e-009   
  6.4             2.0432e-009     -1.9918e-009   
  6.3             1.9996e-009     -1.9394e-009   
  6.2             1.9532e-009     -1.8996e-009   
  6.1             1.9084e-009     -1.8624e-009   
  6               1.8646e-009     -1.807e-009    
  5.9             1.8174e-009     -1.775e-009    
  5.8             1.7794e-009     -1.7336e-009   
  5.7             1.7418e-009     -1.6884e-009   
  5.6             1.7036e-009     -1.651e-009    
  5.5             1.667e-009      -1.5734e-009   
  5.4             1.6302e-009     -1.5764e-009   
  5.3             1.598e-009      -1.5424e-009   
  5.2             1.5616e-009     -1.5104e-009   
  5.1             1.5276e-009     -1.4762e-009   
  5               1.497e-009      -1.4446e-009   
  4.9             1.4664e-009     -1.4102e-009   
  4.8             1.4364e-009     -1.3808e-009   
  4.7             1.406e-009      -1.3534e-009   
  4.6             1.3808e-009     -1.3274e-009   
  4.5             1.3518e-009     -1.2968e-009   
  4.4             1.3256e-009     -1.265e-009    
  4.3             1.3006e-009     -1.246e-009    
  4.2             1.2756e-009     -1.2216e-009   
  4.1             1.251e-009      -1.1958e-009   
  4               1.2282e-009     -1.1724e-009   
  3.9             1.2056e-009     -1.1528e-009   
  3.8             1.1822e-009     -1.135e-009    
  3.7             1.1612e-009     -1.1058e-009   
  3.6             1.1408e-009     -1.0836e-009   
  3.5             1.1208e-009     -1.0696e-009   
  3.4             1.1e-009        -1.0552e-009   
  3.3             1.0826e-009     -1.026e-009    
  3.2             1.063e-009      -1.012e-009    
  3.1             1.0456e-009     -9.956e-010    
  3               1.0278e-009     -9.75e-010     
  2.9             1.011e-009      -9.654e-010    
  2.8             9.938e-010      -9.404e-010    
  2.7             9.794e-010      -9.268e-010    
  2.6             9.6034e-010     -9.12e-010     
  2.5             9.4608e-010     -9.09e-010     
  2.4             9.2874e-010     -8.846e-010    
  2.3             9.1218e-010     -8.638e-010    
  2.2             8.9574e-010     -8.528e-010    
  2.1             8.8028e-010     -8.354e-010    
  2               8.6376e-010     -8.164e-010    
  1.9             8.4676e-010     -8.148e-010    
  1.8             8.2872e-010     -7.84e-010     
  1.7             8.111e-010      -7.642e-010    
  1.6             7.9202e-010     -7.498e-010    
  1.5             7.72e-010       -7.358e-010    
  1.4             7.5268e-010     -7.142e-010    
  1.3             7.3194e-010     -6.976e-010    
  1.2             7.1018e-010     -6.782e-010    
  1.1             6.8938e-010     -6.472e-010    
  1               6.6702e-010     -6.232e-010    
  0.9             6.4332e-010     -6.116e-010    
  0.8             6.2032e-010     -5.728e-010    
  0.7             5.9504e-010     -5.6654e-010   
  0.6             5.678e-010      -5.254e-010    
  0.5             5.3976e-010     -4.9768e-010   
  0.4             5.0852e-010     -4.5478e-010   
  0.3             4.7168e-010     -4.2468e-010   
  0.2             4.2474e-010     -3.734e-010    
  0.1             3.3648e-010     -2.8658e-010   
  0               -9.02e-012      4.954e-011     
END_DB

