! VERSION = 6.00
BEGIN_HEADER
 ICCAP_INPUTS
  vc         V  cathode GROUND SMU1 0.1 CON        0
  va         V  anode GROUND SMU2 0.1 LIN        1    0          -1         51   -0.02     
 ICCAP_OUTPUTS
  ia         I  anode GROUND SMU2 B
  ic         I  cathode GROUND SMU1 B
 ICCAP_VALUES
  DataOrigin "Measure"
  ___CONTEXT ""
  Date "Jan 13 Thu 19:17:02 2022"
  Version "WaferPro.2016.01"
  Bench "B1500_B2200"
  Temperature "125"
  Lot "M135205"
  Reticle "M135205"
  Wafer "01D2"
  Die "X-3-Y0"
  DieList "TargetDie"
  Block "WholeDie"
  Subsite "diod1-5V"
  Routine "DIODE_EXTR_Measure"
  MeasCond "Set1"
  Device "3"
  DeviceName "ndiode_Dn5_A032B320"
  DevTechno "DIO"
  DevPolarity "N"
  Setup "iv_fwd"
  Type "1"
  ___SPICE_INSTANCE ""
  A "3.2E-007"
  B "3.2E-005"
  ___TECHNO_INSTANCE ""
  ___CALIBRATION ""
END_HEADER

BEGIN_DB
 ICCAP_VAR vc         0              

 #va              ia              ic             
  0               -1.1e-012       3.06e-011      
  -0.02           -4.968e-011     6.226e-011     
  -0.04           -1.2326e-010    1.3596e-010    
  -0.06           -2.3592e-010    2.51e-010      
  -0.08           -4.0812e-010    4.2232e-010    
  -0.1            -6.7084e-010    6.8878e-010    
  -0.12           -1.0682e-009    1.0736e-009    
  -0.14           -1.6704e-009    1.6778e-009    
  -0.16           -2.5842e-009    2.6e-009       
  -0.18           -3.9522e-009    3.9698e-009    
  -0.2            -6.0376e-009    6.0448e-009    
  -0.22           -9.1716e-009    9.1732e-009    
  -0.24           -1.3932e-008    1.3954e-008    
  -0.26           -2.1186e-008    2.119e-008     
  -0.28           -3.2242e-008    3.2268e-008    
  -0.3            -4.9444e-008    4.944e-008     
  -0.32           -7.617e-008     7.609e-008     
  -0.34           -1.1832e-007    1.1836e-007    
  -0.36           -1.855e-007     1.8538e-007    
  -0.38           -2.9286e-007    2.926e-007     
  -0.4            -4.6736e-007    4.6684e-007    
  -0.42           -7.5188e-007    7.5128e-007    
  -0.44           -1.2164e-006    1.2176e-006    
  -0.46           -1.9822e-006    1.9822e-006    
  -0.48           -3.2324e-006    3.232e-006     
  -0.5            -5.2826e-006    5.2844e-006    
  -0.52           -8.6096e-006    8.6122e-006    
  -0.54           -1.3906e-005    1.393e-005     
  -0.56           -2.2324e-005    2.234e-005     
  -0.58           -3.535e-005     3.5366e-005    
  -0.6            -5.4902e-005    5.4918e-005    
  -0.62           -8.3554e-005    8.3582e-005    
  -0.64           -0.00012374     0.00012388     
  -0.66           -0.00017864     0.0001788      
  -0.68           -0.00025012     0.0002503      
  -0.7            -0.00034046     0.00034066     
  -0.72           -0.00045044     0.00045056     
  -0.74           -0.00058094     0.00058112     
  -0.76           -0.00073128     0.0007314      
  -0.78           -0.00090068     0.00090084     
  -0.8            -0.00109006     0.00108994     
  -0.82           -0.0012956      0.0012972      
  -0.84           -0.0015204      0.0015216      
  -0.86           -0.0017588      0.0017602      
  -0.88           -0.0020126      0.0020136      
  -0.9            -0.0022786      0.0022794      
  -0.92           -0.0025576      0.0025578      
  -0.94           -0.0028462      0.0028478      
  -0.96           -0.0031474      0.003148       
  -0.98           -0.0034532      0.003455       
  -1              -0.0037748      0.0037744      
END_DB

