! VERSION = 6.00
BEGIN_HEADER
 ICCAP_INPUTS
  vc         V  cathode GROUND SMU1 0.1 CON        0
  va         V  anode GROUND SMU2 0.1 LIN        1    0          -1         51   -0.02     
 ICCAP_OUTPUTS
  ia         I  anode GROUND SMU2 B
  ic         I  cathode GROUND SMU1 B
 ICCAP_VALUES
  DataOrigin "Measure"
  ___CONTEXT ""
  Date "Jan 13 Thu 19:14:31 2022"
  Version "WaferPro.2016.01"
  Bench "B1500_B2200"
  Temperature "125"
  Lot "M135205"
  Reticle "M135205"
  Wafer "01D2"
  Die "X-3-Y0"
  DieList "TargetDie"
  Block "WholeDie"
  Subsite "diod1-5V"
  Routine "DIODE_EXTR_Measure"
  MeasCond "Set1"
  Device "2"
  DeviceName "ndiode_Dn5_A032B32"
  DevTechno "DIO"
  DevPolarity "N"
  Setup "iv_fwd"
  Type "1"
  ___SPICE_INSTANCE ""
  A "3.2E-007"
  B "3.2E-006"
  ___TECHNO_INSTANCE ""
  ___CALIBRATION ""
END_HEADER

BEGIN_DB
 ICCAP_VAR vc         0              

 #va              ia              ic             
  0               2e-013          1.636e-011     
  -0.02           -5.36e-012      1.72e-011      
  -0.04           -1.354e-011     5.324e-011     
  -0.06           -2.598e-011     3.164e-011     
  -0.08           -4.48e-011      5.596e-011     
  -0.1            -7.456e-011     8.868e-011     
  -0.12           -1.2032e-010    1.2526e-010    
  -0.14           -1.9074e-010    2.028e-010     
  -0.16           -2.98e-010      3.085e-010     
  -0.18           -4.6164e-010    4.6698e-010    
  -0.2            -7.1194e-010    7.2164e-010    
  -0.22           -1.0878e-009    1.0856e-009    
  -0.24           -1.6744e-009    1.6778e-009    
  -0.26           -2.5796e-009    2.583e-009     
  -0.28           -3.984e-009     3.9644e-009    
  -0.3            -6.1656e-009    6.1292e-009    
  -0.32           -9.6144e-009    9.5496e-009    
  -0.34           -1.508e-008     1.4984e-008    
  -0.36           -2.3884e-008    2.3734e-008    
  -0.38           -3.803e-008     3.7846e-008    
  -0.4            -6.1328e-008    6.111e-008     
  -0.42           -9.9668e-008    9.9376e-008    
  -0.44           -1.6318e-007    1.633e-007     
  -0.46           -2.6964e-007    2.696e-007     
  -0.48           -4.4712e-007    4.4702e-007    
  -0.5            -7.471e-007     7.471e-007     
  -0.52           -1.2488e-006    1.2514e-006    
  -0.54           -2.0892e-006    2.0902e-006    
  -0.56           -3.4898e-006    3.4912e-006    
  -0.58           -5.7848e-006    5.7868e-006    
  -0.6            -9.4608e-006    9.463e-006     
  -0.62           -1.5226e-005    1.5252e-005    
  -0.64           -2.3992e-005    2.401e-005     
  -0.66           -3.6918e-005    3.6942e-005    
  -0.68           -5.52e-005      5.5224e-005    
  -0.7            -8.0344e-005    8.0388e-005    
  -0.72           -0.00011363     0.000113672    
  -0.74           -0.00015656     0.00015672     
  -0.76           -0.00021052     0.00021068     
  -0.78           -0.00027668     0.00027686     
  -0.8            -0.00035666     0.00035684     
  -0.82           -0.00045072     0.00045092     
  -0.84           -0.0005604      0.00056058     
  -0.86           -0.0006856      0.00068574     
  -0.88           -0.00082772     0.00082788     
  -0.9            -0.00098614     0.00098624     
  -0.92           -0.0011616      0.0011628      
  -0.94           -0.0013542      0.0013556      
  -0.96           -0.0015648      0.001566       
  -0.98           -0.0017918      0.0017932      
  -1              -0.0020368      0.002038       
END_DB

