! VERSION = 6.00
BEGIN_HEADER
 ICCAP_INPUTS
  vc         V  cathode GROUND SMU1 0.1 CON        0
  va         V  anode GROUND SMU2 0.1 LIN        1    15         0          151  -0.1      
 ICCAP_OUTPUTS
  ia         I  anode GROUND SMU2 B
  ic         I  cathode GROUND SMU1 B
 ICCAP_VALUES
  DataOrigin "Measure"
  ___CONTEXT ""
  Date "Jan 13 Thu 19:14:31 2022"
  Version "WaferPro.2016.01"
  Bench "B1500_B2200"
  Temperature "125"
  Lot "M135205"
  Reticle "M135205"
  Wafer "01D2"
  Die "X-3-Y0"
  DieList "TargetDie"
  Block "WholeDie"
  Subsite "diod1-5V"
  Routine "DIODE_EXTR_Measure"
  MeasCond "Set1"
  Device "2"
  DeviceName "ndiode_Dn5_A032B32"
  DevTechno "DIO"
  DevPolarity "N"
  Setup "iv_rev"
  Type "1"
  ___SPICE_INSTANCE ""
  A "3.2E-007"
  B "3.2E-006"
  ___TECHNO_INSTANCE ""
  ___CALIBRATION ""
END_HEADER

BEGIN_DB
 ICCAP_VAR vc         0              

 #va              ia              ic             
  15              0.00017492      -0.00018964    
  14.9            0.00013316      -0.0001384     
  14.8            9.5688e-005     -0.0001003     
  14.7            5.9088e-005     -6.1176e-005   
  14.6            2.1744e-005     -2.4724e-005   
  14.5            1.956e-007      -3.1112e-007   
  14.4            3.8508e-008     -4.1824e-008   
  14.3            2.0424e-008     -2.1188e-008   
  14.2            1.3664e-008     -1.4118e-008   
  14.1            9.686e-009      -1.03e-008     
  14              7.2468e-009     -7.5606e-009   
  13.9            5.9316e-009     -6.0242e-009   
  13.8            4.9414e-009     -5.0108e-009   
  13.7            4.275e-009      -4.2874e-009   
  13.6            3.7438e-009     -3.7276e-009   
  13.5            3.3394e-009     -3.3166e-009   
  13.4            2.9784e-009     -2.9678e-009   
  13.3            2.7098e-009     -2.6766e-009   
  13.2            2.4538e-009     -2.4244e-009   
  13.1            2.2322e-009     -2.2498e-009   
  13              2.0384e-009     -2.0386e-009   
  12.9            1.8714e-009     -1.8692e-009   
  12.8            1.7502e-009     -1.7336e-009   
  12.7            1.608e-009      -1.6068e-009   
  12.6            1.4998e-009     -1.4856e-009   
  12.5            1.3958e-009     -1.377e-009    
  12.4            1.305e-009      -1.2852e-009   
  12.3            1.228e-009      -1.2198e-009   
  12.2            1.1448e-009     -1.1178e-009   
  12.1            1.0868e-009     -1.0646e-009   
  12              1.0376e-009     -1.0216e-009   
  11.9            9.7112e-010     -9.566e-010    
  11.8            9.185e-010      -8.954e-010    
  11.7            8.7698e-010     -8.612e-010    
  11.6            8.2236e-010     -8.11e-010     
  11.5            7.8856e-010     -7.666e-010    
  11.4            7.4956e-010     -7.332e-010    
  11.3            7.13e-010       -6.98e-010     
  11.2            6.7858e-010     -6.532e-010    
  11.1            6.4876e-010     -6.284e-010    
  11              6.2636e-010     -5.968e-010    
  10.9            6.0178e-010     -5.9618e-010   
  10.8            5.7464e-010     -5.4766e-010   
  10.7            5.5458e-010     -5.2356e-010   
  10.6            5.297e-010      -4.9816e-010   
  10.5            5.0708e-010     -4.6826e-010   
  10.4            4.8988e-010     -4.7304e-010   
  10.3            4.7068e-010     -4.4836e-010   
  10.2            4.534e-010      -4.227e-010    
  10.1            4.404e-010      -3.9694e-010   
  10              4.242e-010      -3.865e-010    
  9.9             4.0906e-010     -3.6794e-010   
  9.8             3.9342e-010     -3.8702e-010   
  9.7             3.7582e-010     -3.4872e-010   
  9.6             3.6772e-010     -3.234e-010    
  9.5             3.566e-010      -3.0684e-010   
  9.4             3.4334e-010     -3.099e-010    
  9.3             3.3466e-010     -2.901e-010    
  9.2             3.2402e-010     -2.844e-010    
  9.1             3.1584e-010     -2.6812e-010   
  9               3.0556e-010     -2.656e-010    
  8.9             2.945e-010      -2.5946e-010   
  8.8             2.881e-010      -2.4174e-010   
  8.7             2.7918e-010     -2.2952e-010   
  8.6             2.7144e-010     -2.18e-010     
  8.5             2.6378e-010     -2.2752e-010   
  8.4             2.5726e-010     -2.0704e-010   
  8.3             2.4924e-010     -2.0878e-010   
  8.2             2.4318e-010     -1.958e-010    
  8.1             2.3542e-010     -1.915e-010    
  8               2.2868e-010     -1.808e-010    
  7.9             2.2132e-010     -1.6814e-010   
  7.8             2.1704e-010     -1.6316e-010   
  7.7             2.1078e-010     -1.6152e-010   
  7.6             2.0488e-010     -1.5854e-010   
  7.5             1.9902e-010     -1.528e-010    
  7.4             1.9394e-010     -1.4928e-010   
  7.3             1.895e-010      -1.3872e-010   
  7.2             1.8456e-010     -1.3822e-010   
  7.1             1.8086e-010     -1.2732e-010   
  7               1.7604e-010     -1.2878e-010   
  6.9             1.7238e-010     -1.1402e-010   
  6.8             1.6792e-010     -1.1792e-010   
  6.7             1.6388e-010     -1.1558e-010   
  6.6             1.6122e-010     -1.1116e-010   
  6.5             1.5676e-010     -1.0768e-010   
  6.4             1.5398e-010     -1.0546e-010   
  6.3             1.4862e-010     -1.0446e-010   
  6.2             1.4522e-010     -8.974e-011    
  6.1             1.4272e-010     -8.95e-011     
  6               1.3868e-010     -9.432e-011    
  5.9             1.3546e-010     -9.194e-011    
  5.8             1.3348e-010     -8.48e-011     
  5.7             1.3106e-010     -8.104e-011    
  5.6             1.2846e-010     -7.38e-011     
  5.5             1.251e-010      -7.826e-011    
  5.4             1.2208e-010     -6.39e-011     
  5.3             1.1924e-010     -6.482e-011    
  5.2             1.1672e-010     -6.574e-011    
  5.1             1.1372e-010     -5.932e-011    
  5               1.1218e-010     -6.538e-011    
  4.9             1.09e-010       -6.76e-011     
  4.8             1.073e-010      -5.668e-011    
  4.7             1.0474e-010     -4.702e-011    
  4.6             1.0216e-010     -5.158e-011    
  4.5             1.0024e-010     -4.974e-011    
  4.4             9.77e-011       -4.952e-011    
  4.3             9.594e-011      -4.266e-011    
  4.2             9.406e-011      -5.27e-011     
  4.1             9.204e-011      -7.93e-011     
  4               8.99e-011       -3.546e-011    
  3.9             8.898e-011      -3.168e-011    
  3.8             8.772e-011      -3.748e-011    
  3.7             8.572e-011      -4.626e-011    
  3.6             8.378e-011      -3.15e-011     
  3.5             8.254e-011      -2.99e-011     
  3.4             8.15e-011       -3.292e-011    
  3.3             7.984e-011      -2.98e-011     
  3.2             7.82e-011       -3.154e-011    
  3.1             7.682e-011      -5.446e-011    
  3               7.572e-011      -2.042e-011    
  2.9             7.464e-011      -2.492e-011    
  2.8             7.294e-011      -2.606e-011    
  2.7             7.114e-011      -1.976e-011    
  2.6             7.068e-011      -2.736e-011    
  2.5             6.952e-011      -1.668e-011    
  2.4             6.81e-011       -1.796e-011    
  2.3             6.648e-011      -1.488e-011    
  2.2             6.57e-011       -1.268e-011    
  2.1             6.474e-011      -7.02e-012     
  2               6.364e-011      -1.452e-011    
  1.9             6.204e-011      -1.92e-011     
  1.8             6.036e-011      -9.6e-012      
  1.7             5.95e-011       -1.972e-011    
  1.6             5.842e-011      -3.06e-012     
  1.5             5.68e-011       -6.68e-012     
  1.4             5.546e-011      4.14e-012      
  1.3             5.408e-011      -5.08e-012     
  1.2             5.348e-011      -6e-013        
  1.1             5.182e-011      -6.12e-012     
  1               5.038e-011      -2.2e-013      
  0.9             4.858e-011      -9.72e-012     
  0.8             4.76e-011       7.78e-012      
  0.7             4.572e-011      7.34e-012      
  0.6             4.34e-011       2.36e-012      
  0.5             4.082e-011      1.002e-011     
  0.4             3.9e-011        1.906e-011     
  0.3             3.672e-011      1.478e-011     
  0.2             3.318e-011      7.78e-012      
  0.1             2.64e-011       2.862e-011     
  0               -1.3e-012       5.47e-011      
END_DB

