! VERSION = 6.00
BEGIN_HEADER
 ICCAP_INPUTS
  vc         V  cathode GROUND SMU1 0.1 CON        0
  va         V  anode GROUND SMU2 0.1 LIN        1    0          -1         51   -0.02     
 ICCAP_OUTPUTS
  ia         I  anode GROUND SMU2 B
  ic         I  cathode GROUND SMU1 B
 ICCAP_VALUES
  DataOrigin "Measure"
  ___CONTEXT ""
  Date "Jan 13 Thu 19:27:04 2022"
  Version "WaferPro.2016.01"
  Bench "B1500_B2200"
  Temperature "125"
  Lot "M135205"
  Reticle "M135205"
  Wafer "01D2"
  Die "X-3-Y0"
  DieList "TargetDie"
  Block "WholeDie"
  Subsite "diod1-5V"
  Routine "DIODE_EXTR_Measure"
  MeasCond "Set1"
  Device "7"
  DeviceName "ndiode_Dn5_A032B640"
  DevTechno "DIO"
  DevPolarity "N"
  Setup "iv_fwd"
  Type "1"
  ___SPICE_INSTANCE ""
  A "3.2E-007"
  B "6.4E-005"
  ___TECHNO_INSTANCE ""
  ___CALIBRATION ""
END_HEADER

BEGIN_DB
 ICCAP_VAR vc         0              

 #va              ia              ic             
  0               -1e-012         3.322e-011     
  -0.02           -9.356e-011     1.0828e-010    
  -0.04           -2.3382e-010    2.474e-010     
  -0.06           -4.4858e-010    4.6438e-010    
  -0.08           -7.7446e-010    7.8558e-010    
  -0.1            -1.2712e-009    1.2788e-009    
  -0.12           -2.0296e-009    2.0298e-009    
  -0.14           -3.1746e-009    3.1744e-009    
  -0.16           -4.9126e-009    4.9054e-009    
  -0.18           -7.5298e-009    7.5184e-009    
  -0.2            -1.1498e-008    1.1502e-008    
  -0.22           -1.749e-008     1.741e-008     
  -0.24           -2.6614e-008    2.6506e-008    
  -0.26           -4.0498e-008    4.041e-008     
  -0.28           -6.178e-008     6.1722e-008    
  -0.3            -9.4786e-008    9.4772e-008    
  -0.32           -1.4592e-007    1.4608e-007    
  -0.34           -2.2674e-007    2.2678e-007    
  -0.36           -3.5496e-007    3.5502e-007    
  -0.38           -5.5918e-007    5.5898e-007    
  -0.4            -8.8938e-007    8.8928e-007    
  -0.42           -1.4254e-006    1.427e-006     
  -0.44           -2.2952e-006    2.2956e-006    
  -0.46           -3.7168e-006    3.7178e-006    
  -0.48           -6.0176e-006    6.0184e-006    
  -0.5            -9.7628e-006    9.7648e-006    
  -0.52           -1.5792e-005    1.5816e-005    
  -0.54           -2.5386e-005    2.5402e-005    
  -0.56           -4.0584e-005    4.0602e-005    
  -0.58           -6.4194e-005    6.4218e-005    
  -0.6            -0.00010004     0.000100054    
  -0.62           -0.00015336     0.00015352     
  -0.64           -0.00023048     0.00023062     
  -0.66           -0.00033902     0.00033918     
  -0.68           -0.0004861      0.00048626     
  -0.7            -0.00068068     0.00068082     
  -0.72           -0.00092906     0.00092924     
  -0.74           -0.0012392      0.0012406      
  -0.76           -0.0016158      0.001617       
  -0.78           -0.002062       0.0020634      
  -0.8            -0.0025836      0.0025848      
  -0.82           -0.0031754      0.0031768      
  -0.84           -0.0038406      0.003842       
  -0.86           -0.004571       0.0045722      
  -0.88           -0.005368       0.0053694      
  -0.9            -0.0062216      0.006223       
  -0.92           -0.0071334      0.0071348      
  -0.94           -0.008092       0.0080934      
  -0.96           -0.0091002      0.0091014      
  -0.98           -0.0101464      0.010148       
  -1              -0.0112356      0.011237       
END_DB

