! VERSION = 6.00
BEGIN_HEADER
 ICCAP_INPUTS
  vc         V  cathode GROUND SMU1 0.1 CON        0
  va         V  anode GROUND SMU2 0.1 LIN        1    15         0          151  -0.1      
 ICCAP_OUTPUTS
  ia         I  anode GROUND SMU2 B
  ic         I  cathode GROUND SMU1 B
 ICCAP_VALUES
  DataOrigin "Measure"
  ___CONTEXT ""
  Date "Jan 13 Thu 19:22:05 2022"
  Version "WaferPro.2016.01"
  Bench "B1500_B2200"
  Temperature "125"
  Lot "M135205"
  Reticle "M135205"
  Wafer "01D2"
  Die "X-3-Y0"
  DieList "TargetDie"
  Block "WholeDie"
  Subsite "diod1-5V"
  Routine "DIODE_EXTR_Measure"
  MeasCond "Set1"
  Device "5"
  DeviceName "ndiode_Dn5_A32B320"
  DevTechno "DIO"
  DevPolarity "N"
  Setup "iv_rev"
  Type "1"
  ___SPICE_INSTANCE ""
  A "3.2E-006"
  B "3.2E-005"
  ___TECHNO_INSTANCE ""
  ___CALIBRATION ""
END_HEADER

BEGIN_DB
 ICCAP_VAR vc         0              

 #va              ia              ic             
  15              0.0037924       -0.0038062     
  14.9            0.0034038       -0.0034068     
  14.8            0.0030186       -0.0030194     
  14.7            0.0026366       -0.0026362     
  14.6            0.0022606       -0.0022594     
  14.5            0.0018842       -0.0018826     
  14.4            0.0015124       -0.0015106     
  14.3            0.0011482       -0.0011462     
  14.2            0.00078688      -0.00078628    
  14.1            0.0004206       -0.00042002    
  14              8.754e-007      -8.493e-007    
  13.9            4.0856e-008     -4.1186e-008   
  13.8            2.874e-008      -2.9014e-008   
  13.7            2.2646e-008     -2.2762e-008   
  13.6            1.8728e-008     -1.8836e-008   
  13.5            1.5978e-008     -1.6014e-008   
  13.4            1.3914e-008     -1.3958e-008   
  13.3            1.2266e-008     -1.23e-008     
  13.2            1.0974e-008     -1.1002e-008   
  13.1            9.898e-009      -9.932e-009    
  13              8.9444e-009     -8.972e-009    
  12.9            8.146e-009      -8.1962e-009   
  12.8            7.4742e-009     -7.521e-009    
  12.7            6.913e-009      -6.9338e-009   
  12.6            6.4022e-009     -6.4194e-009   
  12.5            5.9686e-009     -5.9968e-009   
  12.4            5.5778e-009     -5.5864e-009   
  12.3            5.2374e-009     -5.2288e-009   
  12.2            4.9206e-009     -4.9232e-009   
  12.1            4.632e-009      -4.631e-009    
  12              4.3676e-009     -4.3474e-009   
  11.9            4.126e-009      -4.1154e-009   
  11.8            3.9214e-009     -3.892e-009    
  11.7            3.7216e-009     -3.6894e-009   
  11.6            3.544e-009      -3.5088e-009   
  11.5            3.3794e-009     -3.349e-009    
  11.4            3.2166e-009     -3.1788e-009   
  11.3            3.0694e-009     -3.0292e-009   
  11.2            2.941e-009      -2.8986e-009   
  11.1            2.8154e-009     -2.7638e-009   
  11              2.692e-009      -2.6556e-009   
  10.9            2.5798e-009     -2.5264e-009   
  10.8            2.4854e-009     -2.4246e-009   
  10.7            2.3884e-009     -2.342e-009    
  10.6            2.2986e-009     -2.249e-009    
  10.5            2.209e-009      -2.1542e-009   
  10.4            2.1312e-009     -2.088e-009    
  10.3            2.0522e-009     -2.0072e-009   
  10.2            1.977e-009      -1.937e-009    
  10.1            1.9078e-009     -1.872e-009    
  10              1.8436e-009     -1.795e-009    
  9.9             1.7828e-009     -1.7358e-009   
  9.8             1.7246e-009     -1.6812e-009   
  9.7             1.6648e-009     -1.6184e-009   
  9.6             1.6124e-009     -1.557e-009    
  9.5             1.56e-009       -1.518e-009    
  9.4             1.5088e-009     -1.4614e-009   
  9.3             1.4578e-009     -1.4112e-009   
  9.2             1.413e-009      -1.3718e-009   
  9.1             1.3708e-009     -1.321e-009    
  9               1.3312e-009     -1.2786e-009   
  8.9             1.2912e-009     -1.2442e-009   
  8.8             1.2508e-009     -1.2032e-009   
  8.7             1.2138e-009     -1.1612e-009   
  8.6             1.178e-009      -1.133e-009    
  8.5             1.1484e-009     -1.0996e-009   
  8.4             1.1158e-009     -1.0668e-009   
  8.3             1.0834e-009     -1.0416e-009   
  8.2             1.0554e-009     -1.0072e-009   
  8.1             1.0256e-009     -9.798e-010    
  8               9.962e-010      -9.414e-010    
  7.9             9.6782e-010     -9.248e-010    
  7.8             9.4276e-010     -9.096e-010    
  7.7             9.1724e-010     -8.786e-010    
  7.6             8.927e-010      -8.444e-010    
  7.5             8.691e-010      -8.39e-010     
  7.4             8.4454e-010     -7.92e-010     
  7.3             8.2204e-010     -7.858e-010    
  7.2             8.0068e-010     -7.562e-010    
  7.1             7.8002e-010     -7.38e-010     
  7               7.6044e-010     -7.178e-010    
  6.9             7.4072e-010     -7.046e-010    
  6.8             7.2254e-010     -6.784e-010    
  6.7             7.0402e-010     -6.606e-010    
  6.6             6.8644e-010     -6.534e-010    
  6.5             6.6992e-010     -6.3842e-010   
  6.4             6.5266e-010     -6.055e-010    
  6.3             6.3828e-010     -6.102e-010    
  6.2             6.2334e-010     -5.9442e-010   
  6.1             6.0836e-010     -5.7306e-010   
  6               5.9328e-010     -5.4486e-010   
  5.9             5.792e-010      -5.331e-010    
  5.8             5.663e-010      -5.1344e-010   
  5.7             5.5396e-010     -5.0048e-010   
  5.6             5.4192e-010     -4.926e-010    
  5.5             5.3044e-010     -4.7664e-010   
  5.4             5.1946e-010     -4.7326e-010   
  5.3             5.0814e-010     -4.585e-010    
  5.2             4.972e-010      -4.4838e-010   
  5.1             4.8686e-010     -4.3132e-010   
  5               4.7616e-010     -4.2888e-010   
  4.9             4.6656e-010     -4.1306e-010   
  4.8             4.5642e-010     -4.0008e-010   
  4.7             4.4752e-010     -3.9532e-010   
  4.6             4.3854e-010     -3.969e-010    
  4.5             4.2986e-010     -3.7978e-010   
  4.4             4.2224e-010     -3.669e-010    
  4.3             4.1342e-010     -3.728e-010    
  4.2             4.061e-010      -3.4912e-010   
  4.1             3.986e-010      -3.4628e-010   
  4               3.9142e-010     -3.3182e-010   
  3.9             3.8308e-010     -3.4418e-010   
  3.8             3.7694e-010     -3.236e-010    
  3.7             3.697e-010      -3.2678e-010   
  3.6             3.629e-010      -3.1168e-010   
  3.5             3.561e-010      -3.1218e-010   
  3.4             3.5118e-010     -2.981e-010    
  3.3             3.4518e-010     -2.8928e-010   
  3.2             3.3866e-010     -2.8638e-010   
  3.1             3.3318e-010     -2.804e-010    
  3               3.2706e-010     -2.4706e-010   
  2.9             3.2116e-010     -2.7238e-010   
  2.8             3.1504e-010     -2.7524e-010   
  2.7             3.0948e-010     -2.5272e-010   
  2.6             3.0344e-010     -2.5292e-010   
  2.5             2.9858e-010     -2.4696e-010   
  2.4             2.917e-010      -2.486e-010    
  2.3             2.8606e-010     -2.2338e-010   
  2.2             2.7998e-010     -2.3516e-010   
  2.1             2.7412e-010     -2.2752e-010   
  2               2.676e-010      -2.2028e-010   
  1.9             2.6e-010        -2.0268e-010   
  1.8             2.536e-010      -2.002e-010    
  1.7             2.4676e-010     -2.0348e-010   
  1.6             2.3926e-010     -1.7564e-010   
  1.5             2.316e-010      -1.7446e-010   
  1.4             2.2492e-010     -1.7742e-010   
  1.3             2.1756e-010     -1.776e-010    
  1.2             2.095e-010      -1.5244e-010   
  1.1             2.0156e-010     -1.4732e-010   
  1               1.9388e-010     -1.532e-010    
  0.9             1.8594e-010     -1.315e-010    
  0.8             1.7724e-010     -1.1548e-010   
  0.7             1.6884e-010     -1.2456e-010   
  0.6             1.5982e-010     -1.1524e-010   
  0.5             1.4976e-010     -1.0268e-010   
  0.4             1.39e-010       -8.942e-011    
  0.3             1.2716e-010     -7.426e-011    
  0.2             1.1196e-010     -6.32e-011     
  0.1             8.81e-011       -3.294e-011    
  0               -2.68e-012      4.778e-011     
END_DB

