! VERSION = 6.00
BEGIN_HEADER
 ICCAP_INPUTS
  vc         V  cathode GROUND SMU1 0.1 CON        0
  va         V  anode GROUND SMU2 0.1 LIN        1    0          -1         51   -0.02     
 ICCAP_OUTPUTS
  ia         I  anode GROUND SMU2 B
  ic         I  cathode GROUND SMU1 B
 ICCAP_VALUES
  DataOrigin "Measure"
  ___CONTEXT ""
  Date "Jan 13 Thu 19:22:05 2022"
  Version "WaferPro.2016.01"
  Bench "B1500_B2200"
  Temperature "125"
  Lot "M135205"
  Reticle "M135205"
  Wafer "01D2"
  Die "X-3-Y0"
  DieList "TargetDie"
  Block "WholeDie"
  Subsite "diod1-5V"
  Routine "DIODE_EXTR_Measure"
  MeasCond "Set1"
  Device "5"
  DeviceName "ndiode_Dn5_A32B320"
  DevTechno "DIO"
  DevPolarity "N"
  Setup "iv_fwd"
  Type "1"
  ___SPICE_INSTANCE ""
  A "3.2E-006"
  B "3.2E-005"
  ___TECHNO_INSTANCE ""
  ___CALIBRATION ""
END_HEADER

BEGIN_DB
 ICCAP_VAR vc         0              

 #va              ia              ic             
  0               4e-014          1.302e-011     
  -0.02           -3.522e-011     5.596e-011     
  -0.04           -8.952e-011     9.702e-011     
  -0.06           -1.746e-010     1.9382e-010    
  -0.08           -3.0868e-010    3.2458e-010    
  -0.1            -5.2054e-010    5.281e-010     
  -0.12           -8.556e-010     8.566e-010     
  -0.14           -1.378e-009     1.3896e-009    
  -0.16           -2.21e-009      2.2112e-009    
  -0.18           -3.5174e-009    3.5206e-009    
  -0.2            -5.6026e-009    5.5972e-009    
  -0.22           -8.9116e-009    8.8856e-009    
  -0.24           -1.4232e-008    1.4204e-008    
  -0.26           -2.2798e-008    2.2718e-008    
  -0.28           -3.6776e-008    3.663e-008     
  -0.3            -5.9824e-008    5.9644e-008    
  -0.32           -9.7812e-008    9.7594e-008    
  -0.34           -1.6138e-007    1.614e-007     
  -0.36           -2.6814e-007    2.6802e-007    
  -0.38           -4.4692e-007    4.4674e-007    
  -0.4            -7.4864e-007    7.4838e-007    
  -0.42           -1.253e-006     1.2546e-006    
  -0.44           -2.0908e-006    2.0912e-006    
  -0.46           -3.4756e-006    3.4756e-006    
  -0.48           -5.72e-006      5.7182e-006    
  -0.5            -9.347e-006     9.3462e-006    
  -0.52           -1.5108e-005    1.5132e-005    
  -0.54           -2.4132e-005    2.4148e-005    
  -0.56           -3.8184e-005    3.8206e-005    
  -0.58           -5.9674e-005    5.9688e-005    
  -0.6            -9.1792e-005    9.1806e-005    
  -0.62           -0.00013898     0.0001391      
  -0.64           -0.00020642     0.00020654     
  -0.66           -0.0003004      0.00030048     
  -0.68           -0.00042638     0.00042644     
  -0.7            -0.00059128     0.00059132     
  -0.72           -0.00079944     0.00079948     
  -0.74           -0.0010572      0.00105724     
  -0.76           -0.001366       0.0013674      
  -0.78           -0.0017304      0.0017316      
  -0.8            -0.002154       0.0021552      
  -0.82           -0.0026338      0.0026352      
  -0.84           -0.0031728      0.003174       
  -0.86           -0.003765       0.0037662      
  -0.88           -0.0044122      0.0044134      
  -0.9            -0.0051064      0.0051076      
  -0.92           -0.0058494      0.0058506      
  -0.94           -0.006632       0.006633       
  -0.96           -0.0074564      0.0074574      
  -0.98           -0.0083134      0.0083146      
  -1              -0.0092062      0.0092076      
END_DB

