! VERSION = 6.00
BEGIN_HEADER
 ICCAP_INPUTS
  vc         V  cathode GROUND SMU1 0.1 CON        0
  va         V  anode GROUND SMU2 0.1 LIN        1    0          -1         51   -0.02     
 ICCAP_OUTPUTS
  ia         I  anode GROUND SMU2 B
  ic         I  cathode GROUND SMU1 B
 ICCAP_VALUES
  DataOrigin "Measure"
  ___CONTEXT ""
  Date "Jan 13 Thu 19:24:36 2022"
  Version "WaferPro.2016.01"
  Bench "B1500_B2200"
  Temperature "125"
  Lot "M135205"
  Reticle "M135205"
  Wafer "01D2"
  Die "X-3-Y0"
  DieList "TargetDie"
  Block "WholeDie"
  Subsite "diod1-5V"
  Routine "DIODE_EXTR_Measure"
  MeasCond "Set1"
  Device "6"
  DeviceName "ndiode_Dn5_A320B320"
  DevTechno "DIO"
  DevPolarity "N"
  Setup "iv_fwd"
  Type "1"
  ___SPICE_INSTANCE ""
  A "3.2E-005"
  B "3.2E-005"
  ___TECHNO_INSTANCE ""
  ___CALIBRATION ""
END_HEADER

BEGIN_DB
 ICCAP_VAR vc         0              

 #va              ia              ic             
  0               -6e-014         2.2e-011       
  -0.02           -4.932e-011     6.378e-011     
  -0.04           -1.2682e-010    1.409e-010     
  -0.06           -2.5156e-010    2.6622e-010    
  -0.08           -4.5332e-010    4.6758e-010    
  -0.1            -7.7994e-010    7.913e-010     
  -0.12           -1.3104e-009    1.3438e-009    
  -0.14           -2.1768e-009    2.1798e-009    
  -0.16           -3.5986e-009    3.6052e-009    
  -0.18           -5.9308e-009    5.9378e-009    
  -0.2            -9.788e-009     9.7846e-009    
  -0.22           -1.6148e-008    1.6126e-008    
  -0.24           -2.6782e-008    2.6722e-008    
  -0.26           -4.4484e-008    4.4382e-008    
  -0.28           -7.417e-008     7.4022e-008    
  -0.3            -1.2426e-007    1.2438e-007    
  -0.32           -2.0852e-007    2.084e-007     
  -0.34           -3.5096e-007    3.5088e-007    
  -0.36           -5.9084e-007    5.9068e-007    
  -0.38           -9.8986e-007    9.8966e-007    
  -0.4            -1.6522e-006    1.6544e-006    
  -0.42           -2.7392e-006    2.7398e-006    
  -0.44           -4.4926e-006    4.4932e-006    
  -0.46           -7.313e-006     7.3134e-006    
  -0.48           -1.1772e-005    1.1784e-005    
  -0.5            -1.8846e-005    1.8858e-005    
  -0.52           -2.9938e-005    2.9948e-005    
  -0.54           -4.7084e-005    4.7096e-005    
  -0.56           -7.3488e-005    7.35e-005      
  -0.58           -0.000113276    0.000113298    
  -0.6            -0.00017144     0.00017158     
  -0.62           -0.00025474     0.00025486     
  -0.64           -0.00036876     0.00036886     
  -0.66           -0.00051954     0.00051962     
  -0.68           -0.00070982     0.0007099      
  -0.7            -0.0009431      0.00094318     
  -0.72           -0.0012182      0.0012194      
  -0.74           -0.001538       0.0015392      
  -0.76           -0.0018992      0.0019004      
  -0.78           -0.0023012      0.0023024      
  -0.8            -0.0027456      0.0027468      
  -0.82           -0.003227       0.0032282      
  -0.84           -0.0037468      0.003748       
  -0.86           -0.0042998      0.0043008      
  -0.88           -0.004887       0.0048884      
  -0.9            -0.0055028      0.0055038      
  -0.92           -0.006148       0.0061492      
  -0.94           -0.006817       0.006818       
  -0.96           -0.0075114      0.0075126      
  -0.98           -0.0082244      0.0082252      
  -1              -0.0089594      0.0089604      
END_DB

