! VERSION = 6.00
BEGIN_HEADER
 ICCAP_INPUTS
  vc         V  cathode GROUND SMU1 0.1 CON        0
  va         V  anode GROUND SMU2 0.1 LIN        1    0          -1         51   -0.02     
 ICCAP_OUTPUTS
  ia         I  anode GROUND SMU2 B
  ic         I  cathode GROUND SMU1 B
 ICCAP_VALUES
  DataOrigin "Measure"
  ___CONTEXT ""
  Date "Jan 13 Thu 19:29:33 2022"
  Version "WaferPro.2016.01"
  Bench "B1500_B2200"
  Temperature "125"
  Lot "M135205"
  Reticle "M135205"
  Wafer "01D2"
  Die "X-3-Y0"
  DieList "TargetDie"
  Block "WholeDie"
  Subsite "diod1-5V"
  Routine "DIODE_EXTR_Measure"
  MeasCond "Set1"
  Device "8"
  DeviceName "ndiode_Dn5_A064B640"
  DevTechno "DIO"
  DevPolarity "N"
  Setup "iv_fwd"
  Type "1"
  ___SPICE_INSTANCE ""
  A "6.4E-007"
  B "6.4E-005"
  ___TECHNO_INSTANCE ""
  ___CALIBRATION ""
END_HEADER

BEGIN_DB
 ICCAP_VAR vc         0              

 #va              ia              ic             
  0               -4.8e-013       1.592e-011     
  -0.02           -6.34e-011      7.672e-011     
  -0.04           -1.607e-010     1.7562e-010    
  -0.06           -3.121e-010     3.1744e-010    
  -0.08           -5.507e-010     5.5846e-010    
  -0.1            -9.2544e-010    9.3218e-010    
  -0.12           -1.5126e-009    1.5258e-009    
  -0.14           -2.425e-009     2.4404e-009    
  -0.16           -3.8558e-009    3.8582e-009    
  -0.18           -6.0698e-009    6.0858e-009    
  -0.2            -9.5368e-009    9.5466e-009    
  -0.22           -1.489e-008     1.493e-008     
  -0.24           -2.3286e-008    2.3226e-008    
  -0.26           -3.6368e-008    3.6308e-008    
  -0.28           -5.6902e-008    5.6866e-008    
  -0.3            -8.9534e-008    8.9508e-008    
  -0.32           -1.4118e-007    1.4132e-007    
  -0.34           -2.2454e-007    2.246e-007     
  -0.36           -3.5956e-007    3.5954e-007    
  -0.38           -5.787e-007     5.7854e-007    
  -0.4            -9.3916e-007    9.3878e-007    
  -0.42           -1.5322e-006    1.5334e-006    
  -0.44           -2.5074e-006    2.5084e-006    
  -0.46           -4.117e-006     4.118e-006     
  -0.48           -6.7406e-006    6.7402e-006    
  -0.5            -1.10268e-005   1.10278e-005   
  -0.52           -1.7942e-005    1.7964e-005    
  -0.54           -2.8948e-005    2.8962e-005    
  -0.56           -4.6374e-005    4.639e-005     
  -0.58           -7.3422e-005    7.344e-005     
  -0.6            -0.000114422    0.000114438    
  -0.62           -0.00017538     0.00017554     
  -0.64           -0.00026346     0.00026362     
  -0.66           -0.00038746     0.00038762     
  -0.68           -0.00055558     0.00055574     
  -0.7            -0.00077824     0.0007784      
  -0.72           -0.00106288     0.00106304     
  -0.74           -0.001419       0.0014204      
  -0.76           -0.0018522      0.0018532      
  -0.78           -0.0023658      0.002367       
  -0.8            -0.0029664      0.0029674      
  -0.82           -0.0036478      0.003649       
  -0.84           -0.004413       0.0044142      
  -0.86           -0.0052528      0.005254       
  -0.88           -0.0061686      0.0061698      
  -0.9            -0.0071482      0.0071496      
  -0.92           -0.0081938      0.0081948      
  -0.94           -0.0092914      0.009293       
  -0.96           -0.0104448      0.0104462      
  -0.98           -0.011632       0.011644       
  -1              -0.012876       0.012888       
END_DB

