! VERSION = 6.00
BEGIN_HEADER
 ICCAP_INPUTS
  vc         V  cathode GROUND SMU1 0.1 CON        0
  va         V  anode GROUND SMU2 0.1 LIN        1    15         0          151  -0.1      
 ICCAP_OUTPUTS
  ia         I  anode GROUND SMU2 B
  ic         I  cathode GROUND SMU1 B
 ICCAP_VALUES
  DataOrigin "Measure"
  ___CONTEXT ""
  Date "Jan 13 Thu 19:34:32 2022"
  Version "WaferPro.2016.01"
  Bench "B1500_B2200"
  Temperature "125"
  Lot "M135205"
  Reticle "M135205"
  Wafer "01D2"
  Die "X-3-Y0"
  DieList "TargetDie"
  Block "WholeDie"
  Subsite "diod1-5V"
  Routine "DIODE_EXTR_Measure"
  MeasCond "Set1"
  Device "10"
  DeviceName "ndiode_Dn5_A32B640"
  DevTechno "DIO"
  DevPolarity "N"
  Setup "iv_rev"
  Type "1"
  ___SPICE_INSTANCE ""
  A "3.2E-006"
  B "6.4E-005"
  ___TECHNO_INSTANCE ""
  ___CALIBRATION ""
END_HEADER

BEGIN_DB
 ICCAP_VAR vc         0              

 #va              ia              ic             
  15              0.0063974       -0.0064214     
  14.9            0.0057486       -0.0057544     
  14.8            0.0051054       -0.0051066     
  14.7            0.0044672       -0.0044666     
  14.6            0.0038384       -0.003837      
  14.5            0.0032092       -0.0032072     
  14.4            0.002587        -0.0025848     
  14.3            0.0019758       -0.0019736     
  14.2            0.0013662       -0.0013638     
  14.1            0.00073248      -0.00073138    
  14              4.2106e-006     -4.2604e-006   
  13.9            1.1668e-007     -1.184e-007    
  13.8            6.9572e-008     -7.0198e-008   
  13.7            5.1398e-008     -5.171e-008    
  13.6            4.111e-008      -4.1222e-008   
  13.5            3.4178e-008     -3.429e-008    
  13.4            2.9176e-008     -2.925e-008    
  13.3            2.5422e-008     -2.5458e-008   
  13.2            2.251e-008      -2.2516e-008   
  13.1            2.0094e-008     -2.0126e-008   
  13              1.8088e-008     -1.8138e-008   
  12.9            1.6456e-008     -1.6488e-008   
  12.8            1.508e-008      -1.5088e-008   
  12.7            1.3898e-008     -1.387e-008    
  12.6            1.285e-008      -1.2844e-008   
  12.5            1.195e-008      -1.1922e-008   
  12.4            1.1118e-008     -1.1106e-008   
  12.3            1.0402e-008     -1.0384e-008   
  12.2            9.742e-009      -9.75e-009     
  12.1            9.1556e-009     -9.166e-009    
  12              8.616e-009      -8.6236e-009   
  11.9            8.1282e-009     -8.133e-009    
  11.8            7.67e-009       -7.6732e-009   
  11.7            7.2646e-009     -7.2486e-009   
  11.6            6.91e-009       -6.886e-009    
  11.5            6.586e-009      -6.5628e-009   
  11.4            6.2708e-009     -6.245e-009    
  11.3            5.9762e-009     -5.9464e-009   
  11.2            5.71e-009       -5.6786e-009   
  11.1            5.4636e-009     -5.4308e-009   
  11              5.2164e-009     -5.175e-009    
  10.9            5.0042e-009     -4.9746e-009   
  10.8            4.7926e-009     -4.771e-009    
  10.7            4.596e-009      -4.551e-009    
  10.6            4.417e-009      -4.3838e-009   
  10.5            4.2382e-009     -4.2028e-009   
  10.4            4.0826e-009     -4.0324e-009   
  10.3            3.9292e-009     -3.8984e-009   
  10.2            3.7868e-009     -3.7438e-009   
  10.1            3.6528e-009     -3.609e-009    
  10              3.5238e-009     -3.4866e-009   
  9.9             3.4064e-009     -3.3604e-009   
  9.8             3.2896e-009     -3.24e-009     
  9.7             3.172e-009      -3.137e-009    
  9.6             3.0662e-009     -3.024e-009    
  9.5             2.9662e-009     -2.911e-009    
  9.4             2.8694e-009     -2.8282e-009   
  9.3             2.7754e-009     -2.7316e-009   
  9.2             2.6882e-009     -2.6374e-009   
  9.1             2.6026e-009     -2.5582e-009   
  9               2.5174e-009     -2.4706e-009   
  8.9             2.443e-009      -2.393e-009    
  8.8             2.3744e-009     -2.3336e-009   
  8.7             2.3036e-009     -2.2642e-009   
  8.6             2.2364e-009     -2.1852e-009   
  8.5             2.1714e-009     -2.1324e-009   
  8.4             2.1092e-009     -2.0644e-009   
  8.3             2.0522e-009     -2.0006e-009   
  8.2             1.9954e-009     -1.9592e-009   
  8.1             1.9362e-009     -1.8932e-009   
  8               1.8854e-009     -1.8354e-009   
  7.9             1.8306e-009     -1.7866e-009   
  7.8             1.7814e-009     -1.734e-009    
  7.7             1.7346e-009     -1.68e-009     
  7.6             1.687e-009      -1.6424e-009   
  7.5             1.6404e-009     -1.585e-009    
  7.4             1.5968e-009     -1.546e-009    
  7.3             1.5578e-009     -1.5132e-009   
  7.2             1.5194e-009     -1.4628e-009   
  7.1             1.4814e-009     -1.426e-009    
  7               1.442e-009      -1.4e-009      
  6.9             1.4066e-009     -1.357e-009    
  6.8             1.3714e-009     -1.3124e-009   
  6.7             1.3362e-009     -1.284e-009    
  6.6             1.3028e-009     -1.2522e-009   
  6.5             1.2714e-009     -1.2176e-009   
  6.4             1.2404e-009     -1.195e-009    
  6.3             1.2124e-009     -1.1584e-009   
  6.2             1.183e-009      -1.133e-009    
  6.1             1.156e-009      -1.1124e-009   
  6               1.1284e-009     -1.082e-009    
  5.9             1.102e-009      -1.0548e-009   
  5.8             1.0756e-009     -1.0336e-009   
  5.7             1.051e-009      -9.978e-010    
  5.6             1.0284e-009     -9.852e-010    
  5.5             1.0044e-009     -9.532e-010    
  5.4             9.8116e-010     -9.336e-010    
  5.3             9.5794e-010     -9.48e-010     
  5.2             9.3652e-010     -9.07e-010     
  5.1             9.1852e-010     -8.824e-010    
  5               8.985e-010      -8.518e-010    
  4.9             8.7886e-010     -8.414e-010    
  4.8             8.619e-010      -8.238e-010    
  4.7             8.433e-010      -7.978e-010    
  4.6             8.2658e-010     -7.9e-010      
  4.5             8.099e-010      -7.664e-010    
  4.4             7.937e-010      -7.608e-010    
  4.3             7.7724e-010     -7.4e-010      
  4.2             7.6196e-010     -7.19e-010     
  4.1             7.482e-010      -7.102e-010    
  4               7.3406e-010     -6.92e-010     
  3.9             7.2054e-010     -6.804e-010    
  3.8             7.069e-010      -6.73e-010     
  3.7             6.9192e-010     -6.538e-010    
  3.6             6.803e-010      -6.44e-010     
  3.5             6.7016e-010     -6.328e-010    
  3.4             6.5726e-010     -6.232e-010    
  3.3             6.431e-010      -6.088e-010    
  3.2             6.3232e-010     -5.928e-010    
  3.1             6.2268e-010     -5.91e-010     
  3               6.1142e-010     -5.8e-010      
  2.9             6.0008e-010     -5.832e-010    
  2.8             5.9086e-010     -5.534e-010    
  2.7             5.7828e-010     -5.324e-010    
  2.6             5.6838e-010     -5.2916e-010   
  2.5             5.576e-010      -5.1376e-010   
  2.4             5.4552e-010     -4.9594e-010   
  2.3             5.326e-010      -4.909e-010    
  2.2             5.2092e-010     -4.8618e-010   
  2.1             5.0982e-010     -4.6194e-010   
  2               4.9708e-010     -4.5052e-010   
  1.9             4.8354e-010     -4.3504e-010   
  1.8             4.6976e-010     -4.277e-010    
  1.7             4.5768e-010     -4.04e-010     
  1.6             4.4236e-010     -3.9872e-010   
  1.5             4.2776e-010     -3.8518e-010   
  1.4             4.1248e-010     -3.7772e-010   
  1.3             4.0026e-010     -3.4712e-010   
  1.2             3.8644e-010     -3.4466e-010   
  1.1             3.7072e-010     -3.2392e-010   
  1               3.5542e-010     -3.0924e-010   
  0.9             3.4104e-010     -2.8718e-010   
  0.8             3.2502e-010     -2.804e-010    
  0.7             3.0758e-010     -2.6854e-010   
  0.6             2.9064e-010     -2.4238e-010   
  0.5             2.727e-010      -2.317e-010    
  0.4             2.5426e-010     -2.0784e-010   
  0.3             2.2884e-010     -1.8902e-010   
  0.2             2.0184e-010     -2.0326e-010   
  0.1             1.5654e-010     -1.1124e-010   
  0               -3.12e-012      5.31e-011      
END_DB

