! VERSION = 6.00
BEGIN_HEADER
 ICCAP_INPUTS
  vc         V  cathode GROUND SMU1 0.1 CON        0
  va         V  anode GROUND SMU2 0.1 LIN        1    15         0          151  -0.1      
 ICCAP_OUTPUTS
  ia         I  anode GROUND SMU2 B
  ic         I  cathode GROUND SMU1 B
 ICCAP_VALUES
  DataOrigin "Measure"
  ___CONTEXT ""
  Date "Jan 13 Thu 19:19:33 2022"
  Version "WaferPro.2016.01"
  Bench "B1500_B2200"
  Temperature "125"
  Lot "M135205"
  Reticle "M135205"
  Wafer "01D2"
  Die "X-3-Y0"
  DieList "TargetDie"
  Block "WholeDie"
  Subsite "diod1-5V"
  Routine "DIODE_EXTR_Measure"
  MeasCond "Set1"
  Device "4"
  DeviceName "ndiode_Dn5_A32B32"
  DevTechno "DIO"
  DevPolarity "N"
  Setup "iv_rev"
  Type "1"
  ___SPICE_INSTANCE ""
  A "3.2E-006"
  B "3.2E-006"
  ___TECHNO_INSTANCE ""
  ___CALIBRATION ""
END_HEADER

BEGIN_DB
 ICCAP_VAR vc         0              

 #va              ia              ic             
  15              0.0006573       -0.00066472    
  14.9            0.0005816       -0.00058346    
  14.8            0.00050734      -0.00050846    
  14.7            0.00043534      -0.00043606    
  14.6            0.0003652       -0.00036538    
  14.5            0.00029576      -0.00029594    
  14.4            0.00022794      -0.00022798    
  14.3            0.00016288      -0.0001628     
  14.2            0.0001005       -0.00010046    
  14.1            1.0826e-005     -1.116e-005    
  14              2.252e-008      -2.3648e-008   
  13.9            1.121e-008      -1.1466e-008   
  13.8            8.0406e-009     -8.17e-009     
  13.7            6.2948e-009     -6.3792e-009   
  13.6            5.208e-009      -5.2698e-009   
  13.5            4.442e-009      -4.4548e-009   
  13.4            3.8768e-009     -3.8304e-009   
  13.3            3.4268e-009     -3.428e-009    
  13.2            3.025e-009      -3.0366e-009   
  13.1            2.757e-009      -2.7466e-009   
  13              2.4772e-009     -2.4788e-009   
  12.9            2.266e-009      -2.2516e-009   
  12.8            2.0726e-009     -2.0466e-009   
  12.7            1.9016e-009     -1.8824e-009   
  12.6            1.769e-009      -1.7532e-009   
  12.5            1.6522e-009     -1.6038e-009   
  12.4            1.5272e-009     -1.495e-009    
  12.3            1.4394e-009     -1.4098e-009   
  12.2            1.3494e-009     -1.3092e-009   
  12.1            1.2714e-009     -1.2298e-009   
  12              1.2038e-009     -1.1746e-009   
  11.9            1.1436e-009     -1.091e-009    
  11.8            1.0808e-009     -1.0348e-009   
  11.7            1.0274e-009     -9.77e-010     
  11.6            9.7854e-010     -9.324e-010    
  11.5            9.3414e-010     -9.102e-010    
  11.4            8.841e-010      -8.528e-010    
  11.3            8.4474e-010     -8.112e-010    
  11.2            8.0604e-010     -7.85e-010     
  11.1            7.7488e-010     -7.494e-010    
  11              7.391e-010      -7.14e-010     
  10.9            7.108e-010      -6.76e-010     
  10.8            6.8506e-010     -6.606e-010    
  10.7            6.5626e-010     -6.262e-010    
  10.6            6.3192e-010     -6.016e-010    
  10.5            6.0654e-010     -5.8664e-010   
  10.4            5.8272e-010     -5.4726e-010   
  10.3            5.6552e-010     -5.2312e-010   
  10.2            5.4022e-010     -5.041e-010    
  10.1            5.2e-010        -4.9924e-010   
  10              4.9924e-010     -4.6354e-010   
  9.9             4.8162e-010     -4.4382e-010   
  9.8             4.5966e-010     -4.254e-010    
  9.7             4.4788e-010     -4.0432e-010   
  9.6             4.309e-010      -3.882e-010    
  9.5             4.1528e-010     -3.73e-010     
  9.4             4.0374e-010     -3.64e-010     
  9.3             3.9166e-010     -3.4264e-010   
  9.2             3.7948e-010     -3.3834e-010   
  9.1             3.6966e-010     -3.2668e-010   
  9               3.5762e-010     -3.1928e-010   
  8.9             3.4684e-010     -3.0996e-010   
  8.8             3.359e-010      -2.9742e-010   
  8.7             3.2604e-010     -2.7972e-010   
  8.6             3.1584e-010     -2.6488e-010   
  8.5             3.0646e-010     -2.5538e-010   
  8.4             2.9882e-010     -2.5664e-010   
  8.3             2.8872e-010     -2.5206e-010   
  8.2             2.801e-010      -2.373e-010    
  8.1             2.7198e-010     -2.2914e-010   
  8               2.653e-010      -2.2224e-010   
  7.9             2.579e-010      -2.155e-010    
  7.8             2.5122e-010     -1.9646e-010   
  7.7             2.4344e-010     -1.9742e-010   
  7.6             2.3666e-010     -1.9122e-010   
  7.5             2.2954e-010     -1.7562e-010   
  7.4             2.2314e-010     -1.783e-010    
  7.3             2.1774e-010     -1.752e-010    
  7.2             2.1268e-010     -1.6888e-010   
  7.1             2.0692e-010     -1.5452e-010   
  7               2.0144e-010     -1.4852e-010   
  6.9             1.9666e-010     -1.4644e-010   
  6.8             1.9118e-010     -1.4626e-010   
  6.7             1.8636e-010     -1.3744e-010   
  6.6             1.8108e-010     -1.3044e-010   
  6.5             1.7606e-010     -1.3888e-010   
  6.4             1.7182e-010     -1.3028e-010   
  6.3             1.6876e-010     -1.1696e-010   
  6.2             1.6484e-010     -1.1254e-010   
  6.1             1.6142e-010     -1.132e-010    
  6               1.584e-010      -1.0986e-010   
  5.9             1.5454e-010     -1.0666e-010   
  5.8             1.5036e-010     -1.0344e-010   
  5.7             1.4656e-010     -1.0638e-010   
  5.6             1.4362e-010     -9.658e-011    
  5.5             1.4082e-010     -9e-011        
  5.4             1.3778e-010     -8.714e-011    
  5.3             1.3466e-010     -9.112e-011    
  5.2             1.317e-010      -7.236e-011    
  5.1             1.2908e-010     -8.166e-011    
  5               1.2608e-010     -8.874e-011    
  4.9             1.2354e-010     -6.908e-011    
  4.8             1.1994e-010     -1.3126e-010   
  4.7             1.1792e-010     -6.684e-011    
  4.6             1.145e-010      -6.868e-011    
  4.5             1.128e-010      -6.13e-011     
  4.4             1.1096e-010     -6.046e-011    
  4.3             1.0844e-010     -6.284e-011    
  4.2             1.067e-010      -5.992e-011    
  4.1             1.0476e-010     -6.338e-011    
  4               1.0282e-010     -5.55e-011     
  3.9             1.0062e-010     -5.378e-011    
  3.8             9.972e-011      -4.462e-011    
  3.7             9.716e-011      -4.782e-011    
  3.6             9.574e-011      -4.124e-011    
  3.5             9.374e-011      -4.94e-011     
  3.4             9.218e-011      -3.932e-011    
  3.3             9.036e-011      -4.478e-011    
  3.2             8.924e-011      -3.784e-011    
  3.1             8.788e-011      -4.346e-011    
  3               8.63e-011       -4.086e-011    
  2.9             8.504e-011      -3.508e-011    
  2.8             8.34e-011       -2.936e-011    
  2.7             8.26e-011       -4.048e-011    
  2.6             8.058e-011      -4.04e-011     
  2.5             7.92e-011       -2.748e-011    
  2.4             7.756e-011      -3.928e-011    
  2.3             7.7e-011        -2.216e-011    
  2.2             7.512e-011      -2.964e-011    
  2.1             7.384e-011      -2.334e-011    
  2               7.146e-011      -2.686e-011    
  1.9             7.014e-011      -2.33e-011     
  1.8             6.824e-011      -2.324e-011    
  1.7             6.678e-011      -1.852e-011    
  1.6             6.494e-011      -2.606e-011    
  1.5             6.352e-011      -1.426e-011    
  1.4             6.224e-011      -1.25e-011     
  1.3             6.02e-011       -1.324e-011    
  1.2             5.866e-011      -7.24e-012     
  1.1             5.656e-011      -1.262e-011    
  1               5.522e-011      -8.74e-012     
  0.9             5.252e-011      -1.848e-011    
  0.8             5.114e-011      5e-013         
  0.7             4.884e-011      -7e-013        
  0.6             4.76e-011       5.06e-012      
  0.5             4.464e-011      -2.54e-012     
  0.4             4.228e-011      6.98e-012      
  0.3             3.894e-011      6.5e-012       
  0.2             3.516e-011      1.596e-011     
  0.1             2.766e-011      1.806e-011     
  0               -1.3e-012       4.548e-011     
END_DB

