! VERSION = 6.00
BEGIN_HEADER
 ICCAP_INPUTS
  vc         V  cathode GROUND SMU1 0.1 CON        0
  va         V  anode GROUND SMU2 0.1 LIN        1    15         0          151  -0.1      
 ICCAP_OUTPUTS
  ia         I  anode GROUND SMU2 B
  ic         I  cathode GROUND SMU1 B
 ICCAP_VALUES
  DataOrigin "Measure"
  ___CONTEXT ""
  Date "Jan 13 Thu 19:11:58 2022"
  Version "WaferPro.2016.01"
  Bench "B1500_B2200"
  Temperature "125"
  Lot "M135205"
  Reticle "M135205"
  Wafer "01D2"
  Die "X-3-Y0"
  DieList "TargetDie"
  Block "WholeDie"
  Subsite "diod1-5V"
  Routine "DIODE_EXTR_Measure"
  MeasCond "Set1"
  Device "1"
  DeviceName "ndiode_Dn5_A032B032"
  DevTechno "DIO"
  DevPolarity "N"
  Setup "iv_rev"
  Type "1"
  ___SPICE_INSTANCE ""
  A "3.2E-007"
  B "3.2E-007"
  ___TECHNO_INSTANCE ""
  ___CALIBRATION ""
END_HEADER

BEGIN_DB
 ICCAP_VAR vc         0              

 #va              ia              ic             
  15              3.1888e-005     -3.8206e-005   
  14.9            2.4064e-005     -2.5302e-005   
  14.8            1.6772e-005     -1.828e-005    
  14.7            8.3306e-006     -9.122e-006    
  14.6            1.7792e-006     -1.9518e-006   
  14.5            1.113e-007      -1.5808e-007   
  14.4            2.1094e-008     -2.2526e-008   
  14.3            9.7716e-009     -1.0328e-008   
  14.2            5.4532e-009     -5.9004e-009   
  14.1            3.9264e-009     -4.0364e-009   
  14              3.0594e-009     -3.1208e-009   
  13.9            2.4146e-009     -2.5256e-009   
  13.8            2.0536e-009     -2.1012e-009   
  13.7            1.7198e-009     -1.7558e-009   
  13.6            1.4894e-009     -1.5172e-009   
  13.5            1.3244e-009     -1.315e-009    
  13.4            1.1638e-009     -1.1706e-009   
  13.3            1.0354e-009     -1.0414e-009   
  13.2            9.2738e-010     -9.248e-010    
  13.1            8.7288e-010     -8.478e-010    
  13              8.0566e-010     -8.168e-010    
  12.9            7.3242e-010     -7.416e-010    
  12.8            7.0928e-010     -7.09e-010     
  12.7            6.6048e-010     -6.596e-010    
  12.6            5.8668e-010     -5.89e-010     
  12.5            5.2492e-010     -5.2966e-010   
  12.4            4.9482e-010     -4.8934e-010   
  12.3            4.5986e-010     -4.4982e-010   
  12.2            4.192e-010      -4.0488e-010   
  12.1            3.911e-010      -3.8052e-010   
  12              3.6902e-010     -3.585e-010    
  11.9            3.4788e-010     -3.3134e-010   
  11.8            3.3852e-010     -3.271e-010    
  11.7            3.1606e-010     -3.004e-010    
  11.6            3.0916e-010     -2.9212e-010   
  11.5            2.9034e-010     -2.6986e-010   
  11.4            2.7342e-010     -2.4424e-010   
  11.3            2.5618e-010     -2.4224e-010   
  11.2            2.4496e-010     -2.24e-010     
  11.1            2.3234e-010     -2.0672e-010   
  11              2.2134e-010     -1.9718e-010   
  10.9            2.0362e-010     -1.8722e-010   
  10.8            1.9784e-010     -1.5678e-010   
  10.7            1.8684e-010     -1.549e-010    
  10.6            1.7892e-010     -1.3794e-010   
  10.5            1.7138e-010     -9.242e-011    
  10.4            1.6642e-010     -1.3126e-010   
  10.3            1.5634e-010     -1.2752e-010   
  10.2            1.4964e-010     -1.1874e-010   
  10.1            1.4672e-010     -1.1696e-010   
  10              1.3928e-010     -9.856e-011    
  9.9             1.3342e-010     -9.234e-011    
  9.8             1.2952e-010     -9.074e-011    
  9.7             1.2444e-010     -8.43e-011     
  9.6             1.205e-010      -8.624e-011    
  9.5             1.1644e-010     -7.614e-011    
  9.4             1.1344e-010     -6.866e-011    
  9.3             1.089e-010      -6.002e-011    
  9.2             1.053e-010      -7.126e-011    
  9.1             1.0252e-010     -5.06e-011     
  9               9.834e-011      -5.93e-011     
  8.9             9.642e-011      -5e-011        
  8.8             9.444e-011      -5.184e-011    
  8.7             9.124e-011      -4.166e-011    
  8.6             8.816e-011      -4.752e-011    
  8.5             8.678e-011      -4.2e-011      
  8.4             8.316e-011      -3.62e-011     
  8.3             8.07e-011       -2.806e-011    
  8.2             7.884e-011      -2.382e-011    
  8.1             7.786e-011      -3.428e-011    
  8               7.662e-011      -2.268e-011    
  7.9             7.458e-011      -3.17e-011     
  7.8             7.102e-011      -1.82e-011     
  7.7             6.982e-011      -3.228e-011    
  7.6             6.844e-011      -1.61e-011     
  7.5             6.688e-011      -1.868e-011    
  7.4             6.524e-011      -1.232e-011    
  7.3             6.478e-011      -1.762e-011    
  7.2             6.2e-011        -1.054e-011    
  7.1             6.156e-011      -1.36e-011     
  7               5.992e-011      -1.746e-011    
  6.9             5.896e-011      -1.216e-011    
  6.8             5.764e-011      -9.16e-012     
  6.7             5.66e-011       4.2e-013       
  6.6             5.512e-011      -1.61e-011     
  6.5             5.36e-011       -3.84e-012     
  6.4             5.282e-011      -2.61e-011     
  6.3             5.094e-011      -1.032e-011    
  6.2             4.93e-011       -6.04e-012     
  6.1             4.81e-011       1.88e-012      
  6               4.632e-011      1.14e-012      
  5.9             4.54e-011       1.44e-012      
  5.8             4.52e-011       6.2e-013       
  5.7             4.348e-011      1.246e-011     
  5.6             4.25e-011       6.78e-012      
  5.5             4.146e-011      -1.2e-012      
  5.4             4.086e-011      1.086e-011     
  5.3             3.948e-011      1.8e-013       
  5.2             3.816e-011      1.266e-011     
  5.1             3.85e-011       1e-011         
  5               3.794e-011      1.548e-011     
  4.9             3.678e-011      9.36e-012      
  4.8             3.546e-011      8.56e-012      
  4.7             3.486e-011      7.56e-012      
  4.6             3.422e-011      1.364e-011     
  4.5             3.298e-011      9.82e-012      
  4.4             3.142e-011      1.624e-011     
  4.3             3.154e-011      1.408e-011     
  4.2             3.024e-011      2.036e-011     
  4.1             2.93e-011       2.294e-011     
  4               2.876e-011      1.928e-011     
  3.9             2.842e-011      2.04e-011      
  3.8             2.772e-011      1.494e-011     
  3.7             2.698e-011      2.232e-011     
  3.6             2.566e-011      1.986e-011     
  3.5             2.53e-011       2.44e-011      
  3.4             2.456e-011      2.84e-011      
  3.3             2.358e-011      2.272e-011     
  3.2             2.296e-011      2.268e-011     
  3.1             2.262e-011      2.162e-011     
  3               2.24e-011       2.236e-011     
  2.9             2.172e-011      2.27e-011      
  2.8             2.092e-011      2.722e-011     
  2.7             2.048e-011      2.406e-011     
  2.6             2.006e-011      3.166e-011     
  2.5             1.93e-011       3.154e-011     
  2.4             1.874e-011      2.76e-011      
  2.3             1.85e-011       2.98e-011      
  2.2             1.856e-011      2.738e-011     
  2.1             1.786e-011      2.43e-011      
  2               1.728e-011      2.824e-011     
  1.9             1.676e-011      3.54e-011      
  1.8             1.66e-011       3.26e-011      
  1.7             1.604e-011      3.264e-011     
  1.6             1.522e-011      3.812e-011     
  1.5             1.52e-011       3.198e-011     
  1.4             1.486e-011      2.8e-011       
  1.3             1.46e-011       3.826e-011     
  1.2             1.344e-011      2.506e-011     
  1.1             1.33e-011       3.792e-011     
  1               1.338e-011      4.424e-011     
  0.9             1.3e-011        3.686e-011     
  0.8             1.198e-011      3.164e-011     
  0.7             1.164e-011      3.272e-011     
  0.6             1.168e-011      4.628e-011     
  0.5             1.118e-011      2.802e-011     
  0.4             1.022e-011      3.31e-011      
  0.3             9.56e-012       3.818e-011     
  0.2             8.9e-012        4.324e-011     
  0.1             7.22e-012       3.982e-011     
  0               -4e-013         5.326e-011     
END_DB

